Time,[s],,Analyzer,Name,,Decoded,Protocol,Result
0.000012,I2C,Setup,Write,to,['208',(0xD0)],+,ACK
0.00022825,I2C,C,(0x43),+,ACK,,,
0.0004805,I2C,Setup,Read,to,['209',(0xD1)],+,ACK
0.00069675,I2C,'255',(0xFF),+,ACK,,,
0.000913,I2C,m,(0x6D),+,ACK,,,
0.0011295,I2C,'254',(0xFE),+,ACK,,,
0.00134575,I2C,'222',(0xDE),+,ACK,,,
0.001562,I2C,'255',(0xFF),+,ACK,,,
0.00177825,I2C,j,(0x6A),+,NAK,,,
0.00215675,I2C,Setup,Write,to,['208',(0xD0)],+,ACK
0.002373,I2C,C,(0x43),+,ACK,,,
0.0026255,I2C,Setup,Read,to,['209',(0xD1)],+,ACK
0.00284175,I2C,'255',(0xFF),+,ACK,,,
0.003058,I2C,X,(0x58),+,ACK,,,
0.00327425,I2C,'254',(0xFE),+,ACK,,,
0.0034905,I2C,'234',(0xEA),+,ACK,,,
0.00370675,I2C,'255',(0xFF),+,ACK,,,
0.003923,I2C,_,(0x5F),+,NAK,,,
0.0043015,I2C,Setup,Write,to,['208',(0xD0)],+,ACK
0.00451775,I2C,C,(0x43),+,ACK,,,
0.00477025,I2C,Setup,Read,to,['209',(0xD1)],+,ACK
0.0049865,I2C,'255',(0xFF),+,ACK,,,
0.00520275,I2C,t,(0x74),+,ACK,,,
0.005419,I2C,'254',(0xFE),+,ACK,,,
0.00563525,I2C,'204',(0xCC),+,ACK,,,
0.00585175,I2C,'255',(0xFF),+,ACK,,,
0.006068,I2C,V,(0x56),+,NAK,,,
0.0064465,I2C,Setup,Write,to,['208',(0xD0)],+,ACK
0.00666275,I2C,C,(0x43),+,ACK,,,
0.00691525,I2C,Setup,Read,to,['209',(0xD1)],+,ACK
0.0071315,I2C,'255',(0xFF),+,ACK,,,
0.00734775,I2C,m,(0x6D),+,ACK,,,
0.007564,I2C,'254',(0xFE),+,ACK,,,
0.00778025,I2C,'243',(0xF3),+,ACK,,,
0.0079965,I2C,'255',(0xFF),+,ACK,,,
0.00821275,I2C,],(0x5D),+,NAK,,,
0.00859125,I2C,Setup,Write,to,['208',(0xD0)],+,ACK
0.0088075,I2C,C,(0x43),+,ACK,,,
0.00906,I2C,Setup,Read,to,['209',(0xD1)],+,ACK
0.00927625,I2C,'255',(0xFF),+,ACK,,,
0.0094925,I2C,n,(0x6E),+,ACK,,,
0.00970875,I2C,'254',(0xFE),+,ACK,,,
0.009925,I2C,'220',(0xDC),+,ACK,,,
0.0101415,I2C,'255',(0xFF),+,ACK,,,
0.01035775,I2C,j,(0x6A),+,NAK,,,
0.01073625,I2C,Setup,Write,to,['208',(0xD0)],+,ACK
0.0109525,I2C,C,(0x43),+,ACK,,,
0.01120475,I2C,Setup,Read,to,['209',(0xD1)],+,ACK
0.01142125,I2C,'255',(0xFF),+,ACK,,,
0.0116375,I2C,m,(0x6D),+,ACK,,,
0.01185375,I2C,'254',(0xFE),+,ACK,,,
0.01207,I2C,'245',(0xF5),+,ACK,,,
0.01228625,I2C,'255',(0xFF),+,ACK,,,
0.0125025,I2C,h,(0x68),+,NAK,,,
0.012881,I2C,Setup,Write,to,['208',(0xD0)],+,ACK
0.01309725,I2C,C,(0x43),+,ACK,,,
0.01334975,I2C,Setup,Read,to,['209',(0xD1)],+,ACK
0.013566,I2C,'255',(0xFF),+,ACK,,,
0.01378225,I2C,k,(0x6B),+,ACK,,,
0.0139985,I2C,'254',(0xFE),+,ACK,,,
0.01421475,I2C,'246',(0xF6),+,ACK,,,
0.01443125,I2C,'255',(0xFF),+,ACK,,,
0.0146475,I2C,c,(0x63),+,NAK,,,
0.01502575,I2C,Setup,Write,to,['208',(0xD0)],+,ACK
0.01524225,I2C,C,(0x43),+,ACK,,,
0.0154945,I2C,Setup,Read,to,['209',(0xD1)],+,ACK
0.01571075,I2C,'255',(0xFF),+,ACK,,,
0.015927,I2C,e,(0x65),+,ACK,,,
0.01614325,I2C,'254',(0xFE),+,ACK,,,
0.01635975,I2C,'246',(0xF6),+,ACK,,,
0.016576,I2C,'255',(0xFF),+,ACK,,,
0.01679225,I2C,c,(0x63),+,NAK,,,
0.01717075,I2C,Setup,Write,to,['208',(0xD0)],+,ACK
0.017387,I2C,C,(0x43),+,ACK,,,
0.01763925,I2C,Setup,Read,to,['209',(0xD1)],+,ACK
0.0178555,I2C,'255',(0xFF),+,ACK,,,
0.01807175,I2C,'131',(0x83),+,ACK,,,
0.018288,I2C,'254',(0xFE),+,ACK,,,
0.01850425,I2C,'233',(0xE9),+,ACK,,,
0.01872075,I2C,'255',(0xFF),+,ACK,,,
0.018937,I2C,z,(0x7A),+,NAK,,,
0.01931525,I2C,Setup,Write,to,['208',(0xD0)],+,ACK
0.0195315,I2C,C,(0x43),+,ACK,,,
0.019784,I2C,Setup,Read,to,['209',(0xD1)],+,ACK
0.02000025,I2C,'255',(0xFF),+,ACK,,,
0.0202165,I2C,c,(0x63),+,ACK,,,
0.02043275,I2C,'254',(0xFE),+,ACK,,,
0.020649,I2C,'243',(0xF3),+,ACK,,,
0.02086525,I2C,'255',(0xFF),+,ACK,,,
0.0210815,I2C,V,(0x56),+,NAK,,,
0.02146,I2C,Setup,Write,to,['208',(0xD0)],+,ACK
0.02167625,I2C,C,(0x43),+,ACK,,,
0.02192875,I2C,Setup,Read,to,['209',(0xD1)],+,ACK
0.022145,I2C,'255',(0xFF),+,ACK,,,
0.02236125,I2C,u,(0x75),+,ACK,,,
0.0225775,I2C,'254',(0xFE),+,ACK,,,
0.02279375,I2C,'215',(0xD7),+,ACK,,,
0.02301,I2C,'255',(0xFF),+,ACK,,,
0.02322625,I2C,V,(0x56),+,NAK,,,
0.0236045,I2C,Setup,Write,to,['208',(0xD0)],+,ACK
0.023821,I2C,C,(0x43),+,ACK,,,
0.02407325,I2C,Setup,Read,to,['209',(0xD1)],+,ACK
0.0242895,I2C,'255',(0xFF),+,ACK,,,
0.02450575,I2C,'128',(0x80),+,ACK,,,
0.024722,I2C,'254',(0xFE),+,ACK,,,
0.0249385,I2C,'219',(0xDB),+,ACK,,,
0.02515475,I2C,'255',(0xFF),+,ACK,,,
0.025371,I2C,k,(0x6B),+,NAK,,,
0.0257495,I2C,Setup,Write,to,['208',(0xD0)],+,ACK
0.02596575,I2C,C,(0x43),+,ACK,,,
0.026218,I2C,Setup,Read,to,['209',(0xD1)],+,ACK
0.02643425,I2C,'255',(0xFF),+,ACK,,,
0.0266505,I2C,p,(0x70),+,ACK,,,
0.02686675,I2C,'254',(0xFE),+,ACK,,,
0.02708325,I2C,'221',(0xDD),+,ACK,,,
0.0272995,I2C,'255',(0xFF),+,ACK,,,
0.02751575,I2C,s,(0x73),+,NAK,,,
0.02789425,I2C,Setup,Write,to,['208',(0xD0)],+,ACK
0.0281105,I2C,C,(0x43),+,ACK,,,
0.02836275,I2C,Setup,Read,to,['209',(0xD1)],+,ACK
0.028579,I2C,'255',(0xFF),+,ACK,,,
0.02879525,I2C,'127',(0x7F),+,ACK,,,
0.02901175,I2C,'254',(0xFE),+,ACK,,,
0.02922775,I2C,'239',(0xEF),+,ACK,,,
0.029444,I2C,'255',(0xFF),+,ACK,,,
0.02966025,I2C,_,(0x5F),+,NAK,,,
0.030039,I2C,Setup,Write,to,['208',(0xD0)],+,ACK
0.03025525,I2C,C,(0x43),+,ACK,,,
0.03050775,I2C,Setup,Read,to,['209',(0xD1)],+,ACK
0.03072375,I2C,'255',(0xFF),+,ACK,,,
0.03094,I2C,'134',(0x86),+,ACK,,,
0.0311565,I2C,'254',(0xFE),+,ACK,,,
0.03137275,I2C,'254',(0xFE),+,ACK,,,
0.031589,I2C,'255',(0xFF),+,ACK,,,
0.03180525,I2C,n,(0x6E),+,NAK,,,
0.03218375,I2C,Setup,Write,to,['208',(0xD0)],+,ACK
0.0324,I2C,C,(0x43),+,ACK,,,
0.0326525,I2C,Setup,Read,to,['209',(0xD1)],+,ACK
0.03286875,I2C,'255',(0xFF),+,ACK,,,
0.033085,I2C,c,(0x63),+,ACK,,,
0.03330125,I2C,'254',(0xFE),+,ACK,,,
0.0335175,I2C,'234',(0xEA),+,ACK,,,
0.03373375,I2C,'255',(0xFF),+,ACK,,,
0.03395,I2C,c,(0x63),+,NAK,,,
0.0343285,I2C,Setup,Write,to,['208',(0xD0)],+,ACK
0.03454475,I2C,C,(0x43),+,ACK,,,
0.034797,I2C,Setup,Read,to,['209',(0xD1)],+,ACK
0.03501325,I2C,'255',(0xFF),+,ACK,,,
0.0352295,I2C,'129',(0x81),+,ACK,,,
0.035446,I2C,'254',(0xFE),+,ACK,,,
0.035662,I2C,'196',(0xC4),+,ACK,,,
0.03587825,I2C,'255',(0xFF),+,ACK,,,
0.0360945,I2C,P,(0x50),+,NAK,,,
0.036473,I2C,Setup,Write,to,['208',(0xD0)],+,ACK
0.03668925,I2C,C,(0x43),+,ACK,,,
0.0369415,I2C,Setup,Read,to,['209',(0xD1)],+,ACK
0.03715775,I2C,'255',(0xFF),+,ACK,,,
0.03737425,I2C,'133',(0x85),+,ACK,,,
0.03759025,I2C,'254',(0xFE),+,ACK,,,
0.0378065,I2C,'229',(0xE5),+,ACK,,,
0.03802275,I2C,'255',(0xFF),+,ACK,,,
0.03823925,I2C,`,(0x60),+,NAK,,,
0.0386175,I2C,Setup,Write,to,['208',(0xD0)],+,ACK
0.03883375,I2C,C,(0x43),+,ACK,,,
0.039086,I2C,Setup,Read,to,['209',(0xD1)],+,ACK
0.03930225,I2C,'255',(0xFF),+,ACK,,,
0.03951875,I2C,e,(0x65),+,ACK,,,
0.039735,I2C,'254',(0xFE),+,ACK,,,
0.039951,I2C,'218',(0xDA),+,ACK,,,
0.04016725,I2C,'255',(0xFF),+,ACK,,,
0.04038375,I2C,I,(0x49),+,NAK,,,
0.040762,I2C,Setup,Write,to,['208',(0xD0)],+,ACK
0.04097825,I2C,C,(0x43),+,ACK,,,
0.0412305,I2C,Setup,Read,to,['209',(0xD1)],+,ACK
0.04144675,I2C,'255',(0xFF),+,ACK,,,
0.04166325,I2C,s,(0x73),+,ACK,,,
0.04187925,I2C,'254',(0xFE),+,ACK,,,
0.0420955,I2C,'215',(0xD7),+,ACK,,,
0.04231175,I2C,'255',(0xFF),+,ACK,,,
0.04252825,I2C,W,(0x57),+,NAK,,,
0.0429065,I2C,Setup,Write,to,['208',(0xD0)],+,ACK
0.04312275,I2C,C,(0x43),+,ACK,,,
0.043375,I2C,Setup,Read,to,['209',(0xD1)],+,ACK
0.04359125,I2C,'255',(0xFF),+,ACK,,,
0.04380775,I2C,|,(0x7C),+,ACK,,,
0.04402375,I2C,'254',(0xFE),+,ACK,,,
0.04424,I2C,'237',(0xED),+,ACK,,,
0.04445625,I2C,'255',(0xFF),+,ACK,,,
0.04467275,I2C,^,(0x5E),+,NAK,,,
0.045051,I2C,Setup,Write,to,['208',(0xD0)],+,ACK
0.04526725,I2C,C,(0x43),+,ACK,,,
0.0455195,I2C,Setup,Read,to,['209',(0xD1)],+,ACK
0.045736,I2C,'255',(0xFF),+,ACK,,,
0.04595225,I2C,x,(0x78),+,ACK,,,
0.0461685,I2C,'255',(0xFF),+,ACK,,,
0.04638475,I2C,\r,(0x0D),+,ACK,,,
0.046601,I2C,'255',(0xFF),+,ACK,,,
0.04681725,I2C,U,(0x55),+,NAK,,,
0.04719575,I2C,Setup,Write,to,['208',(0xD0)],+,ACK
0.04741175,I2C,C,(0x43),+,ACK,,,
0.04766425,I2C,Setup,Read,to,['209',(0xD1)],+,ACK
0.0478805,I2C,'255',(0xFF),+,ACK,,,
0.04809675,I2C,v,(0x76),+,ACK,,,
0.048313,I2C,'254',(0xFE),+,ACK,,,
0.04852925,I2C,'201',(0xC9),+,ACK,,,
0.0487455,I2C,'255',(0xFF),+,ACK,,,
0.04896175,I2C,J,(0x4A),+,NAK,,,
0.04934025,I2C,Setup,Write,to,['208',(0xD0)],+,ACK
0.0495565,I2C,C,(0x43),+,ACK,,,
0.049809,I2C,Setup,Read,to,['209',(0xD1)],+,ACK
0.05002525,I2C,'255',(0xFF),+,ACK,,,
0.0502415,I2C,'131',(0x83),+,ACK,,,
0.05045775,I2C,'254',(0xFE),+,ACK,,,
0.050674,I2C,'239',(0xEF),+,ACK,,,
0.05089025,I2C,'255',(0xFF),+,ACK,,,
0.0511065,I2C,'127',(0x7F),+,NAK,,,
0.051485,I2C,Setup,Write,to,['208',(0xD0)],+,ACK
0.0517015,I2C,C,(0x43),+,ACK,,,
0.05195375,I2C,Setup,Read,to,['209',(0xD1)],+,ACK
0.05217,I2C,'255',(0xFF),+,ACK,,,
0.05238625,I2C,'136',(0x88),+,ACK,,,
0.0526025,I2C,'254',(0xFE),+,ACK,,,
0.05281875,I2C,'232',(0xE8),+,ACK,,,
0.05303525,I2C,'255',(0xFF),+,ACK,,,
0.0532515,I2C,Y,(0x59),+,NAK,,,
0.05363,I2C,Setup,Write,to,['208',(0xD0)],+,ACK
0.05384625,I2C,C,(0x43),+,ACK,,,
0.05409875,I2C,Setup,Read,to,['209',(0xD1)],+,ACK
0.05431475,I2C,'255',(0xFF),+,ACK,,,
0.054531,I2C,v,(0x76),+,ACK,,,
0.05474725,I2C,'254',(0xFE),+,ACK,,,
0.05496375,I2C,'227',(0xE3),+,ACK,,,
0.05517975,I2C,'255',(0xFF),+,ACK,,,
0.055396,I2C,j,(0x6A),+,NAK,,,
0.0557745,I2C,Setup,Write,to,['208',(0xD0)],+,ACK
0.05599075,I2C,C,(0x43),+,ACK,,,
0.05624325,I2C,Setup,Read,to,['209',(0xD1)],+,ACK
0.0564595,I2C,'255',(0xFF),+,ACK,,,
0.05667575,I2C,k,(0x6B),+,ACK,,,
0.056892,I2C,'254',(0xFE),+,ACK,,,
0.05710825,I2C,'201',(0xC9),+,ACK,,,
0.0573245,I2C,'255',(0xFF),+,ACK,,,
0.05754075,I2C,K,(0x4B),+,NAK,,,
0.05791925,I2C,Setup,Write,to,['208',(0xD0)],+,ACK
0.0581355,I2C,C,(0x43),+,ACK,,,
0.058388,I2C,Setup,Read,to,['209',(0xD1)],+,ACK
0.05860425,I2C,'255',(0xFF),+,ACK,,,
0.0588205,I2C,'128',(0x80),+,ACK,,,
0.05903675,I2C,'254',(0xFE),+,ACK,,,
0.059253,I2C,'245',(0xF5),+,ACK,,,
0.05946925,I2C,'255',(0xFF),+,ACK,,,
0.0596855,I2C,n,(0x6E),+,NAK,,,
0.060064,I2C,Setup,Write,to,['208',(0xD0)],+,ACK
0.06028025,I2C,C,(0x43),+,ACK,,,
0.0605325,I2C,Setup,Read,to,['209',(0xD1)],+,ACK
0.06074875,I2C,'255',(0xFF),+,ACK,,,
0.060965,I2C,i,(0x69),+,ACK,,,
0.06118125,I2C,'254',(0xFE),+,ACK,,,
0.06139775,I2C,'229',(0xE5),+,ACK,,,
0.06161375,I2C,'255',(0xFF),+,ACK,,,
0.06183025,I2C,O,(0x4F),+,NAK,,,
0.0622085,I2C,Setup,Write,to,['208',(0xD0)],+,ACK
0.062425,I2C,C,(0x43),+,ACK,,,
0.06267725,I2C,Setup,Read,to,['209',(0xD1)],+,ACK
0.0628935,I2C,'255',(0xFF),+,ACK,,,
0.06310975,I2C,'138',(0x8A),+,ACK,,,
0.063326,I2C,'254',(0xFE),+,ACK,,,
0.06354225,I2C,'244',(0xF4),+,ACK,,,
0.0637585,I2C,'255',(0xFF),+,ACK,,,
0.06397475,I2C,u,(0x75),+,NAK,,,
0.06435325,I2C,Setup,Write,to,['208',(0xD0)],+,ACK
0.0645695,I2C,C,(0x43),+,ACK,,,
0.064822,I2C,Setup,Read,to,['209',(0xD1)],+,ACK
0.06503825,I2C,'255',(0xFF),+,ACK,,,
0.06525425,I2C,k,(0x6B),+,ACK,,,
0.06547075,I2C,'254',(0xFE),+,ACK,,,
0.06568675,I2C,'216',(0xD8),+,ACK,,,
0.065903,I2C,'255',(0xFF),+,ACK,,,
0.06611925,I2C,W,(0x57),+,NAK,,,
0.06649775,I2C,Setup,Write,to,['208',(0xD0)],+,ACK
0.066714,I2C,C,(0x43),+,ACK,,,
0.0669665,I2C,Setup,Read,to,['209',(0xD1)],+,ACK
0.06718275,I2C,'255',(0xFF),+,ACK,,,
0.067399,I2C,h,(0x68),+,ACK,,,
0.06761525,I2C,'255',(0xFF),+,ACK,,,
0.0678315,I2C,'4',(0x04),+,ACK,,,
0.06804775,I2C,'255',(0xFF),+,ACK,,,
0.068264,I2C,s,(0x73),+,NAK,,,
0.0686425,I2C,Setup,Write,to,['208',(0xD0)],+,ACK
0.06885875,I2C,C,(0x43),+,ACK,,,
0.069111,I2C,Setup,Read,to,['209',(0xD1)],+,ACK
0.06932725,I2C,'255',(0xFF),+,ACK,,,
0.0695435,I2C,h,(0x68),+,ACK,,,
0.06975975,I2C,'254',(0xFE),+,ACK,,,
0.069976,I2C,'216',(0xD8),+,ACK,,,
0.07019225,I2C,'255',(0xFF),+,ACK,,,
0.0704085,I2C,p,(0x70),+,NAK,,,
0.07078725,I2C,Setup,Write,to,['208',(0xD0)],+,ACK
0.0710035,I2C,C,(0x43),+,ACK,,,
0.07125575,I2C,Setup,Read,to,['209',(0xD1)],+,ACK
0.071472,I2C,'255',(0xFF),+,ACK,,,
0.07168825,I2C,[,(0x5B),+,ACK,,,
0.0719045,I2C,'254',(0xFE),+,ACK,,,
0.07212075,I2C,'228',(0xE4),+,ACK,,,
0.072337,I2C,'255',(0xFF),+,ACK,,,
0.07255325,I2C,d,(0x64),+,NAK,,,
0.07293175,I2C,Setup,Write,to,['208',(0xD0)],+,ACK
0.073148,I2C,C,(0x43),+,ACK,,,
0.07340025,I2C,Setup,Read,to,['209',(0xD1)],+,ACK
0.0736165,I2C,'255',(0xFF),+,ACK,,,
0.07383275,I2C,s,(0x73),+,ACK,,,
0.074049,I2C,'254',(0xFE),+,ACK,,,
0.0742655,I2C,'232',(0xE8),+,ACK,,,
0.07448175,I2C,'255',(0xFF),+,ACK,,,
0.074698,I2C,j,(0x6A),+,NAK,,,
0.0750765,I2C,Setup,Write,to,['208',(0xD0)],+,ACK
0.0752925,I2C,C,(0x43),+,ACK,,,
0.075545,I2C,Setup,Read,to,['209',(0xD1)],+,ACK
0.075761,I2C,'255',(0xFF),+,ACK,,,
0.0759775,I2C,u,(0x75),+,ACK,,,
0.07619375,I2C,'254',(0xFE),+,ACK,,,
0.07641,I2C,'224',(0xE0),+,ACK,,,
0.076626,I2C,'255',(0xFF),+,ACK,,,
0.0768425,I2C,h,(0x68),+,NAK,,,
0.07722075,I2C,Setup,Write,to,['208',(0xD0)],+,ACK
0.077437,I2C,C,(0x43),+,ACK,,,
0.0776895,I2C,Setup,Read,to,['209',(0xD1)],+,ACK
0.0779055,I2C,'255',(0xFF),+,ACK,,,
0.078122,I2C,o,(0x6F),+,ACK,,,
0.07833825,I2C,'254',(0xFE),+,ACK,,,
0.0785545,I2C,'228',(0xE4),+,ACK,,,
0.07877075,I2C,'255',(0xFF),+,ACK,,,
0.078987,I2C,t,(0x74),+,NAK,,,
0.07936525,I2C,Setup,Write,to,['208',(0xD0)],+,ACK
0.0795815,I2C,C,(0x43),+,ACK,,,
0.079834,I2C,Setup,Read,to,['209',(0xD1)],+,ACK
0.08005025,I2C,'255',(0xFF),+,ACK,,,
0.0802665,I2C,o,(0x6F),+,ACK,,,
0.08048275,I2C,'254',(0xFE),+,ACK,,,
0.080699,I2C,'232',(0xE8),+,ACK,,,
0.08091525,I2C,'255',(0xFF),+,ACK,,,
0.0811315,I2C,r,(0x72),+,NAK,,,
0.08151,I2C,Setup,Write,to,['208',(0xD0)],+,ACK
0.08172625,I2C,C,(0x43),+,ACK,,,
0.0819785,I2C,Setup,Read,to,['209',(0xD1)],+,ACK
0.08219475,I2C,'255',(0xFF),+,ACK,,,
0.082411,I2C,a,(0x61),+,ACK,,,
0.08262725,I2C,'254',(0xFE),+,ACK,,,
0.0828435,I2C,'229',(0xE5),+,ACK,,,
0.08306,I2C,'255',(0xFF),+,ACK,,,
0.08327625,I2C,c,(0x63),+,NAK,,,
0.08365475,I2C,Setup,Write,to,['208',(0xD0)],+,ACK
0.083871,I2C,C,(0x43),+,ACK,,,
0.08412325,I2C,Setup,Read,to,['209',(0xD1)],+,ACK
0.08433975,I2C,'255',(0xFF),+,ACK,,,
0.084556,I2C,g,(0x67),+,ACK,,,
0.08477225,I2C,'254',(0xFE),+,ACK,,,
0.0849885,I2C,'224',(0xE0),+,ACK,,,
0.08520475,I2C,'255',(0xFF),+,ACK,,,
0.085421,I2C,b,(0x62),+,NAK,,,
0.0857995,I2C,Setup,Write,to,['208',(0xD0)],+,ACK
0.08601575,I2C,C,(0x43),+,ACK,,,
0.086268,I2C,Setup,Read,to,['209',(0xD1)],+,ACK
0.0864845,I2C,'255',(0xFF),+,ACK,,,
0.08670075,I2C,i,(0x69),+,ACK,,,
0.086917,I2C,'255',(0xFF),+,ACK,,,
0.087133,I2C,'3',(0x03),+,ACK,,,
0.0873495,I2C,'255',(0xFF),+,ACK,,,
0.08756575,I2C,r,(0x72),+,NAK,,,
0.08794425,I2C,Setup,Write,to,['208',(0xD0)],+,ACK
0.0881605,I2C,C,(0x43),+,ACK,,,
0.08841325,I2C,Setup,Read,to,['209',(0xD1)],+,ACK
0.0886295,I2C,'255',(0xFF),+,ACK,,,
0.08884575,I2C,'153',(0x99),+,ACK,,,
0.089062,I2C,'254',(0xFE),+,ACK,,,
0.08927825,I2C,'219',(0xDB),+,ACK,,,
0.0894945,I2C,'255',(0xFF),+,ACK,,,
0.08971075,I2C,'128',(0x80),+,NAK,,,
0.09008925,I2C,Setup,Write,to,['208',(0xD0)],+,ACK
0.0903055,I2C,C,(0x43),+,ACK,,,
0.090558,I2C,Setup,Read,to,['209',(0xD1)],+,ACK
0.09077425,I2C,'255',(0xFF),+,ACK,,,
0.0909905,I2C,p,(0x70),+,ACK,,,
0.09120675,I2C,'254',(0xFE),+,ACK,,,
0.09142325,I2C,'197',(0xC5),+,ACK,,,
0.0916395,I2C,'255',(0xFF),+,ACK,,,
0.09185575,I2C,Y,(0x59),+,NAK,,,
0.092234,I2C,Setup,Write,to,['208',(0xD0)],+,ACK
0.0924505,I2C,C,(0x43),+,ACK,,,
0.09270275,I2C,Setup,Read,to,['209',(0xD1)],+,ACK
0.092919,I2C,'255',(0xFF),+,ACK,,,
0.09313525,I2C,'135',(0x87),+,ACK,,,
0.0933515,I2C,'254',(0xFE),+,ACK,,,
0.09356775,I2C,'248',(0xF8),+,ACK,,,
0.093784,I2C,'255',(0xFF),+,ACK,,,
0.09400025,I2C,i,(0x69),+,NAK,,,
0.09437875,I2C,Setup,Write,to,['208',(0xD0)],+,ACK
0.094595,I2C,C,(0x43),+,ACK,,,
0.0948475,I2C,Setup,Read,to,['209',(0xD1)],+,ACK
0.09506375,I2C,'255',(0xFF),+,ACK,,,
0.09528,I2C,g,(0x67),+,ACK,,,
0.09549625,I2C,'254',(0xFE),+,ACK,,,
0.0957125,I2C,'227',(0xE3),+,ACK,,,
0.09592875,I2C,'255',(0xFF),+,ACK,,,
0.096145,I2C,X,(0x58),+,NAK,,,
0.0965235,I2C,Setup,Write,to,['208',(0xD0)],+,ACK
0.09673975,I2C,C,(0x43),+,ACK,,,
0.09699225,I2C,Setup,Read,to,['209',(0xD1)],+,ACK
0.0972085,I2C,'255',(0xFF),+,ACK,,,
0.09742475,I2C,t,(0x74),+,ACK,,,
0.097641,I2C,'255',(0xFF),+,ACK,,,
0.09785725,I2C,\t,(0x09),+,ACK,,,
0.09807375,I2C,'255',(0xFF),+,ACK,,,
0.09829,I2C,B,(0x42),+,NAK,,,
0.0986685,I2C,Setup,Write,to,['208',(0xD0)],+,ACK
0.09888475,I2C,C,(0x43),+,ACK,,,
0.099137,I2C,Setup,Read,to,['209',(0xD1)],+,ACK
0.09935325,I2C,'255',(0xFF),+,ACK,,,
0.0995695,I2C,'140',(0x8C),+,ACK,,,
0.099786,I2C,'254',(0xFE),+,ACK,,,
0.10000225,I2C,'250',(0xFA),+,ACK,,,
0.1002185,I2C,'255',(0xFF),+,ACK,,,
0.10043475,I2C,W,(0x57),+,NAK,,,
0.10081325,I2C,Setup,Write,to,['208',(0xD0)],+,ACK
0.1010295,I2C,C,(0x43),+,ACK,,,
0.101282,I2C,Setup,Read,to,['209',(0xD1)],+,ACK
0.10149825,I2C,'255',(0xFF),+,ACK,,,
0.10171475,I2C,\,(0x5C),+,ACK,,,
0.101931,I2C,'254',(0xFE),+,ACK,,,
0.1021475,I2C,'224',(0xE0),+,ACK,,,
0.10236375,I2C,'255',(0xFF),+,ACK,,,
0.10258,I2C,d,(0x64),+,NAK,,,
0.10295875,I2C,Setup,Write,to,['208',(0xD0)],+,ACK
0.103175,I2C,C,(0x43),+,ACK,,,
0.10342725,I2C,Setup,Read,to,['209',(0xD1)],+,ACK
0.10364375,I2C,'255',(0xFF),+,ACK,,,
0.10386,I2C,},(0x7D),+,ACK,,,
0.10407625,I2C,'254',(0xFE),+,ACK,,,
0.1042925,I2C,'236',(0xEC),+,ACK,,,
0.10450875,I2C,'255',(0xFF),+,ACK,,,
0.10472525,I2C,l,(0x6C),+,NAK,,,
0.10510375,I2C,Setup,Write,to,['208',(0xD0)],+,ACK
0.10532,I2C,C,(0x43),+,ACK,,,
0.1055725,I2C,Setup,Read,to,['209',(0xD1)],+,ACK
0.10578875,I2C,'255',(0xFF),+,ACK,,,
0.106005,I2C,j,(0x6A),+,ACK,,,
0.10622125,I2C,'254',(0xFE),+,ACK,,,
0.1064375,I2C,'227',(0xE3),+,ACK,,,
0.10665375,I2C,'255',(0xFF),+,ACK,,,
0.10687025,I2C,h,(0x68),+,NAK,,,
0.10724875,I2C,Setup,Write,to,['208',(0xD0)],+,ACK
0.107465,I2C,C,(0x43),+,ACK,,,
0.10771725,I2C,Setup,Read,to,['209',(0xD1)],+,ACK
0.1079335,I2C,'255',(0xFF),+,ACK,,,
0.10815,I2C,~,(0x7E),+,ACK,,,
0.10836625,I2C,'254',(0xFE),+,ACK,,,
0.1085825,I2C,'224',(0xE0),+,ACK,,,
0.10879875,I2C,'255',(0xFF),+,ACK,,,
0.109015,I2C,f,(0x66),+,NAK,,,
0.1093935,I2C,Setup,Write,to,['208',(0xD0)],+,ACK
0.10961,I2C,C,(0x43),+,ACK,,,
0.10986225,I2C,Setup,Read,to,['209',(0xD1)],+,ACK
0.1100785,I2C,'255',(0xFF),+,ACK,,,
0.110295,I2C,|,(0x7C),+,ACK,,,
0.11051125,I2C,'254',(0xFE),+,ACK,,,
0.1107275,I2C,'225',(0xE1),+,ACK,,,
0.11094375,I2C,'255',(0xFF),+,ACK,,,
0.11116,I2C,e,(0x65),+,NAK,,,
0.1115385,I2C,Setup,Write,to,['208',(0xD0)],+,ACK
0.11175475,I2C,C,(0x43),+,ACK,,,
0.11200725,I2C,Setup,Read,to,['209',(0xD1)],+,ACK
0.1122235,I2C,'255',(0xFF),+,ACK,,,
0.11243975,I2C,d,(0x64),+,ACK,,,
0.112656,I2C,'254',(0xFE),+,ACK,,,
0.1128725,I2C,'226',(0xE2),+,ACK,,,
0.11308875,I2C,'255',(0xFF),+,ACK,,,
0.113305,I2C,N,(0x4E),+,NAK,,,
0.1136835,I2C,Setup,Write,to,['208',(0xD0)],+,ACK
0.11389975,I2C,C,(0x43),+,ACK,,,
0.114152,I2C,Setup,Read,to,['209',(0xD1)],+,ACK
0.1143685,I2C,'255',(0xFF),+,ACK,,,
0.1145845,I2C,'134',(0x86),+,ACK,,,
0.114801,I2C,'254',(0xFE),+,ACK,,,
0.11501725,I2C,'245',(0xF5),+,ACK,,,
0.1152335,I2C,'255',(0xFF),+,ACK,,,
0.11544975,I2C,a,(0x61),+,NAK,,,
0.11582825,I2C,Setup,Write,to,['208',(0xD0)],+,ACK
0.1160445,I2C,C,(0x43),+,ACK,,,
0.11629675,I2C,Setup,Read,to,['209',(0xD1)],+,ACK
0.11651325,I2C,'255',(0xFF),+,ACK,,,
0.1167295,I2C,'137',(0x89),+,ACK,,,
0.11694575,I2C,'254',(0xFE),+,ACK,,,
0.11716175,I2C,'251',(0xFB),+,ACK,,,
0.11737825,I2C,'255',(0xFF),+,ACK,,,
0.11759425,I2C,m,(0x6D),+,NAK,,,
0.11797275,I2C,Setup,Write,to,['208',(0xD0)],+,ACK
0.118189,I2C,C,(0x43),+,ACK,,,
0.11844125,I2C,Setup,Read,to,['209',(0xD1)],+,ACK
0.1186575,I2C,'255',(0xFF),+,ACK,,,
0.11887375,I2C,|,(0x7C),+,ACK,,,
0.11909,I2C,'254',(0xFE),+,ACK,,,
0.11930625,I2C,'228',(0xE4),+,ACK,,,
0.1195225,I2C,'255',(0xFF),+,ACK,,,
0.11973875,I2C,z,(0x7A),+,NAK,,,
0.12011725,I2C,Setup,Write,to,['208',(0xD0)],+,ACK
0.1203335,I2C,C,(0x43),+,ACK,,,
0.12058575,I2C,Setup,Read,to,['209',(0xD1)],+,ACK
0.120802,I2C,'255',(0xFF),+,ACK,,,
0.12101825,I2C,w,(0x77),+,ACK,,,
0.1212345,I2C,'254',(0xFE),+,ACK,,,
0.12145075,I2C,'212',(0xD4),+,ACK,,,
0.121667,I2C,'255',(0xFF),+,ACK,,,
0.121883,I2C,[,(0x5B),+,NAK,,,
0.1222615,I2C,Setup,Write,to,['208',(0xD0)],+,ACK
0.12247775,I2C,C,(0x43),+,ACK,,,
0.12273,I2C,Setup,Read,to,['209',(0xD1)],+,ACK
0.12294625,I2C,'255',(0xFF),+,ACK,,,
0.1231625,I2C,q,(0x71),+,ACK,,,
0.1233785,I2C,'254',(0xFE),+,ACK,,,
0.12359475,I2C,'198',(0xC6),+,ACK,,,
0.123811,I2C,'255',(0xFF),+,ACK,,,
0.12402725,I2C,r,(0x72),+,NAK,,,
0.12440575,I2C,Setup,Write,to,['208',(0xD0)],+,ACK
0.124622,I2C,C,(0x43),+,ACK,,,
0.12487425,I2C,Setup,Read,to,['209',(0xD1)],+,ACK
0.12509075,I2C,'255',(0xFF),+,ACK,,,
0.125307,I2C,r,(0x72),+,ACK,,,
0.12552325,I2C,'254',(0xFE),+,ACK,,,
0.1257395,I2C,'212',(0xD4),+,ACK,,,
0.12595575,I2C,'255',(0xFF),+,ACK,,,
0.126172,I2C,d,(0x64),+,NAK,,,
0.1265505,I2C,Setup,Write,to,['208',(0xD0)],+,ACK
0.12676675,I2C,C,(0x43),+,ACK,,,
0.127019,I2C,Setup,Read,to,['209',(0xD1)],+,ACK
0.12723525,I2C,'255',(0xFF),+,ACK,,,
0.1274515,I2C,f,(0x66),+,ACK,,,
0.12766775,I2C,'254',(0xFE),+,ACK,,,
0.12788425,I2C,'246',(0xF6),+,ACK,,,
0.1281005,I2C,'255',(0xFF),+,ACK,,,
0.12831675,I2C,'135',(0x87),+,NAK,,,
0.128695,I2C,Setup,Write,to,['208',(0xD0)],+,ACK
0.1289115,I2C,C,(0x43),+,ACK,,,
0.12916375,I2C,Setup,Read,to,['209',(0xD1)],+,ACK
0.12938,I2C,'255',(0xFF),+,ACK,,,
0.12959625,I2C,u,(0x75),+,ACK,,,
0.1298125,I2C,'254',(0xFE),+,ACK,,,
0.130029,I2C,'248',(0xF8),+,ACK,,,
0.13024525,I2C,'255',(0xFF),+,ACK,,,
0.1304615,I2C,p,(0x70),+,NAK,,,
0.13084,I2C,Setup,Write,to,['208',(0xD0)],+,ACK
0.13105625,I2C,C,(0x43),+,ACK,,,
0.1313085,I2C,Setup,Read,to,['209',(0xD1)],+,ACK
0.131525,I2C,'255',(0xFF),+,ACK,,,
0.13174125,I2C,\,(0x5C),+,ACK,,,
0.1319575,I2C,'254',(0xFE),+,ACK,,,
0.13217375,I2C,'237',(0xED),+,ACK,,,
0.13239,I2C,'255',(0xFF),+,ACK,,,
0.13260625,I2C,s,(0x73),+,NAK,,,
0.13298475,I2C,Setup,Write,to,['208',(0xD0)],+,ACK
0.13320125,I2C,C,(0x43),+,ACK,,,
0.1334535,I2C,Setup,Read,to,['209',(0xD1)],+,ACK
0.13366975,I2C,'255',(0xFF),+,ACK,,,
0.133886,I2C,a,(0x61),+,ACK,,,
0.13410225,I2C,'254',(0xFE),+,ACK,,,
0.1343185,I2C,'221',(0xDD),+,ACK,,,
0.13453475,I2C,'255',(0xFF),+,ACK,,,
0.134751,I2C,r,(0x72),+,NAK,,,
0.13512975,I2C,Setup,Write,to,['208',(0xD0)],+,ACK
0.135346,I2C,C,(0x43),+,ACK,,,
0.13559825,I2C,Setup,Read,to,['209',(0xD1)],+,ACK
0.13581475,I2C,'255',(0xFF),+,ACK,,,
0.136031,I2C,'129',(0x81),+,ACK,,,
0.13624725,I2C,'254',(0xFE),+,ACK,,,
0.1364635,I2C,'238',(0xEE),+,ACK,,,
0.13667975,I2C,'255',(0xFF),+,ACK,,,
0.136896,I2C,p,(0x70),+,NAK,,,
0.1372745,I2C,Setup,Write,to,['208',(0xD0)],+,ACK
0.13749075,I2C,C,(0x43),+,ACK,,,
0.13774325,I2C,Setup,Read,to,['209',(0xD1)],+,ACK
0.13795925,I2C,'255',(0xFF),+,ACK,,,
0.1381755,I2C,'139',(0x8B),+,ACK,,,
0.138392,I2C,'254',(0xFE),+,ACK,,,
0.13860825,I2C,'238',(0xEE),+,ACK,,,
0.1388245,I2C,'255',(0xFF),+,ACK,,,
0.13904075,I2C,[,(0x5B),+,NAK,,,
0.13941925,I2C,Setup,Write,to,['208',(0xD0)],+,ACK
0.1396355,I2C,C,(0x43),+,ACK,,,
0.139888,I2C,Setup,Read,to,['209',(0xD1)],+,ACK
0.140104,I2C,'255',(0xFF),+,ACK,,,
0.1403205,I2C,z,(0x7A),+,ACK,,,
0.1405365,I2C,'254',(0xFE),+,ACK,,,
0.14075275,I2C,'244',(0xF4),+,ACK,,,
0.140969,I2C,'255',(0xFF),+,ACK,,,
0.14118525,I2C,Z,(0x5A),+,NAK,,,
0.14156375,I2C,Setup,Write,to,['208',(0xD0)],+,ACK
0.14178,I2C,C,(0x43),+,ACK,,,
0.14203225,I2C,Setup,Read,to,['209',(0xD1)],+,ACK
0.14224875,I2C,'255',(0xFF),+,ACK,,,
0.142465,I2C,p,(0x70),+,ACK,,,
0.14268125,I2C,'254',(0xFE),+,ACK,,,
0.1428975,I2C,'228',(0xE4),+,ACK,,,
0.14311375,I2C,'255',(0xFF),+,ACK,,,
0.14333025,I2C,a,(0x61),+,NAK,,,
0.14370875,I2C,Setup,Write,to,['208',(0xD0)],+,ACK
0.143925,I2C,C,(0x43),+,ACK,,,
0.14417725,I2C,Setup,Read,to,['209',(0xD1)],+,ACK
0.1443935,I2C,'255',(0xFF),+,ACK,,,
0.14460975,I2C,U,(0x55),+,ACK,,,
0.144826,I2C,'254',(0xFE),+,ACK,,,
0.14504225,I2C,'212',(0xD4),+,ACK,,,
0.1452585,I2C,'255',(0xFF),+,ACK,,,
0.145475,I2C,T,(0x54),+,NAK,,,
0.14585325,I2C,Setup,Write,to,['208',(0xD0)],+,ACK
0.1460695,I2C,C,(0x43),+,ACK,,,
0.14632175,I2C,Setup,Read,to,['209',(0xD1)],+,ACK
0.146538,I2C,'255',(0xFF),+,ACK,,,
0.14675425,I2C,r,(0x72),+,ACK,,,
0.1469705,I2C,'254',(0xFE),+,ACK,,,
0.14718675,I2C,'227',(0xE3),+,ACK,,,
0.147403,I2C,'255',(0xFF),+,ACK,,,
0.14761925,I2C,r,(0x72),+,NAK,,,
0.14799775,I2C,Setup,Write,to,['208',(0xD0)],+,ACK
0.148214,I2C,C,(0x43),+,ACK,,,
0.14846625,I2C,Setup,Read,to,['209',(0xD1)],+,ACK
0.1486825,I2C,'255',(0xFF),+,ACK,,,
0.14889875,I2C,m,(0x6D),+,ACK,,,
0.149115,I2C,'254',(0xFE),+,ACK,,,
0.14933125,I2C,'238',(0xEE),+,ACK,,,
0.1495475,I2C,'255',(0xFF),+,ACK,,,
0.14976375,I2C,'129',(0x81),+,NAK,,,
0.15014225,I2C,Setup,Write,to,['208',(0xD0)],+,ACK
0.1503585,I2C,C,(0x43),+,ACK,,,
0.15061075,I2C,Setup,Read,to,['209',(0xD1)],+,ACK
0.150827,I2C,'255',(0xFF),+,ACK,,,
0.15104325,I2C,'147',(0x93),+,ACK,,,
0.1512595,I2C,'254',(0xFE),+,ACK,,,
0.15147575,I2C,'245',(0xF5),+,ACK,,,
0.151692,I2C,'255',(0xFF),+,ACK,,,
0.15190825,I2C,`,(0x60),+,NAK,,,
0.15228675,I2C,Setup,Write,to,['208',(0xD0)],+,ACK
0.152503,I2C,C,(0x43),+,ACK,,,
0.15275525,I2C,Setup,Read,to,['209',(0xD1)],+,ACK
0.1529715,I2C,'255',(0xFF),+,ACK,,,
0.15318775,I2C,l,(0x6C),+,ACK,,,
0.153404,I2C,'254',(0xFE),+,ACK,,,
0.15362,I2C,'237',(0xED),+,ACK,,,
0.1538365,I2C,'255',(0xFF),+,ACK,,,
0.1540525,I2C,i,(0x69),+,NAK,,,
0.154431,I2C,Setup,Write,to,['208',(0xD0)],+,ACK
0.15464725,I2C,C,(0x43),+,ACK,,,
0.1548995,I2C,Setup,Read,to,['209',(0xD1)],+,ACK
0.15511575,I2C,'255',(0xFF),+,ACK,,,
0.155332,I2C,],(0x5D),+,ACK,,,
0.15554825,I2C,'255',(0xFF),+,ACK,,,
0.1557645,I2C,'11',(0x0B),+,ACK,,,
0.15598075,I2C,'255',(0xFF),+,ACK,,,
0.156197,I2C,^,(0x5E),+,NAK,,,
0.1565755,I2C,Setup,Write,to,['208',(0xD0)],+,ACK
0.15679175,I2C,C,(0x43),+,ACK,,,
0.157044,I2C,Setup,Read,to,['209',(0xD1)],+,ACK
0.15726025,I2C,'255',(0xFF),+,ACK,,,
0.1574765,I2C,t,(0x74),+,ACK,,,
0.15769275,I2C,'254',(0xFE),+,ACK,,,
0.157909,I2C,'198',(0xC6),+,ACK,,,
0.15812525,I2C,'255',(0xFF),+,ACK,,,
0.1583415,I2C,Z,(0x5A),+,NAK,,,
0.15872,I2C,Setup,Write,to,['208',(0xD0)],+,ACK
0.158936,I2C,C,(0x43),+,ACK,,,
0.1591885,I2C,Setup,Read,to,['209',(0xD1)],+,ACK
0.15940475,I2C,'255',(0xFF),+,ACK,,,
0.159621,I2C,i,(0x69),+,ACK,,,
0.15983725,I2C,'254',(0xFE),+,ACK,,,
0.1600535,I2C,'204',(0xCC),+,ACK,,,
0.16026975,I2C,'255',(0xFF),+,ACK,,,
0.160486,I2C,p,(0x70),+,NAK,,,
0.16086425,I2C,Setup,Write,to,['208',(0xD0)],+,ACK
0.16108075,I2C,C,(0x43),+,ACK,,,
0.161333,I2C,Setup,Read,to,['209',(0xD1)],+,ACK
0.16154925,I2C,'255',(0xFF),+,ACK,,,
0.1617655,I2C,g,(0x67),+,ACK,,,
0.16198175,I2C,'254',(0xFE),+,ACK,,,
0.162198,I2C,'239',(0xEF),+,ACK,,,
0.16241425,I2C,'255',(0xFF),+,ACK,,,
0.1626305,I2C,],(0x5D),+,NAK,,,
0.163009,I2C,Setup,Write,to,['208',(0xD0)],+,ACK
0.16322525,I2C,C,(0x43),+,ACK,,,
0.1634775,I2C,Setup,Read,to,['209',(0xD1)],+,ACK
0.16369375,I2C,'255',(0xFF),+,ACK,,,
0.16391,I2C,b,(0x62),+,ACK,,,
0.16412625,I2C,'254',(0xFE),+,ACK,,,
0.1643425,I2C,'234',(0xEA),+,ACK,,,
0.16455875,I2C,'255',(0xFF),+,ACK,,,
0.164775,I2C,n,(0x6E),+,NAK,,,
0.1651535,I2C,Setup,Write,to,['208',(0xD0)],+,ACK
0.16536975,I2C,C,(0x43),+,ACK,,,
0.165622,I2C,Setup,Read,to,['209',(0xD1)],+,ACK
0.16583825,I2C,'255',(0xFF),+,ACK,,,
0.1660545,I2C,c,(0x63),+,ACK,,,
0.16627075,I2C,'254',(0xFE),+,ACK,,,
0.166487,I2C,'220',(0xDC),+,ACK,,,
0.16670325,I2C,'255',(0xFF),+,ACK,,,
0.1669195,I2C,[,(0x5B),+,NAK,,,
0.167298,I2C,Setup,Write,to,['208',(0xD0)],+,ACK
0.16751425,I2C,C,(0x43),+,ACK,,,
0.1677665,I2C,Setup,Read,to,['209',(0xD1)],+,ACK
0.16798275,I2C,'255',(0xFF),+,ACK,,,
0.168199,I2C,g,(0x67),+,ACK,,,
0.16841525,I2C,'254',(0xFE),+,ACK,,,
0.1686315,I2C,'235',(0xEB),+,ACK,,,
0.16884775,I2C,'255',(0xFF),+,ACK,,,
0.169064,I2C,l,(0x6C),+,NAK,,,
0.1694425,I2C,Setup,Write,to,['208',(0xD0)],+,ACK
0.16965875,I2C,C,(0x43),+,ACK,,,
0.169911,I2C,Setup,Read,to,['209',(0xD1)],+,ACK
0.17012725,I2C,'255',(0xFF),+,ACK,,,
0.1703435,I2C,\,(0x5C),+,ACK,,,
0.17055975,I2C,'254',(0xFE),+,ACK,,,
0.170776,I2C,'229',(0xE5),+,ACK,,,
0.17099225,I2C,'255',(0xFF),+,ACK,,,
0.1712085,I2C,Q,(0x51),+,NAK,,,
0.17158675,I2C,Setup,Write,to,['208',(0xD0)],+,ACK
0.171803,I2C,C,(0x43),+,ACK,,,
0.1720555,I2C,Setup,Read,to,['209',(0xD1)],+,ACK
0.17227175,I2C,'255',(0xFF),+,ACK,,,
0.172488,I2C,'132',(0x84),+,ACK,,,
0.17270425,I2C,'254',(0xFE),+,ACK,,,
0.1729205,I2C,'238',(0xEE),+,ACK,,,
0.17313675,I2C,'255',(0xFF),+,ACK,,,
0.173353,I2C,\,(0x5C),+,NAK,,,
0.1737315,I2C,Setup,Write,to,['208',(0xD0)],+,ACK
0.17394775,I2C,C,(0x43),+,ACK,,,
0.17420025,I2C,Setup,Read,to,['209',(0xD1)],+,ACK
0.1744165,I2C,'255',(0xFF),+,ACK,,,
0.17463275,I2C,u,(0x75),+,ACK,,,
0.174849,I2C,'254',(0xFE),+,ACK,,,
0.17506525,I2C,'207',(0xCF),+,ACK,,,
0.1752815,I2C,'255',(0xFF),+,ACK,,,
0.175498,I2C,[,(0x5B),+,NAK,,,
0.17587625,I2C,Setup,Write,to,['208',(0xD0)],+,ACK
0.1760925,I2C,C,(0x43),+,ACK,,,
0.176345,I2C,Setup,Read,to,['209',(0xD1)],+,ACK
0.176561,I2C,'255',(0xFF),+,ACK,,,
0.1767775,I2C,v,(0x76),+,ACK,,,
0.17699375,I2C,'254',(0xFE),+,ACK,,,
0.17721,I2C,'234',(0xEA),+,ACK,,,
0.17742625,I2C,'255',(0xFF),+,ACK,,,
0.17764275,I2C,I,(0x49),+,NAK,,,
0.17802125,I2C,Setup,Write,to,['208',(0xD0)],+,ACK
0.1782375,I2C,C,(0x43),+,ACK,,,
0.17849,I2C,Setup,Read,to,['209',(0xD1)],+,ACK
0.178706,I2C,'255',(0xFF),+,ACK,,,
0.1789225,I2C,w,(0x77),+,ACK,,,
0.17913875,I2C,'254',(0xFE),+,ACK,,,
0.179355,I2C,'220',(0xDC),+,ACK,,,
0.17957125,I2C,'255',(0xFF),+,ACK,,,
0.1797875,I2C,U,(0x55),+,NAK,,,
0.180166,I2C,Setup,Write,to,['208',(0xD0)],+,ACK
0.18038225,I2C,C,(0x43),+,ACK,,,
0.1806345,I2C,Setup,Read,to,['209',(0xD1)],+,ACK
0.18085075,I2C,'255',(0xFF),+,ACK,,,
0.181067,I2C,~,(0x7E),+,ACK,,,
0.18128325,I2C,'254',(0xFE),+,ACK,,,
0.1814995,I2C,'224',(0xE0),+,ACK,,,
0.1817155,I2C,'255',(0xFF),+,ACK,,,
0.181932,I2C,e,(0x65),+,NAK,,,
0.1823105,I2C,Setup,Write,to,['208',(0xD0)],+,ACK
0.18252675,I2C,C,(0x43),+,ACK,,,
0.182779,I2C,Setup,Read,to,['209',(0xD1)],+,ACK
0.1829955,I2C,'255',(0xFF),+,ACK,,,
0.1832115,I2C,'137',(0x89),+,ACK,,,
0.18342775,I2C,'254',(0xFE),+,ACK,,,
0.183644,I2C,'251',(0xFB),+,ACK,,,
0.1838605,I2C,'255',(0xFF),+,ACK,,,
0.18407675,I2C,W,(0x57),+,NAK,,,
0.184455,I2C,Setup,Write,to,['208',(0xD0)],+,ACK
0.18467125,I2C,C,(0x43),+,ACK,,,
0.18492375,I2C,Setup,Read,to,['209',(0xD1)],+,ACK
0.18514,I2C,'255',(0xFF),+,ACK,,,
0.18535625,I2C,'145',(0x91),+,ACK,,,
0.1855725,I2C,'254',(0xFE),+,ACK,,,
0.18578875,I2C,'249',(0xF9),+,ACK,,,
0.186005,I2C,'255',(0xFF),+,ACK,,,
0.18622125,I2C,S,(0x53),+,NAK,,,
0.18659975,I2C,Setup,Write,to,['208',(0xD0)],+,ACK
0.18681575,I2C,C,(0x43),+,ACK,,,
0.18706825,I2C,Setup,Read,to,['209',(0xD1)],+,ACK
0.1872845,I2C,'255',(0xFF),+,ACK,,,
0.18750075,I2C,'130',(0x82),+,ACK,,,
0.187717,I2C,'254',(0xFE),+,ACK,,,
0.18793325,I2C,'225',(0xE1),+,ACK,,,
0.1881495,I2C,'255',(0xFF),+,ACK,,,
0.18836575,I2C,e,(0x65),+,NAK,,,
0.18874425,I2C,Setup,Write,to,['208',(0xD0)],+,ACK
0.1889605,I2C,C,(0x43),+,ACK,,,
0.18921275,I2C,Setup,Read,to,['209',(0xD1)],+,ACK
0.189429,I2C,'255',(0xFF),+,ACK,,,
0.18964525,I2C,y,(0x79),+,ACK,,,
0.1898615,I2C,'254',(0xFE),+,ACK,,,
0.19007775,I2C,'231',(0xE7),+,ACK,,,
0.190294,I2C,'255',(0xFF),+,ACK,,,
0.19051025,I2C,\,(0x5C),+,NAK,,,
0.19088875,I2C,Setup,Write,to,['208',(0xD0)],+,ACK
0.191105,I2C,C,(0x43),+,ACK,,,
0.1913575,I2C,Setup,Read,to,['209',(0xD1)],+,ACK
0.19157375,I2C,'255',(0xFF),+,ACK,,,
0.19179,I2C,'128',(0x80),+,ACK,,,
0.19200625,I2C,'254',(0xFE),+,ACK,,,
0.1922225,I2C,'226',(0xE2),+,ACK,,,
0.19243875,I2C,'255',(0xFF),+,ACK,,,
0.192655,I2C,m,(0x6D),+,NAK,,,
0.1930335,I2C,Setup,Write,to,['208',(0xD0)],+,ACK
0.19324975,I2C,C,(0x43),+,ACK,,,
0.193502,I2C,Setup,Read,to,['209',(0xD1)],+,ACK
0.19371825,I2C,'255',(0xFF),+,ACK,,,
0.1939345,I2C,'131',(0x83),+,ACK,,,
0.19415075,I2C,'254',(0xFE),+,ACK,,,
0.194367,I2C,'218',(0xDA),+,ACK,,,
0.19458325,I2C,'255',(0xFF),+,ACK,,,
0.1947995,I2C,o,(0x6F),+,NAK,,,
0.19517775,I2C,Setup,Write,to,['208',(0xD0)],+,ACK
0.19539425,I2C,C,(0x43),+,ACK,,,
0.1956465,I2C,Setup,Read,to,['209',(0xD1)],+,ACK
0.1958625,I2C,'255',(0xFF),+,ACK,,,
0.19607875,I2C,f,(0x66),+,ACK,,,
0.196295,I2C,'254',(0xFE),+,ACK,,,
0.19651125,I2C,'244',(0xF4),+,ACK,,,
0.1967275,I2C,'255',(0xFF),+,ACK,,,
0.19694375,I2C,e,(0x65),+,NAK,,,
0.19732225,I2C,Setup,Write,to,['208',(0xD0)],+,ACK
0.1975385,I2C,C,(0x43),+,ACK,,,
0.19779075,I2C,Setup,Read,to,['209',(0xD1)],+,ACK
0.198007,I2C,'255',(0xFF),+,ACK,,,
0.19822325,I2C,a,(0x61),+,ACK,,,
0.1984395,I2C,'254',(0xFE),+,ACK,,,
0.19865575,I2C,'226',(0xE2),+,ACK,,,
0.198872,I2C,'255',(0xFF),+,ACK,,,
0.19908825,I2C,k,(0x6B),+,NAK,,,
0.19946675,I2C,Setup,Write,to,['208',(0xD0)],+,ACK
0.199683,I2C,C,(0x43),+,ACK,,,
0.19993525,I2C,Setup,Read,to,['209',(0xD1)],+,ACK
0.20015175,I2C,'255',(0xFF),+,ACK,,,
0.200368,I2C,'132',(0x84),+,ACK,,,
0.20058425,I2C,'254',(0xFE),+,ACK,,,
0.20080025,I2C,'230',(0xE6),+,ACK,,,
0.2010165,I2C,'255',(0xFF),+,ACK,,,
0.20123275,I2C,L,(0x4C),+,NAK,,,
0.20161125,I2C,Setup,Write,to,['208',(0xD0)],+,ACK
0.2018275,I2C,C,(0x43),+,ACK,,,
0.20207975,I2C,Setup,Read,to,['209',(0xD1)],+,ACK
0.20229625,I2C,'255',(0xFF),+,ACK,,,
0.20251225,I2C,s,(0x73),+,ACK,,,
0.20272875,I2C,'254',(0xFE),+,ACK,,,
0.20294475,I2C,'217',(0xD9),+,ACK,,,
0.203161,I2C,'255',(0xFF),+,ACK,,,
0.20337725,I2C,h,(0x68),+,NAK,,,
0.20375575,I2C,Setup,Write,to,['208',(0xD0)],+,ACK
0.203972,I2C,C,(0x43),+,ACK,,,
0.20422425,I2C,Setup,Read,to,['209',(0xD1)],+,ACK
0.2044405,I2C,'255',(0xFF),+,ACK,,,
0.20465675,I2C,x,(0x78),+,ACK,,,
0.204873,I2C,'255',(0xFF),+,ACK,,,
0.20508925,I2C,'15',(0x0F),+,ACK,,,
0.2053055,I2C,'255',(0xFF),+,ACK,,,
0.20552175,I2C,s,(0x73),+,NAK,,,
0.20590025,I2C,Setup,Write,to,['208',(0xD0)],+,ACK
0.20611625,I2C,C,(0x43),+,ACK,,,
0.20636875,I2C,Setup,Read,to,['209',(0xD1)],+,ACK
0.20658475,I2C,'255',(0xFF),+,ACK,,,
0.206801,I2C,g,(0x67),+,ACK,,,
0.2070175,I2C,'254',(0xFE),+,ACK,,,
0.20723375,I2C,'222',(0xDE),+,ACK,,,
0.20744975,I2C,'255',(0xFF),+,ACK,,,
0.207666,I2C,t,(0x74),+,NAK,,,
0.2080445,I2C,Setup,Write,to,['208',(0xD0)],+,ACK
0.20826075,I2C,C,(0x43),+,ACK,,,
0.208513,I2C,Setup,Read,to,['209',(0xD1)],+,ACK
0.20872925,I2C,'255',(0xFF),+,ACK,,,
0.2089455,I2C,u,(0x75),+,ACK,,,
0.20916175,I2C,'254',(0xFE),+,ACK,,,
0.209378,I2C,'214',(0xD6),+,ACK,,,
0.20959425,I2C,'255',(0xFF),+,ACK,,,
0.20981075,I2C,x,(0x78),+,NAK,,,
0.210189,I2C,Setup,Write,to,['208',(0xD0)],+,ACK
0.21040525,I2C,C,(0x43),+,ACK,,,
0.21065775,I2C,Setup,Read,to,['209',(0xD1)],+,ACK
0.210874,I2C,'255',(0xFF),+,ACK,,,
0.21109025,I2C,r,(0x72),+,ACK,,,
0.2113065,I2C,'254',(0xFE),+,ACK,,,
0.21152275,I2C,'207',(0xCF),+,ACK,,,
0.211739,I2C,'255',(0xFF),+,ACK,,,
0.21195525,I2C,O,(0x4F),+,NAK,,,
0.21233375,I2C,Setup,Write,to,['208',(0xD0)],+,ACK
0.21255,I2C,C,(0x43),+,ACK,,,
0.21280225,I2C,Setup,Read,to,['209',(0xD1)],+,ACK
0.2130185,I2C,'255',(0xFF),+,ACK,,,
0.21323475,I2C,t,(0x74),+,ACK,,,
0.213451,I2C,'254',(0xFE),+,ACK,,,
0.21366725,I2C,'205',(0xCD),+,ACK,,,
0.2138835,I2C,'255',(0xFF),+,ACK,,,
0.21409975,I2C,Y,(0x59),+,NAK,,,
0.21447825,I2C,Setup,Write,to,['208',(0xD0)],+,ACK
0.2146945,I2C,C,(0x43),+,ACK,,,
0.21494675,I2C,Setup,Read,to,['209',(0xD1)],+,ACK
0.215163,I2C,'255',(0xFF),+,ACK,,,
0.21537925,I2C,i,(0x69),+,ACK,,,
0.2155955,I2C,'254',(0xFE),+,ACK,,,
0.21581175,I2C,'232',(0xE8),+,ACK,,,
0.21602825,I2C,'255',(0xFF),+,ACK,,,
0.2162445,I2C,b,(0x62),+,NAK,,,
0.216623,I2C,Setup,Write,to,['208',(0xD0)],+,ACK
0.21683925,I2C,C,(0x43),+,ACK,,,
0.2170915,I2C,Setup,Read,to,['209',(0xD1)],+,ACK
0.21730775,I2C,'255',(0xFF),+,ACK,,,
0.217524,I2C,'128',(0x80),+,ACK,,,
0.21774025,I2C,'255',(0xFF),+,ACK,,,
0.2179565,I2C,'4',(0x04),+,ACK,,,
0.218173,I2C,'255',(0xFF),+,ACK,,,
0.21838925,I2C,t,(0x74),+,NAK,,,
0.21876775,I2C,Setup,Write,to,['208',(0xD0)],+,ACK
0.218984,I2C,C,(0x43),+,ACK,,,
0.21923625,I2C,Setup,Read,to,['209',(0xD1)],+,ACK
0.2194525,I2C,'255',(0xFF),+,ACK,,,
0.21966875,I2C,'132',(0x84),+,ACK,,,
0.219885,I2C,'254',(0xFE),+,ACK,,,
0.22010125,I2C,'236',(0xEC),+,ACK,,,
0.2203175,I2C,'255',(0xFF),+,ACK,,,
0.22053375,I2C,a,(0x61),+,NAK,,,
0.22091225,I2C,Setup,Write,to,['208',(0xD0)],+,ACK
0.2211285,I2C,C,(0x43),+,ACK,,,
0.22138075,I2C,Setup,Read,to,['209',(0xD1)],+,ACK
0.221597,I2C,'255',(0xFF),+,ACK,,,
0.22181325,I2C,g,(0x67),+,ACK,,,
0.2220295,I2C,'254',(0xFE),+,ACK,,,
0.22224575,I2C,'214',(0xD6),+,ACK,,,
0.22246225,I2C,'255',(0xFF),+,ACK,,,
0.2226785,I2C,d,(0x64),+,NAK,,,
0.22305675,I2C,Setup,Write,to,['208',(0xD0)],+,ACK
0.223273,I2C,C,(0x43),+,ACK,,,
0.22352525,I2C,Setup,Read,to,['209',(0xD1)],+,ACK
0.22374175,I2C,'255',(0xFF),+,ACK,,,
0.223958,I2C,m,(0x6D),+,ACK,,,
0.22417425,I2C,'254',(0xFE),+,ACK,,,
0.22439025,I2C,'225',(0xE1),+,ACK,,,
0.22460675,I2C,'255',(0xFF),+,ACK,,,
0.224823,I2C,h,(0x68),+,NAK,,,
0.22520125,I2C,Setup,Write,to,['208',(0xD0)],+,ACK
0.2254175,I2C,C,(0x43),+,ACK,,,
0.22567,I2C,Setup,Read,to,['209',(0xD1)],+,ACK
0.22588625,I2C,'255',(0xFF),+,ACK,,,
0.2261025,I2C,Z,(0x5A),+,ACK,,,
0.22631875,I2C,'254',(0xFE),+,ACK,,,
0.226535,I2C,'233',(0xE9),+,ACK,,,
0.22675125,I2C,'255',(0xFF),+,ACK,,,
0.22696725,I2C,h,(0x68),+,NAK,,,
0.22734575,I2C,Setup,Write,to,['208',(0xD0)],+,ACK
0.227562,I2C,C,(0x43),+,ACK,,,
0.22781425,I2C,Setup,Read,to,['209',(0xD1)],+,ACK
0.2280305,I2C,'255',(0xFF),+,ACK,,,
0.22824675,I2C,q,(0x71),+,ACK,,,
0.228463,I2C,'254',(0xFE),+,ACK,,,
0.22867925,I2C,'220',(0xDC),+,ACK,,,
0.2288955,I2C,'255',(0xFF),+,ACK,,,
0.22911175,I2C,\,(0x5C),+,NAK,,,
0.22949,I2C,Setup,Write,to,['208',(0xD0)],+,ACK
0.2297065,I2C,C,(0x43),+,ACK,,,
0.22995875,I2C,Setup,Read,to,['209',(0xD1)],+,ACK
0.230175,I2C,'255',(0xFF),+,ACK,,,
0.23039125,I2C,s,(0x73),+,ACK,,,
0.2306075,I2C,'254',(0xFE),+,ACK,,,
0.23082375,I2C,'243',(0xF3),+,ACK,,,
0.23104,I2C,'255',(0xFF),+,ACK,,,
0.23125625,I2C,h,(0x68),+,NAK,,,
0.23163475,I2C,Setup,Write,to,['208',(0xD0)],+,ACK
0.231851,I2C,C,(0x43),+,ACK,,,
0.23210325,I2C,Setup,Read,to,['209',(0xD1)],+,ACK
0.2323195,I2C,'255',(0xFF),+,ACK,,,
0.23253575,I2C,v,(0x76),+,ACK,,,
0.232752,I2C,'254',(0xFE),+,ACK,,,
0.23296825,I2C,'220',(0xDC),+,ACK,,,
0.2331845,I2C,'255',(0xFF),+,ACK,,,
0.23340075,I2C,V,(0x56),+,NAK,,,
0.233779,I2C,Setup,Write,to,['208',(0xD0)],+,ACK
0.2339955,I2C,C,(0x43),+,ACK,,,
0.23424775,I2C,Setup,Read,to,['209',(0xD1)],+,ACK
0.234464,I2C,'255',(0xFF),+,ACK,,,
0.23468025,I2C,x,(0x78),+,ACK,,,
0.2348965,I2C,'254',(0xFE),+,ACK,,,
0.23511275,I2C,'243',(0xF3),+,ACK,,,
0.235329,I2C,'255',(0xFF),+,ACK,,,
0.23554525,I2C,c,(0x63),+,NAK,,,
0.23592375,I2C,Setup,Write,to,['208',(0xD0)],+,ACK
0.23614,I2C,C,(0x43),+,ACK,,,
0.23639225,I2C,Setup,Read,to,['209',(0xD1)],+,ACK
0.2366085,I2C,'255',(0xFF),+,ACK,,,
0.23682475,I2C,v,(0x76),+,ACK,,,
0.237041,I2C,'254',(0xFE),+,ACK,,,
0.23725725,I2C,'225',(0xE1),+,ACK,,,
0.2374735,I2C,'255',(0xFF),+,ACK,,,
0.23768975,I2C,f,(0x66),+,NAK,,,
0.23806825,I2C,Setup,Write,to,['208',(0xD0)],+,ACK
0.23828425,I2C,C,(0x43),+,ACK,,,
0.2385365,I2C,Setup,Read,to,['209',(0xD1)],+,ACK
0.23875275,I2C,'255',(0xFF),+,ACK,,,
0.238969,I2C,w,(0x77),+,ACK,,,
0.23918525,I2C,'255',(0xFF),+,ACK,,,
0.2394015,I2C,\r,(0x0D),+,ACK,,,
0.23961775,I2C,'255',(0xFF),+,ACK,,,
0.239834,I2C,m,(0x6D),+,NAK,,,
0.2402125,I2C,Setup,Write,to,['208',(0xD0)],+,ACK
0.24042875,I2C,C,(0x43),+,ACK,,,
0.240681,I2C,Setup,Read,to,['209',(0xD1)],+,ACK
0.24089725,I2C,'255',(0xFF),+,ACK,,,
0.2411135,I2C,T,(0x54),+,ACK,,,
0.24132975,I2C,'254',(0xFE),+,ACK,,,
0.241546,I2C,'208',(0xD0),+,ACK,,,
0.24176225,I2C,'255',(0xFF),+,ACK,,,
0.2419785,I2C,m,(0x6D),+,NAK,,,
0.242357,I2C,Setup,Write,to,['208',(0xD0)],+,ACK
0.24257325,I2C,C,(0x43),+,ACK,,,
0.2428255,I2C,Setup,Read,to,['209',(0xD1)],+,ACK
0.24304175,I2C,'255',(0xFF),+,ACK,,,
0.243258,I2C,x,(0x78),+,ACK,,,
0.24347425,I2C,'254',(0xFE),+,ACK,,,
0.24369025,I2C,'223',(0xDF),+,ACK,,,
0.2439065,I2C,'255',(0xFF),+,ACK,,,
0.244123,I2C,L,(0x4C),+,NAK,,,
0.2445015,I2C,Setup,Write,to,['208',(0xD0)],+,ACK
0.2447175,I2C,C,(0x43),+,ACK,,,
0.24497,I2C,Setup,Read,to,['209',(0xD1)],+,ACK
0.245186,I2C,'255',(0xFF),+,ACK,,,
0.2454025,I2C,f,(0x66),+,ACK,,,
0.24561875,I2C,'254',(0xFE),+,ACK,,,
0.245835,I2C,'185',(0xB9),+,ACK,,,
0.24605125,I2C,'255',(0xFF),+,ACK,,,
0.2462675,I2C,j,(0x6A),+,NAK,,,
0.24664575,I2C,Setup,Write,to,['208',(0xD0)],+,ACK
0.246862,I2C,C,(0x43),+,ACK,,,
0.2471145,I2C,Setup,Read,to,['209',(0xD1)],+,ACK
0.2473305,I2C,'255',(0xFF),+,ACK,,,
0.247547,I2C,s,(0x73),+,ACK,,,
0.24776325,I2C,'254',(0xFE),+,ACK,,,
0.2479795,I2C,'227',(0xE3),+,ACK,,,
0.24819575,I2C,'255',(0xFF),+,ACK,,,
0.248412,I2C,g,(0x67),+,NAK,,,
0.2487905,I2C,Setup,Write,to,['208',(0xD0)],+,ACK
0.24900675,I2C,C,(0x43),+,ACK,,,
0.249259,I2C,Setup,Read,to,['209',(0xD1)],+,ACK
0.24947525,I2C,'255',(0xFF),+,ACK,,,
0.2496915,I2C,'140',(0x8C),+,ACK,,,
0.24990775,I2C,'254',(0xFE),+,ACK,,,
0.250124,I2C,'237',(0xED),+,ACK,,,
0.25034025,I2C,'255',(0xFF),+,ACK,,,
0.2505565,I2C,n,(0x6E),+,NAK,,,
0.250935,I2C,Setup,Write,to,['208',(0xD0)],+,ACK
0.25115125,I2C,C,(0x43),+,ACK,,,
0.2514035,I2C,Setup,Read,to,['209',(0xD1)],+,ACK
0.25161975,I2C,'255',(0xFF),+,ACK,,,
0.251836,I2C,i,(0x69),+,ACK,,,
0.25205225,I2C,'254',(0xFE),+,ACK,,,
0.2522685,I2C,'212',(0xD4),+,ACK,,,
0.25248475,I2C,'255',(0xFF),+,ACK,,,
0.252701,I2C,M,(0x4D),+,NAK,,,
0.2530795,I2C,Setup,Write,to,['208',(0xD0)],+,ACK
0.25329575,I2C,C,(0x43),+,ACK,,,
0.253548,I2C,Setup,Read,to,['209',(0xD1)],+,ACK
0.25376425,I2C,'255',(0xFF),+,ACK,,,
0.2539805,I2C,p,(0x70),+,ACK,,,
0.25419675,I2C,'254',(0xFE),+,ACK,,,
0.254413,I2C,'223',(0xDF),+,ACK,,,
0.25462925,I2C,'255',(0xFF),+,ACK,,,
0.2548455,I2C,h,(0x68),+,NAK,,,
0.255224,I2C,Setup,Write,to,['208',(0xD0)],+,ACK
0.25544025,I2C,C,(0x43),+,ACK,,,
0.2556925,I2C,Setup,Read,to,['209',(0xD1)],+,ACK
0.25590875,I2C,'255',(0xFF),+,ACK,,,
0.256125,I2C,'145',(0x91),+,ACK,,,
0.25634125,I2C,'254',(0xFE),+,ACK,,,
0.2565575,I2C,'237',(0xED),+,ACK,,,
0.256774,I2C,'255',(0xFF),+,ACK,,,
0.25699025,I2C,],(0x5D),+,NAK,,,
0.25736875,I2C,Setup,Write,to,['208',(0xD0)],+,ACK
0.257585,I2C,C,(0x43),+,ACK,,,
0.25783725,I2C,Setup,Read,to,['209',(0xD1)],+,ACK
0.25805375,I2C,'255',(0xFF),+,ACK,,,
0.25827,I2C,l,(0x6C),+,ACK,,,
0.25848625,I2C,'254',(0xFE),+,ACK,,,
0.2587025,I2C,'236',(0xEC),+,ACK,,,
0.25891875,I2C,'255',(0xFF),+,ACK,,,
0.259135,I2C,n,(0x6E),+,NAK,,,
0.2595135,I2C,Setup,Write,to,['208',(0xD0)],+,ACK
0.25972975,I2C,C,(0x43),+,ACK,,,
0.25998225,I2C,Setup,Read,to,['209',(0xD1)],+,ACK
0.2601985,I2C,'255',(0xFF),+,ACK,,,
0.26041475,I2C,r,(0x72),+,ACK,,,
0.260631,I2C,'254',(0xFE),+,ACK,,,
0.26084725,I2C,'233',(0xE9),+,ACK,,,
0.2610635,I2C,'255',(0xFF),+,ACK,,,
0.26127975,I2C,p,(0x70),+,NAK,,,
0.26165825,I2C,Setup,Write,to,['208',(0xD0)],+,ACK
0.2618745,I2C,C,(0x43),+,ACK,,,
0.26212675,I2C,Setup,Read,to,['209',(0xD1)],+,ACK
0.262343,I2C,'255',(0xFF),+,ACK,,,
0.26255925,I2C,z,(0x7A),+,ACK,,,
0.2627755,I2C,'254',(0xFE),+,ACK,,,
0.26299175,I2C,'230',(0xE6),+,ACK,,,
0.263208,I2C,'255',(0xFF),+,ACK,,,
0.26342425,I2C,g,(0x67),+,NAK,,,
0.26380275,I2C,Setup,Write,to,['208',(0xD0)],+,ACK
0.264019,I2C,C,(0x43),+,ACK,,,
0.26427125,I2C,Setup,Read,to,['209',(0xD1)],+,ACK
0.2644875,I2C,'255',(0xFF),+,ACK,,,
0.26470375,I2C,r,(0x72),+,ACK,,,
0.26492,I2C,'254',(0xFE),+,ACK,,,
0.26513625,I2C,'220',(0xDC),+,ACK,,,
0.2653525,I2C,'255',(0xFF),+,ACK,,,
0.26556875,I2C,Y,(0x59),+,NAK,,,
0.265947,I2C,Setup,Write,to,['208',(0xD0)],+,ACK
0.2661635,I2C,C,(0x43),+,ACK,,,
0.26641575,I2C,Setup,Read,to,['209',(0xD1)],+,ACK
0.26663175,I2C,'255',(0xFF),+,ACK,,,
0.266848,I2C,r,(0x72),+,ACK,,,
0.26706425,I2C,'254',(0xFE),+,ACK,,,
0.2672805,I2C,'230',(0xE6),+,ACK,,,
0.26749675,I2C,'255',(0xFF),+,ACK,,,
0.267713,I2C,~,(0x7E),+,NAK,,,
0.2680915,I2C,Setup,Write,to,['208',(0xD0)],+,ACK
0.26830775,I2C,C,(0x43),+,ACK,,,
0.26856,I2C,Setup,Read,to,['209',(0xD1)],+,ACK
0.26877625,I2C,'255',(0xFF),+,ACK,,,
0.2689925,I2C,c,(0x63),+,ACK,,,
0.26920875,I2C,'254',(0xFE),+,ACK,,,
0.269425,I2C,'223',(0xDF),+,ACK,,,
0.26964125,I2C,'255',(0xFF),+,ACK,,,
0.26985725,I2C,i,(0x69),+,NAK,,,
0.27023575,I2C,Setup,Write,to,['208',(0xD0)],+,ACK
0.270452,I2C,C,(0x43),+,ACK,,,
0.27070425,I2C,Setup,Read,to,['209',(0xD1)],+,ACK
0.2709205,I2C,'255',(0xFF),+,ACK,,,
0.27113675,I2C,m,(0x6D),+,ACK,,,
0.271353,I2C,'254',(0xFE),+,ACK,,,
0.27156925,I2C,'248',(0xF8),+,ACK,,,
0.2717855,I2C,'255',(0xFF),+,ACK,,,
0.27200175,I2C,],(0x5D),+,NAK,,,
0.27238025,I2C,Setup,Write,to,['208',(0xD0)],+,ACK
0.2725965,I2C,C,(0x43),+,ACK,,,
0.27284875,I2C,Setup,Read,to,['209',(0xD1)],+,ACK
0.273065,I2C,'255',(0xFF),+,ACK,,,
0.27328125,I2C,'127',(0x7F),+,ACK,,,
0.2734975,I2C,'254',(0xFE),+,ACK,,,
0.27371375,I2C,'251',(0xFB),+,ACK,,,
0.27393,I2C,'255',(0xFF),+,ACK,,,
0.27414625,I2C,},(0x7D),+,NAK,,,
0.27452475,I2C,Setup,Write,to,['208',(0xD0)],+,ACK
0.27474075,I2C,C,(0x43),+,ACK,,,
0.274993,I2C,Setup,Read,to,['209',(0xD1)],+,ACK
0.27520925,I2C,'255',(0xFF),+,ACK,,,
0.2754255,I2C,X,(0x58),+,ACK,,,
0.27564175,I2C,'254',(0xFE),+,ACK,,,
0.275858,I2C,'224',(0xE0),+,ACK,,,
0.27607425,I2C,'255',(0xFF),+,ACK,,,
0.2762905,I2C,a,(0x61),+,NAK,,,
0.276669,I2C,Setup,Write,to,['208',(0xD0)],+,ACK
0.27688525,I2C,C,(0x43),+,ACK,,,
0.2771375,I2C,Setup,Read,to,['209',(0xD1)],+,ACK
0.27735375,I2C,'255',(0xFF),+,ACK,,,
0.27757,I2C,Y,(0x59),+,ACK,,,
0.27778625,I2C,'254',(0xFE),+,ACK,,,
0.2780025,I2C,'234',(0xEA),+,ACK,,,
0.27821875,I2C,'255',(0xFF),+,ACK,,,
0.278435,I2C,_,(0x5F),+,NAK,,,
0.27881325,I2C,Setup,Write,to,['208',(0xD0)],+,ACK
0.2790295,I2C,C,(0x43),+,ACK,,,
0.27928175,I2C,Setup,Read,to,['209',(0xD1)],+,ACK
0.279498,I2C,'255',(0xFF),+,ACK,,,
0.27971425,I2C,t,(0x74),+,ACK,,,
0.2799305,I2C,'254',(0xFE),+,ACK,,,
0.28014675,I2C,'202',(0xCA),+,ACK,,,
0.280363,I2C,'255',(0xFF),+,ACK,,,
0.28057925,I2C,=,(0x3D),+,NAK,,,
0.28095775,I2C,Setup,Write,to,['208',(0xD0)],+,ACK
0.28117375,I2C,C,(0x43),+,ACK,,,
0.28142625,I2C,Setup,Read,to,['209',(0xD1)],+,ACK
0.2816425,I2C,'255',(0xFF),+,ACK,,,
0.28185875,I2C,y,(0x79),+,ACK,,,
0.282075,I2C,'254',(0xFE),+,ACK,,,
0.28229125,I2C,'214',(0xD6),+,ACK,,,
0.28250725,I2C,'255',(0xFF),+,ACK,,,
0.2827235,I2C,h,(0x68),+,NAK,,,
0.283102,I2C,Setup,Write,to,['208',(0xD0)],+,ACK
0.28331825,I2C,C,(0x43),+,ACK,,,
0.2835705,I2C,Setup,Read,to,['209',(0xD1)],+,ACK
0.28378675,I2C,'255',(0xFF),+,ACK,,,
0.284003,I2C,'150',(0x96),+,ACK,,,
0.284219,I2C,'254',(0xFE),+,ACK,,,
0.28443525,I2C,'245',(0xF5),+,ACK,,,
0.2846515,I2C,'255',(0xFF),+,ACK,,,
0.28486775,I2C,i,(0x69),+,NAK,,,
0.285246,I2C,Setup,Write,to,['208',(0xD0)],+,ACK
0.28546225,I2C,C,(0x43),+,ACK,,,
0.2857145,I2C,Setup,Read,to,['209',(0xD1)],+,ACK
0.28593075,I2C,'255',(0xFF),+,ACK,,,
0.286147,I2C,n,(0x6E),+,ACK,,,
0.28636325,I2C,'254',(0xFE),+,ACK,,,
0.2865795,I2C,'241',(0xF1),+,ACK,,,
0.28679575,I2C,'255',(0xFF),+,ACK,,,
0.287012,I2C,N,(0x4E),+,NAK,,,
0.2873905,I2C,Setup,Write,to,['208',(0xD0)],+,ACK
0.2876065,I2C,C,(0x43),+,ACK,,,
0.28785875,I2C,Setup,Read,to,['209',(0xD1)],+,ACK
0.288075,I2C,'255',(0xFF),+,ACK,,,
0.28829125,I2C,'130',(0x82),+,ACK,,,
0.2885075,I2C,'254',(0xFE),+,ACK,,,
0.28872375,I2C,'211',(0xD3),+,ACK,,,
0.28894,I2C,'255',(0xFF),+,ACK,,,
0.28915625,I2C,Y,(0x59),+,NAK,,,
0.28953475,I2C,Setup,Write,to,['208',(0xD0)],+,ACK
0.289751,I2C,C,(0x43),+,ACK,,,
0.29000325,I2C,Setup,Read,to,['209',(0xD1)],+,ACK
0.2902195,I2C,'255',(0xFF),+,ACK,,,
0.29043575,I2C,x,(0x78),+,ACK,,,
0.29065175,I2C,'254',(0xFE),+,ACK,,,
0.290868,I2C,'234',(0xEA),+,ACK,,,
0.29108425,I2C,'255',(0xFF),+,ACK,,,
0.2913005,I2C,i,(0x69),+,NAK,,,
0.291679,I2C,Setup,Write,to,['208',(0xD0)],+,ACK
0.29189525,I2C,C,(0x43),+,ACK,,,
0.2921475,I2C,Setup,Read,to,['209',(0xD1)],+,ACK
0.29236375,I2C,'255',(0xFF),+,ACK,,,
0.29258,I2C,^,(0x5E),+,ACK,,,
0.29279625,I2C,'254',(0xFE),+,ACK,,,
0.2930125,I2C,'245',(0xF5),+,ACK,,,
0.29322875,I2C,'255',(0xFF),+,ACK,,,
0.293445,I2C,i,(0x69),+,NAK,,,
0.2938235,I2C,Setup,Write,to,['208',(0xD0)],+,ACK
0.29403975,I2C,C,(0x43),+,ACK,,,
0.29429225,I2C,Setup,Read,to,['209',(0xD1)],+,ACK
0.2945085,I2C,'255',(0xFF),+,ACK,,,
0.2947245,I2C,u,(0x75),+,ACK,,,
0.29494075,I2C,'254',(0xFE),+,ACK,,,
0.295157,I2C,'249',(0xF9),+,ACK,,,
0.29537325,I2C,'255',(0xFF),+,ACK,,,
0.2955895,I2C,\,(0x5C),+,NAK,,,
0.295968,I2C,Setup,Write,to,['208',(0xD0)],+,ACK
0.296184,I2C,C,(0x43),+,ACK,,,
0.2964365,I2C,Setup,Read,to,['209',(0xD1)],+,ACK
0.29665275,I2C,'255',(0xFF),+,ACK,,,
0.296869,I2C,h,(0x68),+,ACK,,,
0.29708525,I2C,'254',(0xFE),+,ACK,,,
0.2973015,I2C,'222',(0xDE),+,ACK,,,
0.29751775,I2C,'255',(0xFF),+,ACK,,,
0.297734,I2C,m,(0x6D),+,NAK,,,
0.2981125,I2C,Setup,Write,to,['208',(0xD0)],+,ACK
0.29832875,I2C,C,(0x43),+,ACK,,,
0.298581,I2C,Setup,Read,to,['209',(0xD1)],+,ACK
0.29879725,I2C,'255',(0xFF),+,ACK,,,
0.2990135,I2C,{,(0x7B),+,ACK,,,
0.29922975,I2C,'254',(0xFE),+,ACK,,,
0.299446,I2C,'212',(0xD4),+,ACK,,,
0.29966225,I2C,'255',(0xFF),+,ACK,,,
0.2998785,I2C,d,(0x64),+,NAK,,,
0.300257,I2C,Setup,Write,to,['208',(0xD0)],+,ACK
0.30047325,I2C,C,(0x43),+,ACK,,,
0.3007255,I2C,Setup,Read,to,['209',(0xD1)],+,ACK
0.30094175,I2C,'255',(0xFF),+,ACK,,,
0.301158,I2C,l,(0x6C),+,ACK,,,
0.30137425,I2C,'254',(0xFE),+,ACK,,,
0.30159075,I2C,'220',(0xDC),+,ACK,,,
0.301807,I2C,'255',(0xFF),+,ACK,,,
0.30202325,I2C,g,(0x67),+,NAK,,,
0.3024015,I2C,Setup,Write,to,['208',(0xD0)],+,ACK
0.30261775,I2C,C,(0x43),+,ACK,,,
0.30287025,I2C,Setup,Read,to,['209',(0xD1)],+,ACK
0.3030865,I2C,'255',(0xFF),+,ACK,,,
0.3033025,I2C,t,(0x74),+,ACK,,,
0.303519,I2C,'254',(0xFE),+,ACK,,,
0.30373525,I2C,'227',(0xE3),+,ACK,,,
0.3039515,I2C,'255',(0xFF),+,ACK,,,
0.30416775,I2C,q,(0x71),+,NAK,,,
0.304546,I2C,Setup,Write,to,['208',(0xD0)],+,ACK
0.30476225,I2C,C,(0x43),+,ACK,,,
0.30501475,I2C,Setup,Read,to,['209',(0xD1)],+,ACK
0.30523075,I2C,'255',(0xFF),+,ACK,,,
0.305447,I2C,w,(0x77),+,ACK,,,
0.3056635,I2C,'254',(0xFE),+,ACK,,,
0.3058795,I2C,'218',(0xDA),+,ACK,,,
0.30609575,I2C,'255',(0xFF),+,ACK,,,
0.306312,I2C,f,(0x66),+,NAK,,,
0.3066905,I2C,Setup,Write,to,['208',(0xD0)],+,ACK
0.30690675,I2C,C,(0x43),+,ACK,,,
0.307159,I2C,Setup,Read,to,['209',(0xD1)],+,ACK
0.30737525,I2C,'255',(0xFF),+,ACK,,,
0.3075915,I2C,k,(0x6B),+,ACK,,,
0.30780775,I2C,'254',(0xFE),+,ACK,,,
0.308024,I2C,'236',(0xEC),+,ACK,,,
0.30824025,I2C,'255',(0xFF),+,ACK,,,
0.3084565,I2C,^,(0x5E),+,NAK,,,
0.308835,I2C,Setup,Write,to,['208',(0xD0)],+,ACK
0.3090515,I2C,C,(0x43),+,ACK,,,
0.30930375,I2C,Setup,Read,to,['209',(0xD1)],+,ACK
0.30952,I2C,'255',(0xFF),+,ACK,,,
0.309736,I2C,'131',(0x83),+,ACK,,,
0.3099525,I2C,'254',(0xFE),+,ACK,,,
0.3101685,I2C,'245',(0xF5),+,ACK,,,
0.31038475,I2C,'255',(0xFF),+,ACK,,,
0.310601,I2C,'129',(0x81),+,NAK,,,
0.3109795,I2C,Setup,Write,to,['208',(0xD0)],+,ACK
0.31119575,I2C,C,(0x43),+,ACK,,,
0.311448,I2C,Setup,Read,to,['209',(0xD1)],+,ACK
0.31166425,I2C,'255',(0xFF),+,ACK,,,
0.3118805,I2C,},(0x7D),+,ACK,,,
0.31209675,I2C,'254',(0xFE),+,ACK,,,
0.312313,I2C,'197',(0xC5),+,ACK,,,
0.31252925,I2C,'255',(0xFF),+,ACK,,,
0.3127455,I2C,b,(0x62),+,NAK,,,
0.313124,I2C,Setup,Write,to,['208',(0xD0)],+,ACK
0.31334025,I2C,C,(0x43),+,ACK,,,
0.3135925,I2C,Setup,Read,to,['209',(0xD1)],+,ACK
0.31380875,I2C,'255',(0xFF),+,ACK,,,
0.314025,I2C,o,(0x6F),+,ACK,,,
0.31424125,I2C,'254',(0xFE),+,ACK,,,
0.3144575,I2C,'203',(0xCB),+,ACK,,,
0.3146735,I2C,'255',(0xFF),+,ACK,,,
0.31489,I2C,k,(0x6B),+,NAK,,,
0.31526825,I2C,Setup,Write,to,['208',(0xD0)],+,ACK
0.3154845,I2C,C,(0x43),+,ACK,,,
0.31573675,I2C,Setup,Read,to,['209',(0xD1)],+,ACK
0.315953,I2C,'255',(0xFF),+,ACK,,,
0.3161695,I2C,u,(0x75),+,ACK,,,
0.3163855,I2C,'254',(0xFE),+,ACK,,,
0.31660175,I2C,'220',(0xDC),+,ACK,,,
0.316818,I2C,'255',(0xFF),+,ACK,,,
0.3170345,I2C,],(0x5D),+,NAK,,,
0.31741275,I2C,Setup,Write,to,['208',(0xD0)],+,ACK
0.317629,I2C,C,(0x43),+,ACK,,,
0.31788125,I2C,Setup,Read,to,['209',(0xD1)],+,ACK
0.3180975,I2C,'255',(0xFF),+,ACK,,,
0.31831375,I2C,u,(0x75),+,ACK,,,
0.31853,I2C,'254',(0xFE),+,ACK,,,
0.31874625,I2C,'251',(0xFB),+,ACK,,,
0.3189625,I2C,'255',(0xFF),+,ACK,,,
0.31917875,I2C,z,(0x7A),+,NAK,,,
0.31955725,I2C,Setup,Write,to,['208',(0xD0)],+,ACK
0.3197735,I2C,C,(0x43),+,ACK,,,
0.32002575,I2C,Setup,Read,to,['209',(0xD1)],+,ACK
0.320242,I2C,'255',(0xFF),+,ACK,,,
0.32045825,I2C,e,(0x65),+,ACK,,,
0.3206745,I2C,'255',(0xFF),+,ACK,,,
0.32089075,I2C,'7',(0x07),+,ACK,,,
0.32110725,I2C,'255',(0xFF),+,ACK,,,
0.3213235,I2C,Z,(0x5A),+,NAK,,,
0.32170175,I2C,Setup,Write,to,['208',(0xD0)],+,ACK
0.321918,I2C,C,(0x43),+,ACK,,,
0.32217025,I2C,Setup,Read,to,['209',(0xD1)],+,ACK
0.32238675,I2C,'255',(0xFF),+,ACK,,,
0.322603,I2C,'142',(0x8E),+,ACK,,,
0.32281925,I2C,'254',(0xFE),+,ACK,,,
0.32303525,I2C,'233',(0xE9),+,ACK,,,
0.32325175,I2C,'255',(0xFF),+,ACK,,,
0.323468,I2C,h,(0x68),+,NAK,,,
0.32384625,I2C,Setup,Write,to,['208',(0xD0)],+,ACK
0.3240625,I2C,C,(0x43),+,ACK,,,
0.32431475,I2C,Setup,Read,to,['209',(0xD1)],+,ACK
0.32453125,I2C,'255',(0xFF),+,ACK,,,
0.3247475,I2C,m,(0x6D),+,ACK,,,
0.32496375,I2C,'254',(0xFE),+,ACK,,,
0.32518,I2C,'215',(0xD7),+,ACK,,,
0.32539625,I2C,'255',(0xFF),+,ACK,,,
0.3256125,I2C,q,(0x71),+,NAK,,,
0.325991,I2C,Setup,Write,to,['208',(0xD0)],+,ACK
0.326207,I2C,C,(0x43),+,ACK,,,
0.3264595,I2C,Setup,Read,to,['209',(0xD1)],+,ACK
0.32667575,I2C,'255',(0xFF),+,ACK,,,
0.326892,I2C,_,(0x5F),+,ACK,,,
0.327108,I2C,'254',(0xFE),+,ACK,,,
0.32732425,I2C,'242',(0xF2),+,ACK,,,
0.32754075,I2C,'255',(0xFF),+,ACK,,,
0.327757,I2C,q,(0x71),+,NAK,,,
0.32813525,I2C,Setup,Write,to,['208',(0xD0)],+,ACK
0.3283515,I2C,C,(0x43),+,ACK,,,
0.328604,I2C,Setup,Read,to,['209',(0xD1)],+,ACK
0.32882025,I2C,'255',(0xFF),+,ACK,,,
0.3290365,I2C,o,(0x6F),+,ACK,,,
0.32925275,I2C,'254',(0xFE),+,ACK,,,
0.329469,I2C,'229',(0xE5),+,ACK,,,
0.32968525,I2C,'255',(0xFF),+,ACK,,,
0.3299015,I2C,j,(0x6A),+,NAK,,,
0.33028,I2C,Setup,Write,to,['208',(0xD0)],+,ACK
0.33049625,I2C,C,(0x43),+,ACK,,,
0.33074875,I2C,Setup,Read,to,['209',(0xD1)],+,ACK
0.330965,I2C,'255',(0xFF),+,ACK,,,
0.33118125,I2C,h,(0x68),+,ACK,,,
0.3313975,I2C,'254',(0xFE),+,ACK,,,
0.33161375,I2C,'219',(0xDB),+,ACK,,,
0.33183,I2C,'255',(0xFF),+,ACK,,,
0.33204625,I2C,i,(0x69),+,NAK,,,
0.3324245,I2C,Setup,Write,to,['208',(0xD0)],+,ACK
0.332641,I2C,C,(0x43),+,ACK,,,
0.3328935,I2C,Setup,Read,to,['209',(0xD1)],+,ACK
0.3331095,I2C,'255',(0xFF),+,ACK,,,
0.33332575,I2C,r,(0x72),+,ACK,,,
0.333542,I2C,'254',(0xFE),+,ACK,,,
0.3337585,I2C,'233',(0xE9),+,ACK,,,
0.33397475,I2C,'255',(0xFF),+,ACK,,,
0.33419075,I2C,V,(0x56),+,NAK,,,
0.33456925,I2C,Setup,Write,to,['208',(0xD0)],+,ACK
0.3347855,I2C,C,(0x43),+,ACK,,,
0.335038,I2C,Setup,Read,to,['209',(0xD1)],+,ACK
0.33525425,I2C,'255',(0xFF),+,ACK,,,
0.3354705,I2C,k,(0x6B),+,ACK,,,
0.33568675,I2C,'254',(0xFE),+,ACK,,,
0.335903,I2C,'212',(0xD4),+,ACK,,,
0.33611925,I2C,'255',(0xFF),+,ACK,,,
0.3363355,I2C,U,(0x55),+,NAK,,,
0.336714,I2C,Setup,Write,to,['208',(0xD0)],+,ACK
0.33693025,I2C,C,(0x43),+,ACK,,,
0.3371825,I2C,Setup,Read,to,['209',(0xD1)],+,ACK
0.33739875,I2C,'255',(0xFF),+,ACK,,,
0.337615,I2C,'139',(0x8B),+,ACK,,,
0.3378315,I2C,'254',(0xFE),+,ACK,,,
0.33804775,I2C,'226',(0xE2),+,ACK,,,
0.338264,I2C,'255',(0xFF),+,ACK,,,
0.33848025,I2C,^,(0x5E),+,NAK,,,
0.3388585,I2C,Setup,Write,to,['208',(0xD0)],+,ACK
0.339075,I2C,C,(0x43),+,ACK,,,
0.3393275,I2C,Setup,Read,to,['209',(0xD1)],+,ACK
0.33954375,I2C,'255',(0xFF),+,ACK,,,
0.33975975,I2C,p,(0x70),+,ACK,,,
0.33997625,I2C,'254',(0xFE),+,ACK,,,
0.3401925,I2C,'244',(0xF4),+,ACK,,,
0.34040875,I2C,'255',(0xFF),+,ACK,,,
0.340625,I2C,l,(0x6C),+,NAK,,,
0.3410035,I2C,Setup,Write,to,['208',(0xD0)],+,ACK
0.34121975,I2C,C,(0x43),+,ACK,,,
0.341472,I2C,Setup,Read,to,['209',(0xD1)],+,ACK
0.34168825,I2C,'255',(0xFF),+,ACK,,,
0.3419045,I2C,`,(0x60),+,ACK,,,
0.342121,I2C,'255',(0xFF),+,ACK,,,
0.34233725,I2C,'2',(0x02),+,ACK,,,
0.34255325,I2C,'255',(0xFF),+,ACK,,,
0.3427695,I2C,a,(0x61),+,NAK,,,
0.343148,I2C,Setup,Write,to,['208',(0xD0)],+,ACK
0.34336425,I2C,C,(0x43),+,ACK,,,
0.3436165,I2C,Setup,Read,to,['209',(0xD1)],+,ACK
0.34383275,I2C,'255',(0xFF),+,ACK,,,
0.344049,I2C,z,(0x7A),+,ACK,,,
0.34426525,I2C,'254',(0xFE),+,ACK,,,
0.3444815,I2C,'229',(0xE5),+,ACK,,,
0.34469775,I2C,'255',(0xFF),+,ACK,,,
0.344914,I2C,U,(0x55),+,NAK,,,
0.3452925,I2C,Setup,Write,to,['208',(0xD0)],+,ACK
0.34550875,I2C,C,(0x43),+,ACK,,,
0.345761,I2C,Setup,Read,to,['209',(0xD1)],+,ACK
0.34597725,I2C,'255',(0xFF),+,ACK,,,
0.34619375,I2C,'140',(0x8C),+,ACK,,,
0.34641,I2C,'254',(0xFE),+,ACK,,,
0.34662625,I2C,'228',(0xE4),+,ACK,,,
0.3468425,I2C,'255',(0xFF),+,ACK,,,
0.347059,I2C,c,(0x63),+,NAK,,,
0.34743725,I2C,Setup,Write,to,['208',(0xD0)],+,ACK
0.3476535,I2C,C,(0x43),+,ACK,,,
0.34790575,I2C,Setup,Read,to,['209',(0xD1)],+,ACK
0.348122,I2C,'255',(0xFF),+,ACK,,,
0.34833825,I2C,'134',(0x86),+,ACK,,,
0.3485545,I2C,'254',(0xFE),+,ACK,,,
0.34877075,I2C,'203',(0xCB),+,ACK,,,
0.348987,I2C,'255',(0xFF),+,ACK,,,
0.3492035,I2C,_,(0x5F),+,NAK,,,
0.34958175,I2C,Setup,Write,to,['208',(0xD0)],+,ACK
0.349798,I2C,C,(0x43),+,ACK,,,
0.35005025,I2C,Setup,Read,to,['209',(0xD1)],+,ACK
0.35026675,I2C,'255',(0xFF),+,ACK,,,
0.350483,I2C,'128',(0x80),+,ACK,,,
0.35069925,I2C,'254',(0xFE),+,ACK,,,
0.3509155,I2C,'227',(0xE3),+,ACK,,,
0.35113175,I2C,'255',(0xFF),+,ACK,,,
0.351348,I2C,g,(0x67),+,NAK,,,
0.3517265,I2C,Setup,Write,to,['208',(0xD0)],+,ACK
0.35194275,I2C,C,(0x43),+,ACK,,,
0.352195,I2C,Setup,Read,to,['209',(0xD1)],+,ACK
0.35241125,I2C,'255',(0xFF),+,ACK,,,
0.35262775,I2C,'144',(0x90),+,ACK,,,
0.352844,I2C,'254',(0xFE),+,ACK,,,
0.35306025,I2C,'243',(0xF3),+,ACK,,,
0.3532765,I2C,'255',(0xFF),+,ACK,,,
0.35349275,I2C,d,(0x64),+,NAK,,,
0.35387125,I2C,Setup,Write,to,['208',(0xD0)],+,ACK
0.35408725,I2C,C,(0x43),+,ACK,,,
0.3543395,I2C,Setup,Read,to,['209',(0xD1)],+,ACK
0.354556,I2C,'255',(0xFF),+,ACK,,,
0.35477225,I2C,x,(0x78),+,ACK,,,
0.3549885,I2C,'254',(0xFE),+,ACK,,,
0.3552045,I2C,'204',(0xCC),+,ACK,,,
0.355421,I2C,'255',(0xFF),+,ACK,,,
0.35563725,I2C,_,(0x5F),+,NAK,,,
0.3560155,I2C,Setup,Write,to,['208',(0xD0)],+,ACK
0.35623175,I2C,C,(0x43),+,ACK,,,
0.35648425,I2C,Setup,Read,to,['209',(0xD1)],+,ACK
0.3567005,I2C,'255',(0xFF),+,ACK,,,
0.35691675,I2C,v,(0x76),+,ACK,,,
0.357133,I2C,'254',(0xFE),+,ACK,,,
0.35734925,I2C,'200',(0xC8),+,ACK,,,
0.3575655,I2C,'255',(0xFF),+,ACK,,,
0.357782,I2C,^,(0x5E),+,NAK,,,
0.35816025,I2C,Setup,Write,to,['208',(0xD0)],+,ACK
0.3583765,I2C,C,(0x43),+,ACK,,,
0.35862875,I2C,Setup,Read,to,['209',(0xD1)],+,ACK
0.358845,I2C,'255',(0xFF),+,ACK,,,
0.35906125,I2C,Z,(0x5A),+,ACK,,,
0.3592775,I2C,'254',(0xFE),+,ACK,,,
0.35949375,I2C,'226',(0xE2),+,ACK,,,
0.35971,I2C,'255',(0xFF),+,ACK,,,
0.35992625,I2C,p,(0x70),+,NAK,,,
0.36030475,I2C,Setup,Write,to,['208',(0xD0)],+,ACK
0.360521,I2C,C,(0x43),+,ACK,,,
0.36077325,I2C,Setup,Read,to,['209',(0xD1)],+,ACK
0.3609895,I2C,'255',(0xFF),+,ACK,,,
0.36120575,I2C,[,(0x5B),+,ACK,,,
0.36142175,I2C,'254',(0xFE),+,ACK,,,
0.361638,I2C,'235',(0xEB),+,ACK,,,
0.3618545,I2C,'255',(0xFF),+,ACK,,,
0.36207075,I2C,Z,(0x5A),+,NAK,,,
0.36244925,I2C,Setup,Write,to,['208',(0xD0)],+,ACK
0.3626655,I2C,C,(0x43),+,ACK,,,
0.36291775,I2C,Setup,Read,to,['209',(0xD1)],+,ACK
0.363134,I2C,'255',(0xFF),+,ACK,,,
0.36335025,I2C,'143',(0x8F),+,ACK,,,
0.3635665,I2C,'254',(0xFE),+,ACK,,,
0.36378275,I2C,'212',(0xD4),+,ACK,,,
0.363999,I2C,'255',(0xFF),+,ACK,,,
0.36421525,I2C,s,(0x73),+,NAK,,,
0.36459375,I2C,Setup,Write,to,['208',(0xD0)],+,ACK
0.36481,I2C,C,(0x43),+,ACK,,,
0.36506225,I2C,Setup,Read,to,['209',(0xD1)],+,ACK
0.3652785,I2C,'255',(0xFF),+,ACK,,,
0.36549475,I2C,c,(0x63),+,ACK,,,
0.365711,I2C,'254',(0xFE),+,ACK,,,
0.36592725,I2C,'238',(0xEE),+,ACK,,,
0.36614325,I2C,'255',(0xFF),+,ACK,,,
0.3663595,I2C,v,(0x76),+,NAK,,,
0.36673775,I2C,Setup,Write,to,['208',(0xD0)],+,ACK
0.366954,I2C,C,(0x43),+,ACK,,,
0.36720625,I2C,Setup,Read,to,['209',(0xD1)],+,ACK
0.3674225,I2C,'255',(0xFF),+,ACK,,,
0.36763875,I2C,'134',(0x86),+,ACK,,,
0.36785475,I2C,'254',(0xFE),+,ACK,,,
0.368071,I2C,'224',(0xE0),+,ACK,,,
0.36828725,I2C,'255',(0xFF),+,ACK,,,
0.3685035,I2C,I,(0x49),+,NAK,,,
0.36888175,I2C,Setup,Write,to,['208',(0xD0)],+,ACK
0.36909825,I2C,C,(0x43),+,ACK,,,
0.3693505,I2C,Setup,Read,to,['209',(0xD1)],+,ACK
0.36956675,I2C,'255',(0xFF),+,ACK,,,
0.369783,I2C,v,(0x76),+,ACK,,,
0.36999925,I2C,'254',(0xFE),+,ACK,,,
0.3702155,I2C,'223',(0xDF),+,ACK,,,
0.3704315,I2C,'255',(0xFF),+,ACK,,,
0.37064775,I2C,w,(0x77),+,NAK,,,
0.37102625,I2C,Setup,Write,to,['208',(0xD0)],+,ACK
0.3712425,I2C,C,(0x43),+,ACK,,,
0.37149475,I2C,Setup,Read,to,['209',(0xD1)],+,ACK
0.371711,I2C,'255',(0xFF),+,ACK,,,
0.371927,I2C,m,(0x6D),+,ACK,,,
0.37214325,I2C,'255',(0xFF),+,ACK,,,
0.3723595,I2C,'3',(0x03),+,ACK,,,
0.37257575,I2C,'255',(0xFF),+,ACK,,,
0.372792,I2C,k,(0x6B),+,NAK,,,
0.37317025,I2C,Setup,Write,to,['208',(0xD0)],+,ACK
0.3733865,I2C,C,(0x43),+,ACK,,,
0.37363875,I2C,Setup,Read,to,['209',(0xD1)],+,ACK
0.373855,I2C,'255',(0xFF),+,ACK,,,
0.374071,I2C,r,(0x72),+,ACK,,,
0.3742875,I2C,'254',(0xFE),+,ACK,,,
0.3745035,I2C,'233',(0xE9),+,ACK,,,
0.37471975,I2C,'255',(0xFF),+,ACK,,,
0.374936,I2C,w,(0x77),+,NAK,,,
0.3753145,I2C,Setup,Write,to,['208',(0xD0)],+,ACK
0.37553075,I2C,C,(0x43),+,ACK,,,
0.375783,I2C,Setup,Read,to,['209',(0xD1)],+,ACK
0.37599925,I2C,'255',(0xFF),+,ACK,,,
0.37621525,I2C,t,(0x74),+,ACK,,,
0.3764315,I2C,'254',(0xFE),+,ACK,,,
0.37664775,I2C,'254',(0xFE),+,ACK,,,
0.376864,I2C,'255',(0xFF),+,ACK,,,
0.37708,I2C,i,(0x69),+,NAK,,,
0.3774585,I2C,Setup,Write,to,['208',(0xD0)],+,ACK
0.37767475,I2C,C,(0x43),+,ACK,,,
0.377927,I2C,Setup,Read,to,['209',(0xD1)],+,ACK
0.37814325,I2C,'255',(0xFF),+,ACK,,,
0.37835925,I2C,w,(0x77),+,ACK,,,
0.3785755,I2C,'254',(0xFE),+,ACK,,,
0.37879175,I2C,'242',(0xF2),+,ACK,,,
0.379008,I2C,'255',(0xFF),+,ACK,,,
0.379224,I2C,b,(0x62),+,NAK,,,
0.3796025,I2C,Setup,Write,to,['208',(0xD0)],+,ACK
0.37981875,I2C,C,(0x43),+,ACK,,,
0.380071,I2C,Setup,Read,to,['209',(0xD1)],+,ACK
0.38028725,I2C,'255',(0xFF),+,ACK,,,
0.3805035,I2C,r,(0x72),+,ACK,,,
0.38071975,I2C,'254',(0xFE),+,ACK,,,
0.380936,I2C,'214',(0xD6),+,ACK,,,
0.38115225,I2C,'255',(0xFF),+,ACK,,,
0.38136875,I2C,b,(0x62),+,NAK,,,
0.381747,I2C,Setup,Write,to,['208',(0xD0)],+,ACK
0.38196325,I2C,C,(0x43),+,ACK,,,
0.38221575,I2C,Setup,Read,to,['209',(0xD1)],+,ACK
0.382432,I2C,'255',(0xFF),+,ACK,,,
0.38264825,I2C,p,(0x70),+,ACK,,,
0.3828645,I2C,'254',(0xFE),+,ACK,,,
0.38308075,I2C,'202',(0xCA),+,ACK,,,
0.383297,I2C,'255',(0xFF),+,ACK,,,
0.3835135,I2C,g,(0x67),+,NAK,,,
0.38389175,I2C,Setup,Write,to,['208',(0xD0)],+,ACK
0.384108,I2C,C,(0x43),+,ACK,,,
0.3843605,I2C,Setup,Read,to,['209',(0xD1)],+,ACK
0.38457675,I2C,'255',(0xFF),+,ACK,,,
0.384793,I2C,d,(0x64),+,ACK,,,
0.38500925,I2C,'254',(0xFE),+,ACK,,,
0.3852255,I2C,'209',(0xD1),+,ACK,,,
0.38544175,I2C,'255',(0xFF),+,ACK,,,
0.385658,I2C,k,(0x6B),+,NAK,,,
0.3860365,I2C,Setup,Write,to,['208',(0xD0)],+,ACK
0.38625275,I2C,C,(0x43),+,ACK,,,
0.386505,I2C,Setup,Read,to,['209',(0xD1)],+,ACK
0.38672125,I2C,'255',(0xFF),+,ACK,,,
0.3869375,I2C,b,(0x62),+,ACK,,,
0.38715375,I2C,'254',(0xFE),+,ACK,,,
0.38737,I2C,'219',(0xDB),+,ACK,,,
0.38758625,I2C,'255',(0xFF),+,ACK,,,
0.3878025,I2C,T,(0x54),+,NAK,,,
0.388181,I2C,Setup,Write,to,['208',(0xD0)],+,ACK
0.38839725,I2C,C,(0x43),+,ACK,,,
0.3886495,I2C,Setup,Read,to,['209',(0xD1)],+,ACK
0.388866,I2C,'255',(0xFF),+,ACK,,,
0.38908225,I2C,'129',(0x81),+,ACK,,,
0.3892985,I2C,'254',(0xFE),+,ACK,,,
0.38951475,I2C,'247',(0xF7),+,ACK,,,
0.389731,I2C,'255',(0xFF),+,ACK,,,
0.38994725,I2C,j,(0x6A),+,NAK,,,
0.39032575,I2C,Setup,Write,to,['208',(0xD0)],+,ACK
0.390542,I2C,C,(0x43),+,ACK,,,
0.39079425,I2C,Setup,Read,to,['209',(0xD1)],+,ACK
0.3910105,I2C,'255',(0xFF),+,ACK,,,
0.39122675,I2C,l,(0x6C),+,ACK,,,
0.391443,I2C,'254',(0xFE),+,ACK,,,
0.39165925,I2C,'238',(0xEE),+,ACK,,,
0.39187575,I2C,'255',(0xFF),+,ACK,,,
0.392092,I2C,n,(0x6E),+,NAK,,,
0.3924705,I2C,Setup,Write,to,['208',(0xD0)],+,ACK
0.39268675,I2C,C,(0x43),+,ACK,,,
0.39293925,I2C,Setup,Read,to,['209',(0xD1)],+,ACK
0.3931555,I2C,'255',(0xFF),+,ACK,,,
0.39337175,I2C,z,(0x7A),+,ACK,,,
0.393588,I2C,'254',(0xFE),+,ACK,,,
0.39380425,I2C,'246',(0xF6),+,ACK,,,
0.39402075,I2C,'255',(0xFF),+,ACK,,,
0.394237,I2C,b,(0x62),+,NAK,,,
0.3946155,I2C,Setup,Write,to,['208',(0xD0)],+,ACK
0.39483175,I2C,C,(0x43),+,ACK,,,
0.39508425,I2C,Setup,Read,to,['209',(0xD1)],+,ACK
0.3953005,I2C,'255',(0xFF),+,ACK,,,
0.39551675,I2C,~,(0x7E),+,ACK,,,
0.395733,I2C,'254',(0xFE),+,ACK,,,
0.39594925,I2C,'227',(0xE3),+,ACK,,,
0.3961655,I2C,'255',(0xFF),+,ACK,,,
0.39638175,I2C,c,(0x63),+,NAK,,,
0.39676025,I2C,Setup,Write,to,['208',(0xD0)],+,ACK
0.3969765,I2C,C,(0x43),+,ACK,,,
0.397229,I2C,Setup,Read,to,['209',(0xD1)],+,ACK
0.39744525,I2C,'255',(0xFF),+,ACK,,,
0.3976615,I2C,~,(0x7E),+,ACK,,,
0.39787775,I2C,'254',(0xFE),+,ACK,,,
0.398094,I2C,'220',(0xDC),+,ACK,,,
0.39831025,I2C,'255',(0xFF),+,ACK,,,
0.39852675,I2C,Z,(0x5A),+,NAK,,,
0.398905,I2C,Setup,Write,to,['208',(0xD0)],+,ACK
0.39912125,I2C,C,(0x43),+,ACK,,,
0.39937375,I2C,Setup,Read,to,['209',(0xD1)],+,ACK
0.39959,I2C,'255',(0xFF),+,ACK,,,
0.39980625,I2C,t,(0x74),+,ACK,,,
0.4000225,I2C,'254',(0xFE),+,ACK,,,
0.40023875,I2C,'211',(0xD3),+,ACK,,,
0.400455,I2C,'255',(0xFF),+,ACK,,,
0.40067125,I2C,j,(0x6A),+,NAK,,,
0.40104975,I2C,Setup,Write,to,['208',(0xD0)],+,ACK
0.401266,I2C,C,(0x43),+,ACK,,,
0.4015185,I2C,Setup,Read,to,['209',(0xD1)],+,ACK
0.40173475,I2C,'255',(0xFF),+,ACK,,,
0.401951,I2C,q,(0x71),+,ACK,,,
0.40216725,I2C,'254',(0xFE),+,ACK,,,
0.4023835,I2C,'219',(0xDB),+,ACK,,,
0.40259975,I2C,'255',(0xFF),+,ACK,,,
0.40281625,I2C,O,(0x4F),+,NAK,,,
0.4031945,I2C,Setup,Write,to,['208',(0xD0)],+,ACK
0.403411,I2C,C,(0x43),+,ACK,,,
0.40366325,I2C,Setup,Read,to,['209',(0xD1)],+,ACK
0.4038795,I2C,'255',(0xFF),+,ACK,,,
0.4040955,I2C,r,(0x72),+,ACK,,,
0.40431175,I2C,'254',(0xFE),+,ACK,,,
0.404528,I2C,'218',(0xDA),+,ACK,,,
0.40474425,I2C,'255',(0xFF),+,ACK,,,
0.4049605,I2C,j,(0x6A),+,NAK,,,
0.405339,I2C,Setup,Write,to,['208',(0xD0)],+,ACK
0.40555525,I2C,C,(0x43),+,ACK,,,
0.4058075,I2C,Setup,Read,to,['209',(0xD1)],+,ACK
0.40602375,I2C,'255',(0xFF),+,ACK,,,
0.40623975,I2C,w,(0x77),+,ACK,,,
0.40645625,I2C,'254',(0xFE),+,ACK,,,
0.40667225,I2C,'228',(0xE4),+,ACK,,,
0.4068885,I2C,'255',(0xFF),+,ACK,,,
0.40710475,I2C,Z,(0x5A),+,NAK,,,
0.40748325,I2C,Setup,Write,to,['208',(0xD0)],+,ACK
0.4076995,I2C,C,(0x43),+,ACK,,,
0.40795175,I2C,Setup,Read,to,['209',(0xD1)],+,ACK
0.408168,I2C,'255',(0xFF),+,ACK,,,
0.40838425,I2C,~,(0x7E),+,ACK,,,
0.4086005,I2C,'254',(0xFE),+,ACK,,,
0.40881675,I2C,'249',(0xF9),+,ACK,,,
0.409033,I2C,'255',(0xFF),+,ACK,,,
0.40924925,I2C,[,(0x5B),+,NAK,,,
0.40962775,I2C,Setup,Write,to,['208',(0xD0)],+,ACK
0.409844,I2C,C,(0x43),+,ACK,,,
0.41009625,I2C,Setup,Read,to,['209',(0xD1)],+,ACK
0.4103125,I2C,'255',(0xFF),+,ACK,,,
0.41052875,I2C,u,(0x75),+,ACK,,,
0.41074525,I2C,'254',(0xFE),+,ACK,,,
0.41096125,I2C,'226',(0xE2),+,ACK,,,
0.4111775,I2C,'255',(0xFF),+,ACK,,,
0.411394,I2C,Z,(0x5A),+,NAK,,,
0.4117725,I2C,Setup,Write,to,['208',(0xD0)],+,ACK
0.41198875,I2C,C,(0x43),+,ACK,,,
0.41224125,I2C,Setup,Read,to,['209',(0xD1)],+,ACK
0.4124575,I2C,'255',(0xFF),+,ACK,,,
0.41267375,I2C,'139',(0x8B),+,ACK,,,
0.41289,I2C,'254',(0xFE),+,ACK,,,
0.41310625,I2C,'215',(0xD7),+,ACK,,,
0.4133225,I2C,'255',(0xFF),+,ACK,,,
0.41353875,I2C,i,(0x69),+,NAK,,,
0.41391725,I2C,Setup,Write,to,['208',(0xD0)],+,ACK
0.4141335,I2C,C,(0x43),+,ACK,,,
0.41438575,I2C,Setup,Read,to,['209',(0xD1)],+,ACK
0.414602,I2C,'255',(0xFF),+,ACK,,,
0.41481825,I2C,},(0x7D),+,ACK,,,
0.41503425,I2C,'254',(0xFE),+,ACK,,,
0.4152505,I2C,'236',(0xEC),+,ACK,,,
0.41546675,I2C,'255',(0xFF),+,ACK,,,
0.415683,I2C,M,(0x4D),+,NAK,,,
0.4160615,I2C,Setup,Write,to,['208',(0xD0)],+,ACK
0.4162775,I2C,C,(0x43),+,ACK,,,
0.41652975,I2C,Setup,Read,to,['209',(0xD1)],+,ACK
0.416746,I2C,'255',(0xFF),+,ACK,,,
0.41696225,I2C,w,(0x77),+,ACK,,,
0.4171785,I2C,'254',(0xFE),+,ACK,,,
0.41739475,I2C,'255',(0xFF),+,ACK,,,
0.41761075,I2C,'255',(0xFF),+,ACK,,,
0.41782725,I2C,|,(0x7C),+,NAK,,,
0.4182055,I2C,Setup,Write,to,['208',(0xD0)],+,ACK
0.41842175,I2C,C,(0x43),+,ACK,,,
0.418674,I2C,Setup,Read,to,['209',(0xD1)],+,ACK
0.41889025,I2C,'255',(0xFF),+,ACK,,,
0.4191065,I2C,~,(0x7E),+,ACK,,,
0.41932275,I2C,'254',(0xFE),+,ACK,,,
0.419539,I2C,'212',(0xD4),+,ACK,,,
0.41975525,I2C,'255',(0xFF),+,ACK,,,
0.4199715,I2C,o,(0x6F),+,NAK,,,
0.42035,I2C,Setup,Write,to,['208',(0xD0)],+,ACK
0.42056625,I2C,C,(0x43),+,ACK,,,
0.4208185,I2C,Setup,Read,to,['209',(0xD1)],+,ACK
0.42103475,I2C,'255',(0xFF),+,ACK,,,
0.421251,I2C,o,(0x6F),+,ACK,,,
0.42146725,I2C,'254',(0xFE),+,ACK,,,
0.4216835,I2C,'206',(0xCE),+,ACK,,,
0.42189975,I2C,'255',(0xFF),+,ACK,,,
0.422116,I2C,X,(0x58),+,NAK,,,
0.4224945,I2C,Setup,Write,to,['208',(0xD0)],+,ACK
0.42271075,I2C,C,(0x43),+,ACK,,,
0.422963,I2C,Setup,Read,to,['209',(0xD1)],+,ACK
0.42317925,I2C,'255',(0xFF),+,ACK,,,
0.4233955,I2C,'138',(0x8A),+,ACK,,,
0.42361175,I2C,'254',(0xFE),+,ACK,,,
0.423828,I2C,'228',(0xE4),+,ACK,,,
0.4240445,I2C,'255',(0xFF),+,ACK,,,
0.42426075,I2C,],(0x5D),+,NAK,,,
0.42463925,I2C,Setup,Write,to,['208',(0xD0)],+,ACK
0.4248555,I2C,C,(0x43),+,ACK,,,
0.42510775,I2C,Setup,Read,to,['209',(0xD1)],+,ACK
0.425324,I2C,'255',(0xFF),+,ACK,,,
0.42554025,I2C,'136',(0x88),+,ACK,,,
0.4257565,I2C,'255',(0xFF),+,ACK,,,
0.42597275,I2C,'2',(0x02),+,ACK,,,
0.426189,I2C,'255',(0xFF),+,ACK,,,
0.42640525,I2C,h,(0x68),+,NAK,,,
0.42678375,I2C,Setup,Write,to,['208',(0xD0)],+,ACK
0.427,I2C,C,(0x43),+,ACK,,,
0.4272525,I2C,Setup,Read,to,['209',(0xD1)],+,ACK
0.42746875,I2C,'255',(0xFF),+,ACK,,,
0.427685,I2C,h,(0x68),+,ACK,,,
0.42790125,I2C,'254',(0xFE),+,ACK,,,
0.4281175,I2C,'233',(0xE9),+,ACK,,,
0.42833375,I2C,'255',(0xFF),+,ACK,,,
0.42855,I2C,n,(0x6E),+,NAK,,,
0.4289285,I2C,Setup,Write,to,['208',(0xD0)],+,ACK
0.42914475,I2C,C,(0x43),+,ACK,,,
0.429397,I2C,Setup,Read,to,['209',(0xD1)],+,ACK
0.42961325,I2C,'255',(0xFF),+,ACK,,,
0.4298295,I2C,j,(0x6A),+,ACK,,,
0.43004575,I2C,'254',(0xFE),+,ACK,,,
0.43026225,I2C,'234',(0xEA),+,ACK,,,
0.4304785,I2C,'255',(0xFF),+,ACK,,,
0.43069475,I2C,[,(0x5B),+,NAK,,,
0.43107325,I2C,Setup,Write,to,['208',(0xD0)],+,ACK
0.4312895,I2C,C,(0x43),+,ACK,,,
0.431542,I2C,Setup,Read,to,['209',(0xD1)],+,ACK
0.43175825,I2C,'255',(0xFF),+,ACK,,,
0.4319745,I2C,q,(0x71),+,ACK,,,
0.43219075,I2C,'254',(0xFE),+,ACK,,,
0.43240725,I2C,'228',(0xE4),+,ACK,,,
0.4326235,I2C,'255',(0xFF),+,ACK,,,
0.43283975,I2C,z,(0x7A),+,NAK,,,
0.433218,I2C,Setup,Write,to,['208',(0xD0)],+,ACK
0.4334345,I2C,C,(0x43),+,ACK,,,
0.433687,I2C,Setup,Read,to,['209',(0xD1)],+,ACK
0.43390325,I2C,'255',(0xFF),+,ACK,,,
0.4341195,I2C,m,(0x6D),+,ACK,,,
0.43433575,I2C,'254',(0xFE),+,ACK,,,
0.434552,I2C,'235',(0xEB),+,ACK,,,
0.43476825,I2C,'255',(0xFF),+,ACK,,,
0.4349845,I2C,y,(0x79),+,NAK,,,
0.43536275,I2C,Setup,Write,to,['208',(0xD0)],+,ACK
0.435579,I2C,C,(0x43),+,ACK,,,
0.4358315,I2C,Setup,Read,to,['209',(0xD1)],+,ACK
0.4360475,I2C,'255',(0xFF),+,ACK,,,
0.43626375,I2C,'144',(0x90),+,ACK,,,
0.43648,I2C,'254',(0xFE),+,ACK,,,
0.43669625,I2C,'222',(0xDE),+,ACK,,,
0.4369125,I2C,'255',(0xFF),+,ACK,,,
0.43712875,I2C,`,(0x60),+,NAK,,,
0.43750725,I2C,Setup,Write,to,['208',(0xD0)],+,ACK
0.43772375,I2C,C,(0x43),+,ACK,,,
0.437976,I2C,Setup,Read,to,['209',(0xD1)],+,ACK
0.43819225,I2C,'255',(0xFF),+,ACK,,,
0.4384085,I2C,w,(0x77),+,ACK,,,
0.43862475,I2C,'254',(0xFE),+,ACK,,,
0.43884125,I2C,'234',(0xEA),+,ACK,,,
0.4390575,I2C,'255',(0xFF),+,ACK,,,
0.43927375,I2C,v,(0x76),+,NAK,,,
0.439652,I2C,Setup,Write,to,['208',(0xD0)],+,ACK
0.4398685,I2C,C,(0x43),+,ACK,,,
0.44012075,I2C,Setup,Read,to,['209',(0xD1)],+,ACK
0.440337,I2C,'255',(0xFF),+,ACK,,,
0.44055325,I2C,U,(0x55),+,ACK,,,
0.4407695,I2C,'254',(0xFE),+,ACK,,,
0.44098575,I2C,'222',(0xDE),+,ACK,,,
0.441202,I2C,'255',(0xFF),+,ACK,,,
0.44141825,I2C,i,(0x69),+,NAK,,,
0.44179675,I2C,Setup,Write,to,['208',(0xD0)],+,ACK
0.442013,I2C,C,(0x43),+,ACK,,,
0.44226525,I2C,Setup,Read,to,['209',(0xD1)],+,ACK
0.4424815,I2C,'255',(0xFF),+,ACK,,,
0.44269775,I2C,'138',(0x8A),+,ACK,,,
0.44291425,I2C,'254',(0xFE),+,ACK,,,
0.4431305,I2C,'232',(0xE8),+,ACK,,,
0.44334675,I2C,'255',(0xFF),+,ACK,,,
0.44356275,I2C,q,(0x71),+,NAK,,,
0.44394125,I2C,Setup,Write,to,['208',(0xD0)],+,ACK
0.4441575,I2C,C,(0x43),+,ACK,,,
0.44441,I2C,Setup,Read,to,['209',(0xD1)],+,ACK
0.44462625,I2C,'255',(0xFF),+,ACK,,,
0.44484225,I2C,h,(0x68),+,ACK,,,
0.44505875,I2C,'254',(0xFE),+,ACK,,,
0.445275,I2C,'222',(0xDE),+,ACK,,,
0.44549125,I2C,'255',(0xFF),+,ACK,,,
0.4457075,I2C,^,(0x5E),+,NAK,,,
0.446086,I2C,Setup,Write,to,['208',(0xD0)],+,ACK
0.44630225,I2C,C,(0x43),+,ACK,,,
0.4465545,I2C,Setup,Read,to,['209',(0xD1)],+,ACK
0.44677075,I2C,'255',(0xFF),+,ACK,,,
0.446987,I2C,~,(0x7E),+,ACK,,,
0.44720325,I2C,'254',(0xFE),+,ACK,,,
0.4474195,I2C,'247',(0xF7),+,ACK,,,
0.44763575,I2C,'255',(0xFF),+,ACK,,,
0.447852,I2C,e,(0x65),+,NAK,,,
0.4482305,I2C,Setup,Write,to,['208',(0xD0)],+,ACK
0.44844675,I2C,C,(0x43),+,ACK,,,
0.44869925,I2C,Setup,Read,to,['209',(0xD1)],+,ACK
0.4489155,I2C,'255',(0xFF),+,ACK,,,
0.44913175,I2C,'130',(0x82),+,ACK,,,
0.449348,I2C,'254',(0xFE),+,ACK,,,
0.44956425,I2C,'249',(0xF9),+,ACK,,,
0.4497805,I2C,'255',(0xFF),+,ACK,,,
0.44999675,I2C,j,(0x6A),+,NAK,,,
0.45037525,I2C,Setup,Write,to,['208',(0xD0)],+,ACK
0.4505915,I2C,C,(0x43),+,ACK,,,
0.45084375,I2C,Setup,Read,to,['209',(0xD1)],+,ACK
0.45106,I2C,'255',(0xFF),+,ACK,,,
0.4512765,I2C,w,(0x77),+,ACK,,,
0.45149275,I2C,'254',(0xFE),+,ACK,,,
0.451709,I2C,'233',(0xE9),+,ACK,,,
0.45192525,I2C,'255',(0xFF),+,ACK,,,
0.4521415,I2C,i,(0x69),+,NAK,,,
0.45252,I2C,Setup,Write,to,['208',(0xD0)],+,ACK
0.45273625,I2C,C,(0x43),+,ACK,,,
0.4529885,I2C,Setup,Read,to,['209',(0xD1)],+,ACK
0.45320475,I2C,'255',(0xFF),+,ACK,,,
0.453421,I2C,v,(0x76),+,ACK,,,
0.45363725,I2C,'254',(0xFE),+,ACK,,,
0.4538535,I2C,'215',(0xD7),+,ACK,,,
0.45406975,I2C,'255',(0xFF),+,ACK,,,
0.45428625,I2C,f,(0x66),+,NAK,,,
0.4546645,I2C,Setup,Write,to,['208',(0xD0)],+,ACK
0.454881,I2C,C,(0x43),+,ACK,,,
0.45513325,I2C,Setup,Read,to,['209',(0xD1)],+,ACK
0.4553495,I2C,'255',(0xFF),+,ACK,,,
0.45556575,I2C,'129',(0x81),+,ACK,,,
0.455782,I2C,'254',(0xFE),+,ACK,,,
0.45599825,I2C,'195',(0xC3),+,ACK,,,
0.4562145,I2C,'255',(0xFF),+,ACK,,,
0.45643075,I2C,f,(0x66),+,NAK,,,
0.45680925,I2C,Setup,Write,to,['208',(0xD0)],+,ACK
0.4570255,I2C,C,(0x43),+,ACK,,,
0.45727775,I2C,Setup,Read,to,['209',(0xD1)],+,ACK
0.457494,I2C,'255',(0xFF),+,ACK,,,
0.45771025,I2C,{,(0x7B),+,ACK,,,
0.4579265,I2C,'254',(0xFE),+,ACK,,,
0.45814275,I2C,'223',(0xDF),+,ACK,,,
0.458359,I2C,'255',(0xFF),+,ACK,,,
0.45857525,I2C,Q,(0x51),+,NAK,,,
0.45895375,I2C,Setup,Write,to,['208',(0xD0)],+,ACK
0.45917,I2C,C,(0x43),+,ACK,,,
0.45942225,I2C,Setup,Read,to,['209',(0xD1)],+,ACK
0.4596385,I2C,'255',(0xFF),+,ACK,,,
0.45985475,I2C,v,(0x76),+,ACK,,,
0.460071,I2C,'254',(0xFE),+,ACK,,,
0.46028725,I2C,'240',(0xF0),+,ACK,,,
0.4605035,I2C,'255',(0xFF),+,ACK,,,
0.46071975,I2C,p,(0x70),+,NAK,,,
0.46109825,I2C,Setup,Write,to,['208',(0xD0)],+,ACK
0.4613145,I2C,C,(0x43),+,ACK,,,
0.46156675,I2C,Setup,Read,to,['209',(0xD1)],+,ACK
0.461783,I2C,'255',(0xFF),+,ACK,,,
0.46199925,I2C,T,(0x54),+,ACK,,,
0.4622155,I2C,'254',(0xFE),+,ACK,,,
0.46243175,I2C,'249',(0xF9),+,ACK,,,
0.462648,I2C,'255',(0xFF),+,ACK,,,
0.46286425,I2C,d,(0x64),+,NAK,,,
0.46324275,I2C,Setup,Write,to,['208',(0xD0)],+,ACK
0.463459,I2C,C,(0x43),+,ACK,,,
0.46371125,I2C,Setup,Read,to,['209',(0xD1)],+,ACK
0.4639275,I2C,'255',(0xFF),+,ACK,,,
0.46414375,I2C,'138',(0x8A),+,ACK,,,
0.46436,I2C,'254',(0xFE),+,ACK,,,
0.46457625,I2C,'230',(0xE6),+,ACK,,,
0.4647925,I2C,'255',(0xFF),+,ACK,,,
0.46500875,I2C,f,(0x66),+,NAK,,,
0.46538725,I2C,Setup,Write,to,['208',(0xD0)],+,ACK
0.4656035,I2C,C,(0x43),+,ACK,,,
0.46585575,I2C,Setup,Read,to,['209',(0xD1)],+,ACK
0.466072,I2C,'255',(0xFF),+,ACK,,,
0.46628825,I2C,x,(0x78),+,ACK,,,
0.4665045,I2C,'254',(0xFE),+,ACK,,,
0.46672075,I2C,'192',(0xC0),+,ACK,,,
0.466937,I2C,'255',(0xFF),+,ACK,,,
0.46715325,I2C,g,(0x67),+,NAK,,,
0.46753175,I2C,Setup,Write,to,['208',(0xD0)],+,ACK
0.467748,I2C,C,(0x43),+,ACK,,,
0.4680005,I2C,Setup,Read,to,['209',(0xD1)],+,ACK
0.46821675,I2C,'255',(0xFF),+,ACK,,,
0.468433,I2C,o,(0x6F),+,ACK,,,
0.46864925,I2C,'254',(0xFE),+,ACK,,,
0.4688655,I2C,'241',(0xF1),+,ACK,,,
0.46908175,I2C,'255',(0xFF),+,ACK,,,
0.46929775,I2C,z,(0x7A),+,NAK,,,
0.46967625,I2C,Setup,Write,to,['208',(0xD0)],+,ACK
0.46989275,I2C,C,(0x43),+,ACK,,,
0.470145,I2C,Setup,Read,to,['209',(0xD1)],+,ACK
0.47036125,I2C,'255',(0xFF),+,ACK,,,
0.4705775,I2C,_,(0x5F),+,ACK,,,
0.47079375,I2C,'254',(0xFE),+,ACK,,,
0.47101,I2C,'207',(0xCF),+,ACK,,,
0.47122625,I2C,'255',(0xFF),+,ACK,,,
0.4714425,I2C,Z,(0x5A),+,NAK,,,
0.471821,I2C,Setup,Write,to,['208',(0xD0)],+,ACK
0.47203725,I2C,C,(0x43),+,ACK,,,
0.4722895,I2C,Setup,Read,to,['209',(0xD1)],+,ACK
0.47250575,I2C,'255',(0xFF),+,ACK,,,
0.47272225,I2C,'127',(0x7F),+,ACK,,,
0.4729385,I2C,'254',(0xFE),+,ACK,,,
0.47315475,I2C,'233',(0xE9),+,ACK,,,
0.473371,I2C,'255',(0xFF),+,ACK,,,
0.47358725,I2C,e,(0x65),+,NAK,,,
0.47396575,I2C,Setup,Write,to,['208',(0xD0)],+,ACK
0.47418225,I2C,C,(0x43),+,ACK,,,
0.4744345,I2C,Setup,Read,to,['209',(0xD1)],+,ACK
0.47465075,I2C,'255',(0xFF),+,ACK,,,
0.47486675,I2C,g,(0x67),+,ACK,,,
0.47508325,I2C,'254',(0xFE),+,ACK,,,
0.47529925,I2C,'252',(0xFC),+,ACK,,,
0.4755155,I2C,'255',(0xFF),+,ACK,,,
0.47573175,I2C,_,(0x5F),+,NAK,,,
0.47611025,I2C,Setup,Write,to,['208',(0xD0)],+,ACK
0.4763265,I2C,C,(0x43),+,ACK,,,
0.47657875,I2C,Setup,Read,to,['209',(0xD1)],+,ACK
0.476795,I2C,'255',(0xFF),+,ACK,,,
0.47701125,I2C,|,(0x7C),+,ACK,,,
0.47722775,I2C,'254',(0xFE),+,ACK,,,
0.477444,I2C,'219',(0xDB),+,ACK,,,
0.47766025,I2C,'255',(0xFF),+,ACK,,,
0.4778765,I2C,i,(0x69),+,NAK,,,
0.47825525,I2C,Setup,Write,to,['208',(0xD0)],+,ACK
0.47847125,I2C,C,(0x43),+,ACK,,,
0.47872375,I2C,Setup,Read,to,['209',(0xD1)],+,ACK
0.47894,I2C,'255',(0xFF),+,ACK,,,
0.47915625,I2C,k,(0x6B),+,ACK,,,
0.4793725,I2C,'254',(0xFE),+,ACK,,,
0.47958875,I2C,'232',(0xE8),+,ACK,,,
0.479805,I2C,'255',(0xFF),+,ACK,,,
0.480021,I2C,T,(0x54),+,NAK,,,
0.4803995,I2C,Setup,Write,to,['208',(0xD0)],+,ACK
0.48061575,I2C,C,(0x43),+,ACK,,,
0.48086825,I2C,Setup,Read,to,['209',(0xD1)],+,ACK
0.4810845,I2C,'255',(0xFF),+,ACK,,,
0.48130075,I2C,m,(0x6D),+,ACK,,,
0.481517,I2C,'254',(0xFE),+,ACK,,,
0.48173325,I2C,'254',(0xFE),+,ACK,,,
0.48194975,I2C,'255',(0xFF),+,ACK,,,
0.48216575,I2C,w,(0x77),+,NAK,,,
0.48254425,I2C,Setup,Write,to,['208',(0xD0)],+,ACK
0.4827605,I2C,C,(0x43),+,ACK,,,
0.48301275,I2C,Setup,Read,to,['209',(0xD1)],+,ACK
0.483229,I2C,'255',(0xFF),+,ACK,,,
0.4834455,I2C,^,(0x5E),+,ACK,,,
0.48366175,I2C,'254',(0xFE),+,ACK,,,
0.483878,I2C,'222',(0xDE),+,ACK,,,
0.48409425,I2C,'255',(0xFF),+,ACK,,,
0.48431075,I2C,W,(0x57),+,NAK,,,
0.484689,I2C,Setup,Write,to,['208',(0xD0)],+,ACK
0.48490525,I2C,C,(0x43),+,ACK,,,
0.4851575,I2C,Setup,Read,to,['209',(0xD1)],+,ACK
0.48537375,I2C,'255',(0xFF),+,ACK,,,
0.48559,I2C,[,(0x5B),+,ACK,,,
0.48580625,I2C,'254',(0xFE),+,ACK,,,
0.4860225,I2C,'236',(0xEC),+,ACK,,,
0.48623875,I2C,'255',(0xFF),+,ACK,,,
0.486455,I2C,a,(0x61),+,NAK,,,
0.4868335,I2C,Setup,Write,to,['208',(0xD0)],+,ACK
0.48704975,I2C,C,(0x43),+,ACK,,,
0.487302,I2C,Setup,Read,to,['209',(0xD1)],+,ACK
0.48751825,I2C,'255',(0xFF),+,ACK,,,
0.4877345,I2C,z,(0x7A),+,ACK,,,
0.48795075,I2C,'254',(0xFE),+,ACK,,,
0.488167,I2C,'225',(0xE1),+,ACK,,,
0.48838325,I2C,'255',(0xFF),+,ACK,,,
0.4885995,I2C,g,(0x67),+,NAK,,,
0.488978,I2C,Setup,Write,to,['208',(0xD0)],+,ACK
0.48919425,I2C,C,(0x43),+,ACK,,,
0.4894465,I2C,Setup,Read,to,['209',(0xD1)],+,ACK
0.48966275,I2C,'255',(0xFF),+,ACK,,,
0.489879,I2C,r,(0x72),+,ACK,,,
0.490095,I2C,'254',(0xFE),+,ACK,,,
0.49031125,I2C,'226',(0xE2),+,ACK,,,
0.4905275,I2C,'255',(0xFF),+,ACK,,,
0.49074375,I2C,],(0x5D),+,NAK,,,
0.49112225,I2C,Setup,Write,to,['208',(0xD0)],+,ACK
0.49133825,I2C,C,(0x43),+,ACK,,,
0.4915905,I2C,Setup,Read,to,['209',(0xD1)],+,ACK
0.49180675,I2C,'255',(0xFF),+,ACK,,,
0.492023,I2C,q,(0x71),+,ACK,,,
0.49223925,I2C,'254',(0xFE),+,ACK,,,
0.4924555,I2C,'208',(0xD0),+,ACK,,,
0.49267175,I2C,'255',(0xFF),+,ACK,,,
0.492888,I2C,i,(0x69),+,NAK,,,
0.49326625,I2C,Setup,Write,to,['208',(0xD0)],+,ACK
0.4934825,I2C,C,(0x43),+,ACK,,,
0.49373475,I2C,Setup,Read,to,['209',(0xD1)],+,ACK
0.493951,I2C,'255',(0xFF),+,ACK,,,
0.49416725,I2C,l,(0x6C),+,ACK,,,
0.4943835,I2C,'254',(0xFE),+,ACK,,,
0.49459975,I2C,'241',(0xF1),+,ACK,,,
0.494816,I2C,'255',(0xFF),+,ACK,,,
0.49503225,I2C,n,(0x6E),+,NAK,,,
0.49541075,I2C,Setup,Write,to,['208',(0xD0)],+,ACK
0.495627,I2C,C,(0x43),+,ACK,,,
0.49587925,I2C,Setup,Read,to,['209',(0xD1)],+,ACK
0.4960955,I2C,'255',(0xFF),+,ACK,,,
0.49631175,I2C,f,(0x66),+,ACK,,,
0.496528,I2C,'254',(0xFE),+,ACK,,,
0.49674425,I2C,'222',(0xDE),+,ACK,,,
0.4969605,I2C,'255',(0xFF),+,ACK,,,
0.49717675,I2C,k,(0x6B),+,NAK,,,
0.49755525,I2C,Setup,Write,to,['208',(0xD0)],+,ACK
0.4977715,I2C,C,(0x43),+,ACK,,,
0.49802375,I2C,Setup,Read,to,['209',(0xD1)],+,ACK
0.49824,I2C,'255',(0xFF),+,ACK,,,
0.49845625,I2C,u,(0x75),+,ACK,,,
0.4986725,I2C,'254',(0xFE),+,ACK,,,
0.49888875,I2C,'239',(0xEF),+,ACK,,,
0.499105,I2C,'255',(0xFF),+,ACK,,,
0.49932125,I2C,u,(0x75),+,NAK,,,
0.49969975,I2C,Setup,Write,to,['208',(0xD0)],+,ACK
0.49991575,I2C,C,(0x43),+,ACK,,,
0.50016825,I2C,Setup,Read,to,['209',(0xD1)],+,ACK
0.5003845,I2C,'255',(0xFF),+,ACK,,,
0.50060075,I2C,'138',(0x8A),+,ACK,,,
0.500817,I2C,'254',(0xFE),+,ACK,,,
0.50103325,I2C,'231',(0xE7),+,ACK,,,
0.5012495,I2C,'255',(0xFF),+,ACK,,,
0.50146575,I2C,h,(0x68),+,NAK,,,
0.501844,I2C,Setup,Write,to,['208',(0xD0)],+,ACK
0.50206025,I2C,C,(0x43),+,ACK,,,
0.50231275,I2C,Setup,Read,to,['209',(0xD1)],+,ACK
0.502529,I2C,'255',(0xFF),+,ACK,,,
0.50274525,I2C,p,(0x70),+,ACK,,,
0.50296125,I2C,'254',(0xFE),+,ACK,,,
0.50317775,I2C,'227',(0xE3),+,ACK,,,
0.50339375,I2C,'255',(0xFF),+,ACK,,,
0.50361,I2C,r,(0x72),+,NAK,,,
0.5039885,I2C,Setup,Write,to,['208',(0xD0)],+,ACK
0.50420475,I2C,C,(0x43),+,ACK,,,
0.504457,I2C,Setup,Read,to,['209',(0xD1)],+,ACK
0.50467325,I2C,'255',(0xFF),+,ACK,,,
0.5048895,I2C,r,(0x72),+,ACK,,,
0.50510575,I2C,'254',(0xFE),+,ACK,,,
0.505322,I2C,'237',(0xED),+,ACK,,,
0.50553825,I2C,'255',(0xFF),+,ACK,,,
0.50575425,I2C,c,(0x63),+,NAK,,,
0.50613275,I2C,Setup,Write,to,['208',(0xD0)],+,ACK
0.506349,I2C,C,(0x43),+,ACK,,,
0.50660125,I2C,Setup,Read,to,['209',(0xD1)],+,ACK
0.5068175,I2C,'255',(0xFF),+,ACK,,,
0.50703375,I2C,k,(0x6B),+,ACK,,,
0.50724975,I2C,'254',(0xFE),+,ACK,,,
0.50746625,I2C,'233',(0xE9),+,ACK,,,
0.5076825,I2C,'255',(0xFF),+,ACK,,,
0.50789875,I2C,f,(0x66),+,NAK,,,
0.508277,I2C,Setup,Write,to,['208',(0xD0)],+,ACK
0.50849325,I2C,C,(0x43),+,ACK,,,
0.5087455,I2C,Setup,Read,to,['209',(0xD1)],+,ACK
0.50896175,I2C,'255',(0xFF),+,ACK,,,
0.509178,I2C,p,(0x70),+,ACK,,,
0.50939425,I2C,'254',(0xFE),+,ACK,,,
0.5096105,I2C,'248',(0xF8),+,ACK,,,
0.5098265,I2C,'255',(0xFF),+,ACK,,,
0.51004275,I2C,f,(0x66),+,NAK,,,
0.51042125,I2C,Setup,Write,to,['208',(0xD0)],+,ACK
0.5106375,I2C,C,(0x43),+,ACK,,,
0.51088975,I2C,Setup,Read,to,['209',(0xD1)],+,ACK
0.511106,I2C,'255',(0xFF),+,ACK,,,
0.51132225,I2C,e,(0x65),+,ACK,,,
0.51153875,I2C,'254',(0xFE),+,ACK,,,
0.51175475,I2C,'211',(0xD3),+,ACK,,,
0.511971,I2C,'255',(0xFF),+,ACK,,,
0.51218725,I2C,e,(0x65),+,NAK,,,
0.51256575,I2C,Setup,Write,to,['208',(0xD0)],+,ACK
0.512782,I2C,C,(0x43),+,ACK,,,
0.51303425,I2C,Setup,Read,to,['209',(0xD1)],+,ACK
0.5132505,I2C,'255',(0xFF),+,ACK,,,
0.51346675,I2C,f,(0x66),+,ACK,,,
0.513683,I2C,'254',(0xFE),+,ACK,,,
0.51389925,I2C,'228',(0xE4),+,ACK,,,
0.51411525,I2C,'255',(0xFF),+,ACK,,,
0.5143315,I2C,a,(0x61),+,NAK,,,
0.51471,I2C,Setup,Write,to,['208',(0xD0)],+,ACK
0.51492625,I2C,C,(0x43),+,ACK,,,
0.51517875,I2C,Setup,Read,to,['209',(0xD1)],+,ACK
0.515395,I2C,'255',(0xFF),+,ACK,,,
0.51561125,I2C,t,(0x74),+,ACK,,,
0.5158275,I2C,'254',(0xFE),+,ACK,,,
0.5160435,I2C,'224',(0xE0),+,ACK,,,
0.51625975,I2C,'255',(0xFF),+,ACK,,,
0.516476,I2C,G,(0x47),+,NAK,,,
0.5168545,I2C,Setup,Write,to,['208',(0xD0)],+,ACK
0.51707075,I2C,C,(0x43),+,ACK,,,
0.517323,I2C,Setup,Read,to,['209',(0xD1)],+,ACK
0.517539,I2C,'255',(0xFF),+,ACK,,,
0.51775525,I2C,s,(0x73),+,ACK,,,
0.5179715,I2C,'254',(0xFE),+,ACK,,,
0.51818775,I2C,'209',(0xD1),+,ACK,,,
0.518404,I2C,'255',(0xFF),+,ACK,,,
0.51862025,I2C,v,(0x76),+,NAK,,,
0.5189985,I2C,Setup,Write,to,['208',(0xD0)],+,ACK
0.51921475,I2C,C,(0x43),+,ACK,,,
0.51946725,I2C,Setup,Read,to,['209',(0xD1)],+,ACK
0.5196835,I2C,'255',(0xFF),+,ACK,,,
0.51989975,I2C,R,(0x52),+,ACK,,,
0.520116,I2C,'254',(0xFE),+,ACK,,,
0.52033225,I2C,'217',(0xD9),+,ACK,,,
0.5205485,I2C,'255',(0xFF),+,ACK,,,
0.52076475,I2C,^,(0x5E),+,NAK,,,
0.52114325,I2C,Setup,Write,to,['208',(0xD0)],+,ACK
0.5213595,I2C,C,(0x43),+,ACK,,,
0.52161175,I2C,Setup,Read,to,['209',(0xD1)],+,ACK
0.521828,I2C,'255',(0xFF),+,ACK,,,
0.52204425,I2C,v,(0x76),+,ACK,,,
0.5222605,I2C,'254',(0xFE),+,ACK,,,
0.52247675,I2C,'229',(0xE5),+,ACK,,,
0.522693,I2C,'255',(0xFF),+,ACK,,,
0.52290925,I2C,Z,(0x5A),+,NAK,,,
0.52328775,I2C,Setup,Write,to,['208',(0xD0)],+,ACK
0.523504,I2C,C,(0x43),+,ACK,,,
0.5237565,I2C,Setup,Read,to,['209',(0xD1)],+,ACK
0.52397275,I2C,'255',(0xFF),+,ACK,,,
0.524189,I2C,q,(0x71),+,ACK,,,
0.52440525,I2C,'254',(0xFE),+,ACK,,,
0.52462175,I2C,'191',(0xBF),+,ACK,,,
0.52483775,I2C,'255',(0xFF),+,ACK,,,
0.52505425,I2C,t,(0x74),+,NAK,,,
0.5254325,I2C,Setup,Write,to,['208',(0xD0)],+,ACK
0.52564875,I2C,C,(0x43),+,ACK,,,
0.525901,I2C,Setup,Read,to,['209',(0xD1)],+,ACK
0.52611725,I2C,'255',(0xFF),+,ACK,,,
0.5263335,I2C,|,(0x7C),+,ACK,,,
0.52654975,I2C,'254',(0xFE),+,ACK,,,
0.52676575,I2C,'227',(0xE3),+,ACK,,,
0.526982,I2C,'255',(0xFF),+,ACK,,,
0.52719825,I2C,j,(0x6A),+,NAK,,,
0.52757675,I2C,Setup,Write,to,['208',(0xD0)],+,ACK
0.527793,I2C,C,(0x43),+,ACK,,,
0.52804525,I2C,Setup,Read,to,['209',(0xD1)],+,ACK
0.5282615,I2C,'255',(0xFF),+,ACK,,,
0.52847775,I2C,x,(0x78),+,ACK,,,
0.528694,I2C,'254',(0xFE),+,ACK,,,
0.52891025,I2C,'241',(0xF1),+,ACK,,,
0.5291265,I2C,'255',(0xFF),+,ACK,,,
0.52934275,I2C,h,(0x68),+,NAK,,,
0.52972125,I2C,Setup,Write,to,['208',(0xD0)],+,ACK
0.5299375,I2C,C,(0x43),+,ACK,,,
0.53018975,I2C,Setup,Read,to,['209',(0xD1)],+,ACK
0.530406,I2C,'255',(0xFF),+,ACK,,,
0.53062225,I2C,y,(0x79),+,ACK,,,
0.5308385,I2C,'254',(0xFE),+,ACK,,,
0.53105475,I2C,'255',(0xFF),+,ACK,,,
0.531271,I2C,'255',(0xFF),+,ACK,,,
0.53148725,I2C,Z,(0x5A),+,NAK,,,
0.53186575,I2C,Setup,Write,to,['208',(0xD0)],+,ACK
0.532082,I2C,C,(0x43),+,ACK,,,
0.53233425,I2C,Setup,Read,to,['209',(0xD1)],+,ACK
0.53255075,I2C,'255',(0xFF),+,ACK,,,
0.532767,I2C,{,(0x7B),+,ACK,,,
0.53298325,I2C,'254',(0xFE),+,ACK,,,
0.5331995,I2C,'228',(0xE4),+,ACK,,,
0.533416,I2C,'255',(0xFF),+,ACK,,,
0.53363225,I2C,o,(0x6F),+,NAK,,,
0.53401075,I2C,Setup,Write,to,['208',(0xD0)],+,ACK
0.534227,I2C,C,(0x43),+,ACK,,,
0.5344795,I2C,Setup,Read,to,['209',(0xD1)],+,ACK
0.53469575,I2C,'255',(0xFF),+,ACK,,,
0.534912,I2C,i,(0x69),+,ACK,,,
0.5351285,I2C,'254',(0xFE),+,ACK,,,
0.53534475,I2C,'214',(0xD6),+,ACK,,,
0.535561,I2C,'255',(0xFF),+,ACK,,,
0.53577725,I2C,S,(0x53),+,NAK,,,
0.5361555,I2C,Setup,Write,to,['208',(0xD0)],+,ACK
0.53637175,I2C,C,(0x43),+,ACK,,,
0.53662425,I2C,Setup,Read,to,['209',(0xD1)],+,ACK
0.5368405,I2C,'255',(0xFF),+,ACK,,,
0.53705675,I2C,d,(0x64),+,ACK,,,
0.537273,I2C,'255',(0xFF),+,ACK,,,
0.53748925,I2C,'0',(0x00),+,ACK,,,
0.5377055,I2C,'255',(0xFF),+,ACK,,,
0.53792175,I2C,V,(0x56),+,NAK,,,
0.5383,I2C,Setup,Write,to,['208',(0xD0)],+,ACK
0.5385165,I2C,C,(0x43),+,ACK,,,
0.53876875,I2C,Setup,Read,to,['209',(0xD1)],+,ACK
0.538985,I2C,'255',(0xFF),+,ACK,,,
0.53920125,I2C,},(0x7D),+,ACK,,,
0.5394175,I2C,'254',(0xFE),+,ACK,,,
0.539634,I2C,'210',(0xD2),+,ACK,,,
0.53985,I2C,'255',(0xFF),+,ACK,,,
0.54006625,I2C,d,(0x64),+,NAK,,,
0.54044475,I2C,Setup,Write,to,['208',(0xD0)],+,ACK
0.540661,I2C,C,(0x43),+,ACK,,,
0.54091325,I2C,Setup,Read,to,['209',(0xD1)],+,ACK
0.5411295,I2C,'255',(0xFF),+,ACK,,,
0.54134575,I2C,_,(0x5F),+,ACK,,,
0.541562,I2C,'254',(0xFE),+,ACK,,,
0.54177825,I2C,'245',(0xF5),+,ACK,,,
0.5419945,I2C,'255',(0xFF),+,ACK,,,
0.54221075,I2C,`,(0x60),+,NAK,,,
0.54258925,I2C,Setup,Write,to,['208',(0xD0)],+,ACK
0.5428055,I2C,C,(0x43),+,ACK,,,
0.54305775,I2C,Setup,Read,to,['209',(0xD1)],+,ACK
0.543274,I2C,'255',(0xFF),+,ACK,,,
0.54349025,I2C,'136',(0x88),+,ACK,,,
0.54370675,I2C,'254',(0xFE),+,ACK,,,
0.543923,I2C,'249',(0xF9),+,ACK,,,
0.54413925,I2C,'255',(0xFF),+,ACK,,,
0.5443555,I2C,R,(0x52),+,NAK,,,
0.544734,I2C,Setup,Write,to,['208',(0xD0)],+,ACK
0.5449505,I2C,C,(0x43),+,ACK,,,
0.54520275,I2C,Setup,Read,to,['209',(0xD1)],+,ACK
0.545419,I2C,'255',(0xFF),+,ACK,,,
0.54563525,I2C,d,(0x64),+,ACK,,,
0.54585175,I2C,'254',(0xFE),+,ACK,,,
0.546068,I2C,'239',(0xEF),+,ACK,,,
0.54628425,I2C,'255',(0xFF),+,ACK,,,
0.5465005,I2C,[,(0x5B),+,NAK,,,
0.546879,I2C,Setup,Write,to,['208',(0xD0)],+,ACK
0.54709525,I2C,C,(0x43),+,ACK,,,
0.5473475,I2C,Setup,Read,to,['209',(0xD1)],+,ACK
0.54756375,I2C,'255',(0xFF),+,ACK,,,
0.54778,I2C,r,(0x72),+,ACK,,,
0.54799625,I2C,'254',(0xFE),+,ACK,,,
0.5482125,I2C,'234',(0xEA),+,ACK,,,
0.5484285,I2C,'255',(0xFF),+,ACK,,,
0.54864475,I2C,m,(0x6D),+,NAK,,,
0.54902325,I2C,Setup,Write,to,['208',(0xD0)],+,ACK
0.5492395,I2C,C,(0x43),+,ACK,,,
0.54949175,I2C,Setup,Read,to,['209',(0xD1)],+,ACK
0.549708,I2C,'255',(0xFF),+,ACK,,,
0.54992425,I2C,l,(0x6C),+,ACK,,,
0.5501405,I2C,'254',(0xFE),+,ACK,,,
0.55035675,I2C,'230',(0xE6),+,ACK,,,
0.550573,I2C,'255',(0xFF),+,ACK,,,
0.55078925,I2C,'128',(0x80),+,NAK,,,
0.55116775,I2C,Setup,Write,to,['208',(0xD0)],+,ACK
0.551384,I2C,C,(0x43),+,ACK,,,
0.55163625,I2C,Setup,Read,to,['209',(0xD1)],+,ACK
0.5518525,I2C,'255',(0xFF),+,ACK,,,
0.55206875,I2C,'129',(0x81),+,ACK,,,
0.552285,I2C,'254',(0xFE),+,ACK,,,
0.552501,I2C,'242',(0xF2),+,ACK,,,
0.55271725,I2C,'255',(0xFF),+,ACK,,,
0.5529335,I2C,a,(0x61),+,NAK,,,
0.553312,I2C,Setup,Write,to,['208',(0xD0)],+,ACK
0.55352825,I2C,C,(0x43),+,ACK,,,
0.5537805,I2C,Setup,Read,to,['209',(0xD1)],+,ACK
0.55399675,I2C,'255',(0xFF),+,ACK,,,
0.554213,I2C,s,(0x73),+,ACK,,,
0.55442925,I2C,'254',(0xFE),+,ACK,,,
0.5546455,I2C,'191',(0xBF),+,ACK,,,
0.55486175,I2C,'255',(0xFF),+,ACK,,,
0.555078,I2C,c,(0x63),+,NAK,,,
0.5554565,I2C,Setup,Write,to,['208',(0xD0)],+,ACK
0.55567275,I2C,C,(0x43),+,ACK,,,
0.555925,I2C,Setup,Read,to,['209',(0xD1)],+,ACK
0.55614125,I2C,'255',(0xFF),+,ACK,,,
0.5563575,I2C,V,(0x56),+,ACK,,,
0.55657375,I2C,'254',(0xFE),+,ACK,,,
0.55679,I2C,'219',(0xDB),+,ACK,,,
0.55700625,I2C,'255',(0xFF),+,ACK,,,
0.55722275,I2C,_,(0x5F),+,NAK,,,
0.557601,I2C,Setup,Write,to,['208',(0xD0)],+,ACK
0.55781725,I2C,C,(0x43),+,ACK,,,
0.5580695,I2C,Setup,Read,to,['209',(0xD1)],+,ACK
0.55828575,I2C,'255',(0xFF),+,ACK,,,
0.55850225,I2C,n,(0x6E),+,ACK,,,
0.5587185,I2C,'254',(0xFE),+,ACK,,,
0.55893475,I2C,'211',(0xD3),+,ACK,,,
0.559151,I2C,'255',(0xFF),+,ACK,,,
0.55936725,I2C,],(0x5D),+,NAK,,,
0.55974575,I2C,Setup,Write,to,['208',(0xD0)],+,ACK
0.559962,I2C,C,(0x43),+,ACK,,,
0.56021425,I2C,Setup,Read,to,['209',(0xD1)],+,ACK
0.56043075,I2C,'255',(0xFF),+,ACK,,,
0.56064675,I2C,T,(0x54),+,ACK,,,
0.560863,I2C,'254',(0xFE),+,ACK,,,
0.56107925,I2C,'229',(0xE5),+,ACK,,,
0.56129575,I2C,'255',(0xFF),+,ACK,,,
0.561512,I2C,|,(0x7C),+,NAK,,,
0.56189025,I2C,Setup,Write,to,['208',(0xD0)],+,ACK
0.5621065,I2C,C,(0x43),+,ACK,,,
0.562359,I2C,Setup,Read,to,['209',(0xD1)],+,ACK
0.56257525,I2C,'255',(0xFF),+,ACK,,,
0.5627915,I2C,'133',(0x85),+,ACK,,,
0.56300775,I2C,'254',(0xFE),+,ACK,,,
0.563224,I2C,'239',(0xEF),+,ACK,,,
0.5634405,I2C,'255',(0xFF),+,ACK,,,
0.56365675,I2C,m,(0x6D),+,NAK,,,
0.564035,I2C,Setup,Write,to,['208',(0xD0)],+,ACK
0.56425125,I2C,C,(0x43),+,ACK,,,
0.5645035,I2C,Setup,Read,to,['209',(0xD1)],+,ACK
0.56472,I2C,'255',(0xFF),+,ACK,,,
0.56493625,I2C,n,(0x6E),+,ACK,,,
0.56515225,I2C,'254',(0xFE),+,ACK,,,
0.5653685,I2C,'233',(0xE9),+,ACK,,,
0.565585,I2C,'255',(0xFF),+,ACK,,,
0.56580125,I2C,n,(0x6E),+,NAK,,,
0.5661795,I2C,Setup,Write,to,['208',(0xD0)],+,ACK
0.56639575,I2C,C,(0x43),+,ACK,,,
0.566648,I2C,Setup,Read,to,['209',(0xD1)],+,ACK
0.5668645,I2C,'255',(0xFF),+,ACK,,,
0.56708075,I2C,r,(0x72),+,ACK,,,
0.567297,I2C,'254',(0xFE),+,ACK,,,
0.56751325,I2C,'199',(0xC7),+,ACK,,,
0.5677295,I2C,'255',(0xFF),+,ACK,,,
0.56794575,I2C,c,(0x63),+,NAK,,,
0.56832425,I2C,Setup,Write,to,['208',(0xD0)],+,ACK
0.5685405,I2C,C,(0x43),+,ACK,,,
0.56879275,I2C,Setup,Read,to,['209',(0xD1)],+,ACK
0.56900925,I2C,'255',(0xFF),+,ACK,,,
0.5692255,I2C,j,(0x6A),+,ACK,,,
0.56944175,I2C,'255',(0xFF),+,ACK,,,
0.569658,I2C,'5',(0x05),+,ACK,,,
0.56987425,I2C,'255',(0xFF),+,ACK,,,
0.5700905,I2C,`,(0x60),+,NAK,,,
0.57046875,I2C,Setup,Write,to,['208',(0xD0)],+,ACK
0.570685,I2C,C,(0x43),+,ACK,,,
0.5709375,I2C,Setup,Read,to,['209',(0xD1)],+,ACK
0.57115375,I2C,'255',(0xFF),+,ACK,,,
0.57137,I2C,s,(0x73),+,ACK,,,
0.57158625,I2C,'254',(0xFE),+,ACK,,,
0.5718025,I2C,'218',(0xDA),+,ACK,,,
0.57201875,I2C,'255',(0xFF),+,ACK,,,
0.572235,I2C,x,(0x78),+,NAK,,,
0.5726135,I2C,Setup,Write,to,['208',(0xD0)],+,ACK
0.57283,I2C,C,(0x43),+,ACK,,,
0.57308225,I2C,Setup,Read,to,['209',(0xD1)],+,ACK
0.5732985,I2C,'255',(0xFF),+,ACK,,,
0.57351475,I2C,'128',(0x80),+,ACK,,,
0.573731,I2C,'254',(0xFE),+,ACK,,,
0.57394725,I2C,'231',(0xE7),+,ACK,,,
0.5741635,I2C,'255',(0xFF),+,ACK,,,
0.57437975,I2C,n,(0x6E),+,NAK,,,
0.57475825,I2C,Setup,Write,to,['208',(0xD0)],+,ACK
0.5749745,I2C,C,(0x43),+,ACK,,,
0.575227,I2C,Setup,Read,to,['209',(0xD1)],+,ACK
0.57544325,I2C,'255',(0xFF),+,ACK,,,
0.5756595,I2C,i,(0x69),+,ACK,,,
0.57587575,I2C,'254',(0xFE),+,ACK,,,
0.576092,I2C,'218',(0xDA),+,ACK,,,
0.57630825,I2C,'255',(0xFF),+,ACK,,,
0.5765245,I2C,u,(0x75),+,NAK,,,
0.576903,I2C,Setup,Write,to,['208',(0xD0)],+,ACK
0.57711925,I2C,C,(0x43),+,ACK,,,
0.5773715,I2C,Setup,Read,to,['209',(0xD1)],+,ACK
0.57758775,I2C,'255',(0xFF),+,ACK,,,
0.577804,I2C,k,(0x6B),+,ACK,,,
0.5780205,I2C,'254',(0xFE),+,ACK,,,
0.57823675,I2C,'213',(0xD5),+,ACK,,,
0.578453,I2C,'255',(0xFF),+,ACK,,,
0.57866925,I2C,b,(0x62),+,NAK,,,
0.5790475,I2C,Setup,Write,to,['208',(0xD0)],+,ACK
0.579264,I2C,C,(0x43),+,ACK,,,
0.57951625,I2C,Setup,Read,to,['209',(0xD1)],+,ACK
0.57973225,I2C,'255',(0xFF),+,ACK,,,
0.5799485,I2C,S,(0x53),+,ACK,,,
0.58016475,I2C,'254',(0xFE),+,ACK,,,
0.580381,I2C,'226',(0xE2),+,ACK,,,
0.58059725,I2C,'255',(0xFF),+,ACK,,,
0.5808135,I2C,G,(0x47),+,NAK,,,
0.581192,I2C,Setup,Write,to,['208',(0xD0)],+,ACK
0.58140825,I2C,C,(0x43),+,ACK,,,
0.5816605,I2C,Setup,Read,to,['209',(0xD1)],+,ACK
0.58187675,I2C,'255',(0xFF),+,ACK,,,
0.582093,I2C,z,(0x7A),+,ACK,,,
0.5823095,I2C,'254',(0xFE),+,ACK,,,
0.58252575,I2C,'238',(0xEE),+,ACK,,,
0.582742,I2C,'255',(0xFF),+,ACK,,,
0.58295825,I2C,u,(0x75),+,NAK,,,
0.58333675,I2C,Setup,Write,to,['208',(0xD0)],+,ACK
0.58355325,I2C,C,(0x43),+,ACK,,,
0.5838055,I2C,Setup,Read,to,['209',(0xD1)],+,ACK
0.58402175,I2C,'255',(0xFF),+,ACK,,,
0.584238,I2C,f,(0x66),+,ACK,,,
0.58445425,I2C,'254',(0xFE),+,ACK,,,
0.58467075,I2C,'218',(0xDA),+,ACK,,,
0.584887,I2C,'255',(0xFF),+,ACK,,,
0.58510325,I2C,i,(0x69),+,NAK,,,
0.58548175,I2C,Setup,Write,to,['208',(0xD0)],+,ACK
0.585698,I2C,C,(0x43),+,ACK,,,
0.58595025,I2C,Setup,Read,to,['209',(0xD1)],+,ACK
0.5861665,I2C,'255',(0xFF),+,ACK,,,
0.58638275,I2C,c,(0x63),+,ACK,,,
0.586599,I2C,'254',(0xFE),+,ACK,,,
0.58681525,I2C,'241',(0xF1),+,ACK,,,
0.5870315,I2C,'255',(0xFF),+,ACK,,,
0.58724775,I2C,m,(0x6D),+,NAK,,,
0.58762625,I2C,Setup,Write,to,['208',(0xD0)],+,ACK
0.5878425,I2C,C,(0x43),+,ACK,,,
0.58809475,I2C,Setup,Read,to,['209',(0xD1)],+,ACK
0.588311,I2C,'255',(0xFF),+,ACK,,,
0.5885275,I2C,W,(0x57),+,ACK,,,
0.58874375,I2C,'254',(0xFE),+,ACK,,,
0.58895975,I2C,'235',(0xEB),+,ACK,,,
0.589176,I2C,'255',(0xFF),+,ACK,,,
0.5893925,I2C,d,(0x64),+,NAK,,,
0.58977075,I2C,Setup,Write,to,['208',(0xD0)],+,ACK
0.589987,I2C,C,(0x43),+,ACK,,,
0.59023925,I2C,Setup,Read,to,['209',(0xD1)],+,ACK
0.5904555,I2C,'255',(0xFF),+,ACK,,,
0.59067175,I2C,b,(0x62),+,ACK,,,
0.590888,I2C,'254',(0xFE),+,ACK,,,
0.59110425,I2C,'206',(0xCE),+,ACK,,,
0.5913205,I2C,'255',(0xFF),+,ACK,,,
0.59153675,I2C,K,(0x4B),+,NAK,,,
0.59191525,I2C,Setup,Write,to,['208',(0xD0)],+,ACK
0.59213125,I2C,C,(0x43),+,ACK,,,
0.59238375,I2C,Setup,Read,to,['209',(0xD1)],+,ACK
0.5926,I2C,'255',(0xFF),+,ACK,,,
0.59281625,I2C,v,(0x76),+,ACK,,,
0.59303225,I2C,'254',(0xFE),+,ACK,,,
0.5932485,I2C,'220',(0xDC),+,ACK,,,
0.59346475,I2C,'255',(0xFF),+,ACK,,,
0.593681,I2C,h,(0x68),+,NAK,,,
0.5940595,I2C,Setup,Write,to,['208',(0xD0)],+,ACK
0.59427575,I2C,C,(0x43),+,ACK,,,
0.594528,I2C,Setup,Read,to,['209',(0xD1)],+,ACK
0.59474425,I2C,'255',(0xFF),+,ACK,,,
0.5949605,I2C,d,(0x64),+,ACK,,,
0.5951765,I2C,'254',(0xFE),+,ACK,,,
0.59539275,I2C,'242',(0xF2),+,ACK,,,
0.595609,I2C,'255',(0xFF),+,ACK,,,
0.59582525,I2C,l,(0x6C),+,NAK,,,
0.5962035,I2C,Setup,Write,to,['208',(0xD0)],+,ACK
0.59641975,I2C,C,(0x43),+,ACK,,,
0.596672,I2C,Setup,Read,to,['209',(0xD1)],+,ACK
0.59688825,I2C,'255',(0xFF),+,ACK,,,
0.5971045,I2C,x,(0x78),+,ACK,,,
0.59732075,I2C,'255',(0xFF),+,ACK,,,
0.59753675,I2C,'21',(0x15),+,ACK,,,
0.59775325,I2C,'255',(0xFF),+,ACK,,,
0.5979695,I2C,[,(0x5B),+,NAK,,,
0.598348,I2C,Setup,Write,to,['208',(0xD0)],+,ACK
0.59856425,I2C,C,(0x43),+,ACK,,,
0.5988165,I2C,Setup,Read,to,['209',(0xD1)],+,ACK
0.599033,I2C,'255',(0xFF),+,ACK,,,
0.59924925,I2C,'162',(0xA2),+,ACK,,,
0.59946525,I2C,'254',(0xFE),+,ACK,,,
0.5996815,I2C,'228',(0xE4),+,ACK,,,
0.599898,I2C,'255',(0xFF),+,ACK,,,
0.600114,I2C,],(0x5D),+,NAK,,,
0.6004925,I2C,Setup,Write,to,['208',(0xD0)],+,ACK
0.60070875,I2C,C,(0x43),+,ACK,,,
0.60096125,I2C,Setup,Read,to,['209',(0xD1)],+,ACK
0.6011775,I2C,'255',(0xFF),+,ACK,,,
0.60139375,I2C,v,(0x76),+,ACK,,,
0.60160975,I2C,'254',(0xFE),+,ACK,,,
0.601826,I2C,'237',(0xED),+,ACK,,,
0.6020425,I2C,'255',(0xFF),+,ACK,,,
0.6022585,I2C,|,(0x7C),+,NAK,,,
0.602637,I2C,Setup,Write,to,['208',(0xD0)],+,ACK
0.60285325,I2C,C,(0x43),+,ACK,,,
0.6031055,I2C,Setup,Read,to,['209',(0xD1)],+,ACK
0.60332175,I2C,'255',(0xFF),+,ACK,,,
0.603538,I2C,z,(0x7A),+,ACK,,,
0.60375425,I2C,'254',(0xFE),+,ACK,,,
0.6039705,I2C,'226',(0xE2),+,ACK,,,
0.60418675,I2C,'255',(0xFF),+,ACK,,,
0.60440275,I2C,n,(0x6E),+,NAK,,,
0.60478125,I2C,Setup,Write,to,['208',(0xD0)],+,ACK
0.6049975,I2C,C,(0x43),+,ACK,,,
0.60524975,I2C,Setup,Read,to,['209',(0xD1)],+,ACK
0.605466,I2C,'255',(0xFF),+,ACK,,,
0.60568225,I2C,},(0x7D),+,ACK,,,
0.6058985,I2C,'254',(0xFE),+,ACK,,,
0.60611475,I2C,'224',(0xE0),+,ACK,,,
0.606331,I2C,'255',(0xFF),+,ACK,,,
0.606547,I2C,n,(0x6E),+,NAK,,,
0.6069255,I2C,Setup,Write,to,['208',(0xD0)],+,ACK
0.60714175,I2C,C,(0x43),+,ACK,,,
0.607394,I2C,Setup,Read,to,['209',(0xD1)],+,ACK
0.60761025,I2C,'255',(0xFF),+,ACK,,,
0.6078265,I2C,'137',(0x89),+,ACK,,,
0.60804275,I2C,'255',(0xFF),+,ACK,,,
0.608259,I2C,'3',(0x03),+,ACK,,,
0.60847525,I2C,'255',(0xFF),+,ACK,,,
0.6086915,I2C,r,(0x72),+,NAK,,,
0.60906975,I2C,Setup,Write,to,['208',(0xD0)],+,ACK
0.609286,I2C,C,(0x43),+,ACK,,,
0.60953825,I2C,Setup,Read,to,['209',(0xD1)],+,ACK
0.6097545,I2C,'255',(0xFF),+,ACK,,,
0.60997075,I2C,z,(0x7A),+,ACK,,,
0.61018675,I2C,'254',(0xFE),+,ACK,,,
0.61040325,I2C,'201',(0xC9),+,ACK,,,
0.61061925,I2C,'255',(0xFF),+,ACK,,,
0.6108355,I2C,y,(0x79),+,NAK,,,
0.611214,I2C,Setup,Write,to,['208',(0xD0)],+,ACK
0.61143025,I2C,C,(0x43),+,ACK,,,
0.6116825,I2C,Setup,Read,to,['209',(0xD1)],+,ACK
0.61189875,I2C,'255',(0xFF),+,ACK,,,
0.612115,I2C,c,(0x63),+,ACK,,,
0.61233125,I2C,'254',(0xFE),+,ACK,,,
0.6125475,I2C,'227',(0xE3),+,ACK,,,
0.61276375,I2C,'255',(0xFF),+,ACK,,,
0.61298,I2C,V,(0x56),+,NAK,,,
0.6133585,I2C,Setup,Write,to,['208',(0xD0)],+,ACK
0.61357475,I2C,C,(0x43),+,ACK,,,
0.61382725,I2C,Setup,Read,to,['209',(0xD1)],+,ACK
0.6140435,I2C,'255',(0xFF),+,ACK,,,
0.61425975,I2C,z,(0x7A),+,ACK,,,
0.614476,I2C,'254',(0xFE),+,ACK,,,
0.61469225,I2C,'216',(0xD8),+,ACK,,,
0.6149085,I2C,'255',(0xFF),+,ACK,,,
0.61512475,I2C,j,(0x6A),+,NAK,,,
0.6155035,I2C,Setup,Write,to,['208',(0xD0)],+,ACK
0.61571975,I2C,C,(0x43),+,ACK,,,
0.615972,I2C,Setup,Read,to,['209',(0xD1)],+,ACK
0.61618825,I2C,'255',(0xFF),+,ACK,,,
0.6164045,I2C,},(0x7D),+,ACK,,,
0.61662075,I2C,'254',(0xFE),+,ACK,,,
0.616837,I2C,'241',(0xF1),+,ACK,,,
0.61705325,I2C,'255',(0xFF),+,ACK,,,
0.6172695,I2C,e,(0x65),+,NAK,,,
0.617648,I2C,Setup,Write,to,['208',(0xD0)],+,ACK
0.61786425,I2C,C,(0x43),+,ACK,,,
0.6181165,I2C,Setup,Read,to,['209',(0xD1)],+,ACK
0.61833275,I2C,'255',(0xFF),+,ACK,,,
0.618549,I2C,r,(0x72),+,ACK,,,
0.61876525,I2C,'255',(0xFF),+,ACK,,,
0.6189815,I2C,'19',(0x13),+,ACK,,,
0.61919775,I2C,'255',(0xFF),+,ACK,,,
0.619414,I2C,[,(0x5B),+,NAK,,,
0.6197925,I2C,Setup,Write,to,['208',(0xD0)],+,ACK
0.62000875,I2C,C,(0x43),+,ACK,,,
0.620261,I2C,Setup,Read,to,['209',(0xD1)],+,ACK
0.62047725,I2C,'255',(0xFF),+,ACK,,,
0.6206935,I2C,b,(0x62),+,ACK,,,
0.62090975,I2C,'254',(0xFE),+,ACK,,,
0.621126,I2C,'249',(0xF9),+,ACK,,,
0.62134225,I2C,'255',(0xFF),+,ACK,,,
0.6215585,I2C,b,(0x62),+,NAK,,,
0.621937,I2C,Setup,Write,to,['208',(0xD0)],+,ACK
0.622153,I2C,C,(0x43),+,ACK,,,
0.62240525,I2C,Setup,Read,to,['209',(0xD1)],+,ACK
0.6226215,I2C,'255',(0xFF),+,ACK,,,
0.622838,I2C,x,(0x78),+,ACK,,,
0.62305425,I2C,'254',(0xFE),+,ACK,,,
0.62327025,I2C,'225',(0xE1),+,ACK,,,
0.6234865,I2C,'255',(0xFF),+,ACK,,,
0.623703,I2C,f,(0x66),+,NAK,,,
0.62408125,I2C,Setup,Write,to,['208',(0xD0)],+,ACK
0.6242975,I2C,C,(0x43),+,ACK,,,
0.62454975,I2C,Setup,Read,to,['209',(0xD1)],+,ACK
0.624766,I2C,'255',(0xFF),+,ACK,,,
0.62498225,I2C,'131',(0x83),+,ACK,,,
0.6251985,I2C,'254',(0xFE),+,ACK,,,
0.6254145,I2C,'239',(0xEF),+,ACK,,,
0.62563075,I2C,'255',(0xFF),+,ACK,,,
0.625847,I2C,t,(0x74),+,NAK,,,
0.6262255,I2C,Setup,Write,to,['208',(0xD0)],+,ACK
0.62644175,I2C,C,(0x43),+,ACK,,,
0.626694,I2C,Setup,Read,to,['209',(0xD1)],+,ACK
0.62691025,I2C,'255',(0xFF),+,ACK,,,
0.6271265,I2C,e,(0x65),+,ACK,,,
0.62734275,I2C,'254',(0xFE),+,ACK,,,
0.627559,I2C,'211',(0xD3),+,ACK,,,
0.62777525,I2C,'255',(0xFF),+,ACK,,,
0.6279915,I2C,k,(0x6B),+,NAK,,,
0.62837,I2C,Setup,Write,to,['208',(0xD0)],+,ACK
0.62858625,I2C,C,(0x43),+,ACK,,,
0.6288385,I2C,Setup,Read,to,['209',(0xD1)],+,ACK
0.62905475,I2C,'255',(0xFF),+,ACK,,,
0.62927125,I2C,v,(0x76),+,ACK,,,
0.6294875,I2C,'254',(0xFE),+,ACK,,,
0.62970375,I2C,'228',(0xE4),+,ACK,,,
0.62992,I2C,'255',(0xFF),+,ACK,,,
0.63013625,I2C,d,(0x64),+,NAK,,,
0.6305145,I2C,Setup,Write,to,['208',(0xD0)],+,ACK
0.63073075,I2C,C,(0x43),+,ACK,,,
0.63098325,I2C,Setup,Read,to,['209',(0xD1)],+,ACK
0.6311995,I2C,'255',(0xFF),+,ACK,,,
0.63141575,I2C,a,(0x61),+,ACK,,,
0.63163225,I2C,'254',(0xFE),+,ACK,,,
0.6318485,I2C,'244',(0xF4),+,ACK,,,
0.63206475,I2C,'255',(0xFF),+,ACK,,,
0.632281,I2C,i,(0x69),+,NAK,,,
0.6326595,I2C,Setup,Write,to,['208',(0xD0)],+,ACK
0.63287575,I2C,C,(0x43),+,ACK,,,
0.633128,I2C,Setup,Read,to,['209',(0xD1)],+,ACK
0.63334425,I2C,'255',(0xFF),+,ACK,,,
0.6335605,I2C,'127',(0x7F),+,ACK,,,
0.63377675,I2C,'254',(0xFE),+,ACK,,,
0.633993,I2C,'213',(0xD5),+,ACK,,,
0.63420925,I2C,'255',(0xFF),+,ACK,,,
0.6344255,I2C,k,(0x6B),+,NAK,,,
0.634804,I2C,Setup,Write,to,['208',(0xD0)],+,ACK
0.63502025,I2C,C,(0x43),+,ACK,,,
0.6352725,I2C,Setup,Read,to,['209',(0xD1)],+,ACK
0.63548875,I2C,'255',(0xFF),+,ACK,,,
0.635705,I2C,\,(0x5C),+,ACK,,,
0.63592125,I2C,'254',(0xFE),+,ACK,,,
0.6361375,I2C,'245',(0xF5),+,ACK,,,
0.63635375,I2C,'255',(0xFF),+,ACK,,,
0.63657,I2C,\,(0x5C),+,NAK,,,
0.63694825,I2C,Setup,Write,to,['208',(0xD0)],+,ACK
0.6371645,I2C,C,(0x43),+,ACK,,,
0.637417,I2C,Setup,Read,to,['209',(0xD1)],+,ACK
0.63763325,I2C,'255',(0xFF),+,ACK,,,
0.6378495,I2C,'138',(0x8A),+,ACK,,,
0.63806575,I2C,'255',(0xFF),+,ACK,,,
0.638282,I2C,'6',(0x06),+,ACK,,,
0.6384985,I2C,'255',(0xFF),+,ACK,,,
0.63871475,I2C,f,(0x66),+,NAK,,,
0.63909325,I2C,Setup,Write,to,['208',(0xD0)],+,ACK
0.6393095,I2C,C,(0x43),+,ACK,,,
0.63956175,I2C,Setup,Read,to,['209',(0xD1)],+,ACK
0.639778,I2C,'255',(0xFF),+,ACK,,,
0.63999425,I2C,j,(0x6A),+,ACK,,,
0.6402105,I2C,'254',(0xFE),+,ACK,,,
0.64042675,I2C,'235',(0xEB),+,ACK,,,
0.640643,I2C,'255',(0xFF),+,ACK,,,
0.64085925,I2C,d,(0x64),+,NAK,,,
0.64123775,I2C,Setup,Write,to,['208',(0xD0)],+,ACK
0.641454,I2C,C,(0x43),+,ACK,,,
0.64170625,I2C,Setup,Read,to,['209',(0xD1)],+,ACK
0.6419225,I2C,'255',(0xFF),+,ACK,,,
0.64213875,I2C,`,(0x60),+,ACK,,,
0.642355,I2C,'254',(0xFE),+,ACK,,,
0.64257125,I2C,'229',(0xE5),+,ACK,,,
0.64278775,I2C,'255',(0xFF),+,ACK,,,
0.643004,I2C,l,(0x6C),+,NAK,,,
0.64338225,I2C,Setup,Write,to,['208',(0xD0)],+,ACK
0.64359875,I2C,C,(0x43),+,ACK,,,
0.643851,I2C,Setup,Read,to,['209',(0xD1)],+,ACK
0.64406725,I2C,'255',(0xFF),+,ACK,,,
0.6442835,I2C,i,(0x69),+,ACK,,,
0.64449975,I2C,'254',(0xFE),+,ACK,,,
0.644716,I2C,'182',(0xB6),+,ACK,,,
0.64493225,I2C,'255',(0xFF),+,ACK,,,
0.6451485,I2C,T,(0x54),+,NAK,,,
0.645527,I2C,Setup,Write,to,['208',(0xD0)],+,ACK
0.64574325,I2C,C,(0x43),+,ACK,,,
0.6459955,I2C,Setup,Read,to,['209',(0xD1)],+,ACK
0.646212,I2C,'255',(0xFF),+,ACK,,,
0.646428,I2C,'127',(0x7F),+,ACK,,,
0.6466445,I2C,'254',(0xFE),+,ACK,,,
0.64686075,I2C,'221',(0xDD),+,ACK,,,
0.647077,I2C,'255',(0xFF),+,ACK,,,
0.64729325,I2C,Y,(0x59),+,NAK,,,
0.64767175,I2C,Setup,Write,to,['208',(0xD0)],+,ACK
0.647888,I2C,C,(0x43),+,ACK,,,
0.64814025,I2C,Setup,Read,to,['209',(0xD1)],+,ACK
0.6483565,I2C,'255',(0xFF),+,ACK,,,
0.64857275,I2C,'127',(0x7F),+,ACK,,,
0.648789,I2C,'254',(0xFE),+,ACK,,,
0.64900525,I2C,'238',(0xEE),+,ACK,,,
0.6492215,I2C,'255',(0xFF),+,ACK,,,
0.64943775,I2C,t,(0x74),+,NAK,,,
0.64981625,I2C,Setup,Write,to,['208',(0xD0)],+,ACK
0.6500325,I2C,C,(0x43),+,ACK,,,
0.65028475,I2C,Setup,Read,to,['209',(0xD1)],+,ACK
0.650501,I2C,'255',(0xFF),+,ACK,,,
0.65071725,I2C,'147',(0x93),+,ACK,,,
0.6509335,I2C,'254',(0xFE),+,ACK,,,
0.65114975,I2C,'245',(0xF5),+,ACK,,,
0.651366,I2C,'255',(0xFF),+,ACK,,,
0.65158225,I2C,h,(0x68),+,NAK,,,
0.65196075,I2C,Setup,Write,to,['208',(0xD0)],+,ACK
0.652177,I2C,C,(0x43),+,ACK,,,
0.6524295,I2C,Setup,Read,to,['209',(0xD1)],+,ACK
0.65264575,I2C,'255',(0xFF),+,ACK,,,
0.652862,I2C,'128',(0x80),+,ACK,,,
0.65307825,I2C,'254',(0xFE),+,ACK,,,
0.65329475,I2C,'237',(0xED),+,ACK,,,
0.653511,I2C,'255',(0xFF),+,ACK,,,
0.65372725,I2C,],(0x5D),+,NAK,,,
0.65410575,I2C,Setup,Write,to,['208',(0xD0)],+,ACK
0.654322,I2C,C,(0x43),+,ACK,,,
0.6545745,I2C,Setup,Read,to,['209',(0xD1)],+,ACK
0.65479075,I2C,'255',(0xFF),+,ACK,,,
0.655007,I2C,s,(0x73),+,ACK,,,
0.65522325,I2C,'254',(0xFE),+,ACK,,,
0.6554395,I2C,'200',(0xC8),+,ACK,,,
0.65565575,I2C,'255',(0xFF),+,ACK,,,
0.65587225,I2C,r,(0x72),+,NAK,,,
0.6562505,I2C,Setup,Write,to,['208',(0xD0)],+,ACK
0.65646675,I2C,C,(0x43),+,ACK,,,
0.65671925,I2C,Setup,Read,to,['209',(0xD1)],+,ACK
0.6569355,I2C,'255',(0xFF),+,ACK,,,
0.65715175,I2C,\,(0x5C),+,ACK,,,
0.657368,I2C,'254',(0xFE),+,ACK,,,
0.65758425,I2C,'200',(0xC8),+,ACK,,,
0.6578005,I2C,'255',(0xFF),+,ACK,,,
0.65801675,I2C,\,(0x5C),+,NAK,,,
0.65839525,I2C,Setup,Write,to,['208',(0xD0)],+,ACK
0.6586115,I2C,C,(0x43),+,ACK,,,
0.65886375,I2C,Setup,Read,to,['209',(0xD1)],+,ACK
0.65908,I2C,'255',(0xFF),+,ACK,,,
0.6592965,I2C,^,(0x5E),+,ACK,,,
0.65951275,I2C,'254',(0xFE),+,ACK,,,
0.659729,I2C,'242',(0xF2),+,ACK,,,
0.65994525,I2C,'255',(0xFF),+,ACK,,,
0.6601615,I2C,~,(0x7E),+,NAK,,,
0.66054,I2C,Setup,Write,to,['208',(0xD0)],+,ACK
0.66075625,I2C,C,(0x43),+,ACK,,,
0.6610085,I2C,Setup,Read,to,['209',(0xD1)],+,ACK
0.66122475,I2C,'255',(0xFF),+,ACK,,,
0.661441,I2C,j,(0x6A),+,ACK,,,
0.66165725,I2C,'254',(0xFE),+,ACK,,,
0.6618735,I2C,'242',(0xF2),+,ACK,,,
0.66208975,I2C,'255',(0xFF),+,ACK,,,
0.662306,I2C,v,(0x76),+,NAK,,,
0.6626845,I2C,Setup,Write,to,['208',(0xD0)],+,ACK
0.66290075,I2C,C,(0x43),+,ACK,,,
0.663153,I2C,Setup,Read,to,['209',(0xD1)],+,ACK
0.66336925,I2C,'255',(0xFF),+,ACK,,,
0.6635855,I2C,l,(0x6C),+,ACK,,,
0.663802,I2C,'254',(0xFE),+,ACK,,,
0.66401825,I2C,'221',(0xDD),+,ACK,,,
0.6642345,I2C,'255',(0xFF),+,ACK,,,
0.66445075,I2C,d,(0x64),+,NAK,,,
0.66482925,I2C,Setup,Write,to,['208',(0xD0)],+,ACK
0.6650455,I2C,C,(0x43),+,ACK,,,
0.66529775,I2C,Setup,Read,to,['209',(0xD1)],+,ACK
0.665514,I2C,'255',(0xFF),+,ACK,,,
0.66573025,I2C,^,(0x5E),+,ACK,,,
0.6659465,I2C,'254',(0xFE),+,ACK,,,
0.66616275,I2C,'222',(0xDE),+,ACK,,,
0.666379,I2C,'255',(0xFF),+,ACK,,,
0.66659525,I2C,d,(0x64),+,NAK,,,
0.6669735,I2C,Setup,Write,to,['208',(0xD0)],+,ACK
0.66718975,I2C,C,(0x43),+,ACK,,,
0.667442,I2C,Setup,Read,to,['209',(0xD1)],+,ACK
0.6676585,I2C,'255',(0xFF),+,ACK,,,
0.6678745,I2C,'135',(0x87),+,ACK,,,
0.66809075,I2C,'254',(0xFE),+,ACK,,,
0.668307,I2C,'231',(0xE7),+,ACK,,,
0.6685235,I2C,'255',(0xFF),+,ACK,,,
0.66873975,I2C,Y,(0x59),+,NAK,,,
0.66911825,I2C,Setup,Write,to,['208',(0xD0)],+,ACK
0.6693345,I2C,C,(0x43),+,ACK,,,
0.66958675,I2C,Setup,Read,to,['209',(0xD1)],+,ACK
0.669803,I2C,'255',(0xFF),+,ACK,,,
0.67001925,I2C,x,(0x78),+,ACK,,,
0.6702355,I2C,'254',(0xFE),+,ACK,,,
0.670452,I2C,'226',(0xE2),+,ACK,,,
0.67066825,I2C,'255',(0xFF),+,ACK,,,
0.6708845,I2C,],(0x5D),+,NAK,,,
0.671263,I2C,Setup,Write,to,['208',(0xD0)],+,ACK
0.67147925,I2C,C,(0x43),+,ACK,,,
0.67173175,I2C,Setup,Read,to,['209',(0xD1)],+,ACK
0.671948,I2C,'255',(0xFF),+,ACK,,,
0.67216425,I2C,{,(0x7B),+,ACK,,,
0.6723805,I2C,'254',(0xFE),+,ACK,,,
0.67259675,I2C,'228',(0xE4),+,ACK,,,
0.672813,I2C,'255',(0xFF),+,ACK,,,
0.67302925,I2C,n,(0x6E),+,NAK,,,
0.6734075,I2C,Setup,Write,to,['208',(0xD0)],+,ACK
0.67362375,I2C,C,(0x43),+,ACK,,,
0.67387625,I2C,Setup,Read,to,['209',(0xD1)],+,ACK
0.6740925,I2C,'255',(0xFF),+,ACK,,,
0.67430875,I2C,'140',(0x8C),+,ACK,,,
0.674525,I2C,'254',(0xFE),+,ACK,,,
0.6747415,I2C,'234',(0xEA),+,ACK,,,
0.67495775,I2C,'255',(0xFF),+,ACK,,,
0.675174,I2C,c,(0x63),+,NAK,,,
0.6755525,I2C,Setup,Write,to,['208',(0xD0)],+,ACK
0.675769,I2C,C,(0x43),+,ACK,,,
0.67602125,I2C,Setup,Read,to,['209',(0xD1)],+,ACK
0.6762375,I2C,'255',(0xFF),+,ACK,,,
0.67645375,I2C,r,(0x72),+,ACK,,,
0.67667,I2C,'254',(0xFE),+,ACK,,,
0.6768865,I2C,'228',(0xE4),+,ACK,,,
0.67710275,I2C,'255',(0xFF),+,ACK,,,
0.677319,I2C,e,(0x65),+,NAK,,,
0.67769725,I2C,Setup,Write,to,['208',(0xD0)],+,ACK
0.67791375,I2C,C,(0x43),+,ACK,,,
0.678166,I2C,Setup,Read,to,['209',(0xD1)],+,ACK
0.67838225,I2C,'255',(0xFF),+,ACK,,,
0.6785985,I2C,'132',(0x84),+,ACK,,,
0.67881475,I2C,'254',(0xFE),+,ACK,,,
0.67903125,I2C,'243',(0xF3),+,ACK,,,
0.6792475,I2C,'255',(0xFF),+,ACK,,,
0.67946375,I2C,m,(0x6D),+,NAK,,,
0.67984225,I2C,Setup,Write,to,['208',(0xD0)],+,ACK
0.6800585,I2C,C,(0x43),+,ACK,,,
0.680311,I2C,Setup,Read,to,['209',(0xD1)],+,ACK
0.68052725,I2C,'255',(0xFF),+,ACK,,,
0.6807435,I2C,a,(0x61),+,ACK,,,
0.68096,I2C,'254',(0xFE),+,ACK,,,
0.68117625,I2C,'197',(0xC5),+,ACK,,,
0.6813925,I2C,'255',(0xFF),+,ACK,,,
0.68160875,I2C,f,(0x66),+,NAK,,,
0.68198725,I2C,Setup,Write,to,['208',(0xD0)],+,ACK
0.6822035,I2C,C,(0x43),+,ACK,,,
0.68245575,I2C,Setup,Read,to,['209',(0xD1)],+,ACK
0.682672,I2C,'255',(0xFF),+,ACK,,,
0.68288825,I2C,'149',(0x95),+,ACK,,,
0.6831045,I2C,'254',(0xFE),+,ACK,,,
0.68332075,I2C,'239',(0xEF),+,ACK,,,
0.683537,I2C,'255',(0xFF),+,ACK,,,
0.68375325,I2C,o,(0x6F),+,NAK,,,
0.68413175,I2C,Setup,Write,to,['208',(0xD0)],+,ACK
0.68434775,I2C,C,(0x43),+,ACK,,,
0.6846,I2C,Setup,Read,to,['209',(0xD1)],+,ACK
0.68481625,I2C,'255',(0xFF),+,ACK,,,
0.6850325,I2C,z,(0x7A),+,ACK,,,
0.685249,I2C,'254',(0xFE),+,ACK,,,
0.68546525,I2C,'230',(0xE6),+,ACK,,,
0.68568125,I2C,'255',(0xFF),+,ACK,,,
0.6858975,I2C,e,(0x65),+,NAK,,,
0.686276,I2C,Setup,Write,to,['208',(0xD0)],+,ACK
0.68649225,I2C,C,(0x43),+,ACK,,,
0.68674475,I2C,Setup,Read,to,['209',(0xD1)],+,ACK
0.686961,I2C,'255',(0xFF),+,ACK,,,
0.68717725,I2C,[,(0x5B),+,ACK,,,
0.6873935,I2C,'255',(0xFF),+,ACK,,,
0.68760975,I2C,'11',(0x0B),+,ACK,,,
0.687826,I2C,'255',(0xFF),+,ACK,,,
0.688042,I2C,e,(0x65),+,NAK,,,
0.6884205,I2C,Setup,Write,to,['208',(0xD0)],+,ACK
0.68863675,I2C,C,(0x43),+,ACK,,,
0.688889,I2C,Setup,Read,to,['209',(0xD1)],+,ACK
0.68910525,I2C,'255',(0xFF),+,ACK,,,
0.6893215,I2C,'131',(0x83),+,ACK,,,
0.68953775,I2C,'254',(0xFE),+,ACK,,,
0.689754,I2C,'246',(0xF6),+,ACK,,,
0.68997025,I2C,'255',(0xFF),+,ACK,,,
0.6901865,I2C,X,(0x58),+,NAK,,,
0.690565,I2C,Setup,Write,to,['208',(0xD0)],+,ACK
0.69078125,I2C,C,(0x43),+,ACK,,,
0.6910335,I2C,Setup,Read,to,['209',(0xD1)],+,ACK
0.69124975,I2C,'255',(0xFF),+,ACK,,,
0.691466,I2C,x,(0x78),+,ACK,,,
0.69168225,I2C,'254',(0xFE),+,ACK,,,
0.6918985,I2C,'232',(0xE8),+,ACK,,,
0.69211475,I2C,'255',(0xFF),+,ACK,,,
0.692331,I2C,`,(0x60),+,NAK,,,
0.6927095,I2C,Setup,Write,to,['208',(0xD0)],+,ACK
0.69292575,I2C,C,(0x43),+,ACK,,,
0.693178,I2C,Setup,Read,to,['209',(0xD1)],+,ACK
0.69339425,I2C,'255',(0xFF),+,ACK,,,
0.6936105,I2C,y,(0x79),+,ACK,,,
0.69382675,I2C,'254',(0xFE),+,ACK,,,
0.694043,I2C,'218',(0xDA),+,ACK,,,
0.69425925,I2C,'255',(0xFF),+,ACK,,,
0.69447575,I2C,q,(0x71),+,NAK,,,
0.69485425,I2C,Setup,Write,to,['208',(0xD0)],+,ACK
0.6950705,I2C,C,(0x43),+,ACK,,,
0.69532275,I2C,Setup,Read,to,['209',(0xD1)],+,ACK
0.695539,I2C,'255',(0xFF),+,ACK,,,
0.69575525,I2C,'132',(0x84),+,ACK,,,
0.6959715,I2C,'254',(0xFE),+,ACK,,,
0.69618775,I2C,'224',(0xE0),+,ACK,,,
0.696404,I2C,'255',(0xFF),+,ACK,,,
0.69662025,I2C,R,(0x52),+,NAK,,,
0.69699875,I2C,Setup,Write,to,['208',(0xD0)],+,ACK
0.697215,I2C,C,(0x43),+,ACK,,,
0.69746725,I2C,Setup,Read,to,['209',(0xD1)],+,ACK
0.6976835,I2C,'255',(0xFF),+,ACK,,,
0.69789975,I2C,y,(0x79),+,ACK,,,
0.698116,I2C,'254',(0xFE),+,ACK,,,
0.69833225,I2C,'243',(0xF3),+,ACK,,,
0.6985485,I2C,'255',(0xFF),+,ACK,,,
0.69876475,I2C,[,(0x5B),+,NAK,,,
0.69914325,I2C,Setup,Write,to,['208',(0xD0)],+,ACK
0.6993595,I2C,C,(0x43),+,ACK,,,
0.69961175,I2C,Setup,Read,to,['209',(0xD1)],+,ACK
0.699828,I2C,'255',(0xFF),+,ACK,,,
0.7000445,I2C,'142',(0x8E),+,ACK,,,
0.70026075,I2C,'254',(0xFE),+,ACK,,,
0.700477,I2C,'241',(0xF1),+,ACK,,,
0.70069325,I2C,'255',(0xFF),+,ACK,,,
0.7009095,I2C,k,(0x6B),+,NAK,,,
0.701288,I2C,Setup,Write,to,['208',(0xD0)],+,ACK
0.7015045,I2C,C,(0x43),+,ACK,,,
0.70175675,I2C,Setup,Read,to,['209',(0xD1)],+,ACK
0.70197325,I2C,'255',(0xFF),+,ACK,,,
0.70218925,I2C,X,(0x58),+,ACK,,,
0.7024055,I2C,'255',(0xFF),+,ACK,,,
0.70262175,I2C,'1',(0x01),+,ACK,,,
0.702838,I2C,'255',(0xFF),+,ACK,,,
0.70305425,I2C,V,(0x56),+,NAK,,,
0.70343275,I2C,Setup,Write,to,['208',(0xD0)],+,ACK
0.703649,I2C,C,(0x43),+,ACK,,,
0.70390125,I2C,Setup,Read,to,['209',(0xD1)],+,ACK
0.70411775,I2C,'255',(0xFF),+,ACK,,,
0.704334,I2C,},(0x7D),+,ACK,,,
0.70455025,I2C,'254',(0xFE),+,ACK,,,
0.70476625,I2C,'251',(0xFB),+,ACK,,,
0.70498275,I2C,'255',(0xFF),+,ACK,,,
0.705199,I2C,j,(0x6A),+,NAK,,,
0.70557725,I2C,Setup,Write,to,['208',(0xD0)],+,ACK
0.7057935,I2C,C,(0x43),+,ACK,,,
0.706046,I2C,Setup,Read,to,['209',(0xD1)],+,ACK
0.70626225,I2C,'255',(0xFF),+,ACK,,,
0.7064785,I2C,'141',(0x8D),+,ACK,,,
0.7066945,I2C,'254',(0xFE),+,ACK,,,
0.706911,I2C,'242',(0xF2),+,ACK,,,
0.70712725,I2C,'255',(0xFF),+,ACK,,,
0.70734325,I2C,g,(0x67),+,NAK,,,
0.707722,I2C,Setup,Write,to,['208',(0xD0)],+,ACK
0.707938,I2C,C,(0x43),+,ACK,,,
0.7081905,I2C,Setup,Read,to,['209',(0xD1)],+,ACK
0.70840675,I2C,'255',(0xFF),+,ACK,,,
0.708623,I2C,=,(0x3D),+,ACK,,,
0.70883925,I2C,'254',(0xFE),+,ACK,,,
0.7090555,I2C,'214',(0xD6),+,ACK,,,
0.70927175,I2C,'255',(0xFF),+,ACK,,,
0.709488,I2C,f,(0x66),+,NAK,,,
0.7098665,I2C,Setup,Write,to,['208',(0xD0)],+,ACK
0.71008275,I2C,C,(0x43),+,ACK,,,
0.710335,I2C,Setup,Read,to,['209',(0xD1)],+,ACK
0.71055125,I2C,'255',(0xFF),+,ACK,,,
0.7107675,I2C,_,(0x5F),+,ACK,,,
0.71098375,I2C,'254',(0xFE),+,ACK,,,
0.71120025,I2C,'247',(0xF7),+,ACK,,,
0.7114165,I2C,'255',(0xFF),+,ACK,,,
0.71163275,I2C,l,(0x6C),+,NAK,,,
0.712011,I2C,Setup,Write,to,['208',(0xD0)],+,ACK
0.7122275,I2C,C,(0x43),+,ACK,,,
0.71247975,I2C,Setup,Read,to,['209',(0xD1)],+,ACK
0.71269575,I2C,'255',(0xFF),+,ACK,,,
0.712912,I2C,b,(0x62),+,ACK,,,
0.71312825,I2C,'254',(0xFE),+,ACK,,,
0.71334475,I2C,'229',(0xE5),+,ACK,,,
0.71356075,I2C,'255',(0xFF),+,ACK,,,
0.713777,I2C,Y,(0x59),+,NAK,,,
0.7141555,I2C,Setup,Write,to,['208',(0xD0)],+,ACK
0.71437175,I2C,C,(0x43),+,ACK,,,
0.714624,I2C,Setup,Read,to,['209',(0xD1)],+,ACK
0.71484025,I2C,'255',(0xFF),+,ACK,,,
0.7150565,I2C,p,(0x70),+,ACK,,,
0.71527275,I2C,'254',(0xFE),+,ACK,,,
0.715489,I2C,'230',(0xE6),+,ACK,,,
0.71570525,I2C,'255',(0xFF),+,ACK,,,
0.7159215,I2C,R,(0x52),+,NAK,,,
0.71629975,I2C,Setup,Write,to,['208',(0xD0)],+,ACK
0.71651625,I2C,C,(0x43),+,ACK,,,
0.7167685,I2C,Setup,Read,to,['209',(0xD1)],+,ACK
0.71698475,I2C,'255',(0xFF),+,ACK,,,
0.717201,I2C,'131',(0x83),+,ACK,,,
0.71741725,I2C,'254',(0xFE),+,ACK,,,
0.7176335,I2C,'230',(0xE6),+,ACK,,,
0.71784975,I2C,'255',(0xFF),+,ACK,,,
0.718066,I2C,],(0x5D),+,NAK,,,
0.7184445,I2C,Setup,Write,to,['208',(0xD0)],+,ACK
0.71866075,I2C,C,(0x43),+,ACK,,,
0.718913,I2C,Setup,Read,to,['209',(0xD1)],+,ACK
0.71912925,I2C,'255',(0xFF),+,ACK,,,
0.7193455,I2C,e,(0x65),+,ACK,,,
0.71956175,I2C,'254',(0xFE),+,ACK,,,
0.719778,I2C,'242',(0xF2),+,ACK,,,
0.71999425,I2C,'255',(0xFF),+,ACK,,,
0.7202105,I2C,'128',(0x80),+,NAK,,,
0.720589,I2C,Setup,Write,to,['208',(0xD0)],+,ACK
0.72080525,I2C,C,(0x43),+,ACK,,,
0.7210575,I2C,Setup,Read,to,['209',(0xD1)],+,ACK
0.72127375,I2C,'255',(0xFF),+,ACK,,,
0.72149,I2C,y,(0x79),+,ACK,,,
0.72170625,I2C,'254',(0xFE),+,ACK,,,
0.7219225,I2C,'217',(0xD9),+,ACK,,,
0.72213875,I2C,'255',(0xFF),+,ACK,,,
0.722355,I2C,\,(0x5C),+,NAK,,,
0.72273375,I2C,Setup,Write,to,['208',(0xD0)],+,ACK
0.72295,I2C,C,(0x43),+,ACK,,,
0.72320225,I2C,Setup,Read,to,['209',(0xD1)],+,ACK
0.7234185,I2C,'255',(0xFF),+,ACK,,,
0.72363475,I2C,z,(0x7A),+,ACK,,,
0.723851,I2C,'254',(0xFE),+,ACK,,,
0.72406725,I2C,'241',(0xF1),+,ACK,,,
0.7242835,I2C,'255',(0xFF),+,ACK,,,
0.72449975,I2C,Q,(0x51),+,NAK,,,
0.72487825,I2C,Setup,Write,to,['208',(0xD0)],+,ACK
0.7250945,I2C,C,(0x43),+,ACK,,,
0.72534675,I2C,Setup,Read,to,['209',(0xD1)],+,ACK
0.725563,I2C,'255',(0xFF),+,ACK,,,
0.7257795,I2C,f,(0x66),+,ACK,,,
0.7259955,I2C,'254',(0xFE),+,ACK,,,
0.72621175,I2C,'239',(0xEF),+,ACK,,,
0.726428,I2C,'255',(0xFF),+,ACK,,,
0.7266445,I2C,`,(0x60),+,NAK,,,
0.72702275,I2C,Setup,Write,to,['208',(0xD0)],+,ACK
0.727239,I2C,C,(0x43),+,ACK,,,
0.7274915,I2C,Setup,Read,to,['209',(0xD1)],+,ACK
0.72770775,I2C,'255',(0xFF),+,ACK,,,
0.727924,I2C,z,(0x7A),+,ACK,,,
0.72814025,I2C,'254',(0xFE),+,ACK,,,
0.7283565,I2C,'228',(0xE4),+,ACK,,,
0.72857275,I2C,'255',(0xFF),+,ACK,,,
0.728789,I2C,t,(0x74),+,NAK,,,
0.7291675,I2C,Setup,Write,to,['208',(0xD0)],+,ACK
0.72938375,I2C,C,(0x43),+,ACK,,,
0.729636,I2C,Setup,Read,to,['209',(0xD1)],+,ACK
0.72985225,I2C,'255',(0xFF),+,ACK,,,
0.7300685,I2C,p,(0x70),+,ACK,,,
0.73028475,I2C,'254',(0xFE),+,ACK,,,
0.730501,I2C,'228',(0xE4),+,ACK,,,
0.73071725,I2C,'255',(0xFF),+,ACK,,,
0.7309335,I2C,^,(0x5E),+,NAK,,,
0.731312,I2C,Setup,Write,to,['208',(0xD0)],+,ACK
0.73152825,I2C,C,(0x43),+,ACK,,,
0.7317805,I2C,Setup,Read,to,['209',(0xD1)],+,ACK
0.73199675,I2C,'255',(0xFF),+,ACK,,,
0.732213,I2C,'138',(0x8A),+,ACK,,,
0.73242925,I2C,'254',(0xFE),+,ACK,,,
0.73264575,I2C,'211',(0xD3),+,ACK,,,
0.732862,I2C,'255',(0xFF),+,ACK,,,
0.73307825,I2C,[,(0x5B),+,NAK,,,
0.73345675,I2C,Setup,Write,to,['208',(0xD0)],+,ACK
0.733673,I2C,C,(0x43),+,ACK,,,
0.73392525,I2C,Setup,Read,to,['209',(0xD1)],+,ACK
0.7341415,I2C,'255',(0xFF),+,ACK,,,
0.73435775,I2C,'127',(0x7F),+,ACK,,,
0.734574,I2C,'254',(0xFE),+,ACK,,,
0.73479025,I2C,'233',(0xE9),+,ACK,,,
0.73500675,I2C,'255',(0xFF),+,ACK,,,
0.735223,I2C,k,(0x6B),+,NAK,,,
0.73560125,I2C,Setup,Write,to,['208',(0xD0)],+,ACK
0.7358175,I2C,C,(0x43),+,ACK,,,
0.73606975,I2C,Setup,Read,to,['209',(0xD1)],+,ACK
0.73628625,I2C,'255',(0xFF),+,ACK,,,
0.7365025,I2C,Z,(0x5A),+,ACK,,,
0.7367185,I2C,'254',(0xFE),+,ACK,,,
0.73693475,I2C,'221',(0xDD),+,ACK,,,
0.73715125,I2C,'255',(0xFF),+,ACK,,,
0.7373675,I2C,e,(0x65),+,NAK,,,
0.73774575,I2C,Setup,Write,to,['208',(0xD0)],+,ACK
0.737962,I2C,C,(0x43),+,ACK,,,
0.73821425,I2C,Setup,Read,to,['209',(0xD1)],+,ACK
0.73843075,I2C,'255',(0xFF),+,ACK,,,
0.738647,I2C,j,(0x6A),+,ACK,,,
0.73886325,I2C,'254',(0xFE),+,ACK,,,
0.7390795,I2C,'249',(0xF9),+,ACK,,,
0.73929575,I2C,'255',(0xFF),+,ACK,,,
0.739512,I2C,\,(0x5C),+,NAK,,,
0.7398905,I2C,Setup,Write,to,['208',(0xD0)],+,ACK
0.74010675,I2C,C,(0x43),+,ACK,,,
0.740359,I2C,Setup,Read,to,['209',(0xD1)],+,ACK
0.74057525,I2C,'255',(0xFF),+,ACK,,,
0.7407915,I2C,'135',(0x87),+,ACK,,,
0.74100775,I2C,'254',(0xFE),+,ACK,,,
0.741224,I2C,'221',(0xDD),+,ACK,,,
0.74144025,I2C,'255',(0xFF),+,ACK,,,
0.7416565,I2C,r,(0x72),+,NAK,,,
0.742035,I2C,Setup,Write,to,['208',(0xD0)],+,ACK
0.74225125,I2C,C,(0x43),+,ACK,,,
0.74250375,I2C,Setup,Read,to,['209',(0xD1)],+,ACK
0.74272,I2C,'255',(0xFF),+,ACK,,,
0.74293625,I2C,o,(0x6F),+,ACK,,,
0.7431525,I2C,'254',(0xFE),+,ACK,,,
0.743369,I2C,'238',(0xEE),+,ACK,,,
0.74358525,I2C,'255',(0xFF),+,ACK,,,
0.7438015,I2C,p,(0x70),+,NAK,,,
0.74417975,I2C,Setup,Write,to,['208',(0xD0)],+,ACK
0.74439625,I2C,C,(0x43),+,ACK,,,
0.7446485,I2C,Setup,Read,to,['209',(0xD1)],+,ACK
0.74486475,I2C,'255',(0xFF),+,ACK,,,
0.745081,I2C,},(0x7D),+,ACK,,,
0.74529725,I2C,'254',(0xFE),+,ACK,,,
0.74551375,I2C,'211',(0xD3),+,ACK,,,
0.74573,I2C,'255',(0xFF),+,ACK,,,
0.74594625,I2C,],(0x5D),+,NAK,,,
0.74632475,I2C,Setup,Write,to,['208',(0xD0)],+,ACK
0.746541,I2C,C,(0x43),+,ACK,,,
0.7467935,I2C,Setup,Read,to,['209',(0xD1)],+,ACK
0.74700975,I2C,'255',(0xFF),+,ACK,,,
0.747226,I2C,'138',(0x8A),+,ACK,,,
0.7474425,I2C,'254',(0xFE),+,ACK,,,
0.74765875,I2C,'219',(0xDB),+,ACK,,,
0.74787525,I2C,'255',(0xFF),+,ACK,,,
0.74809125,I2C,t,(0x74),+,NAK,,,
0.74846975,I2C,Setup,Write,to,['208',(0xD0)],+,ACK
0.74868625,I2C,C,(0x43),+,ACK,,,
0.7489385,I2C,Setup,Read,to,['209',(0xD1)],+,ACK
0.74915475,I2C,'255',(0xFF),+,ACK,,,
0.749371,I2C,g,(0x67),+,ACK,,,
0.7495875,I2C,'254',(0xFE),+,ACK,,,
0.74980375,I2C,'216',(0xD8),+,ACK,,,
0.75002,I2C,'255',(0xFF),+,ACK,,,
0.75023625,I2C,m,(0x6D),+,NAK,,,
0.75061475,I2C,Setup,Write,to,['208',(0xD0)],+,ACK
0.75083125,I2C,C,(0x43),+,ACK,,,
0.7510835,I2C,Setup,Read,to,['209',(0xD1)],+,ACK
0.75129975,I2C,'255',(0xFF),+,ACK,,,
0.751516,I2C,r,(0x72),+,ACK,,,
0.75173225,I2C,'254',(0xFE),+,ACK,,,
0.7519485,I2C,'235',(0xEB),+,ACK,,,
0.75216475,I2C,'255',(0xFF),+,ACK,,,
0.752381,I2C,z,(0x7A),+,NAK,,,
0.7527595,I2C,Setup,Write,to,['208',(0xD0)],+,ACK
0.75297575,I2C,C,(0x43),+,ACK,,,
0.753228,I2C,Setup,Read,to,['209',(0xD1)],+,ACK
0.75344425,I2C,'255',(0xFF),+,ACK,,,
0.7536605,I2C,s,(0x73),+,ACK,,,
0.753877,I2C,'254',(0xFE),+,ACK,,,
0.75409325,I2C,'245',(0xF5),+,ACK,,,
0.7543095,I2C,'255',(0xFF),+,ACK,,,
0.75452575,I2C,b,(0x62),+,NAK,,,
0.75490425,I2C,Setup,Write,to,['208',(0xD0)],+,ACK
0.7551205,I2C,C,(0x43),+,ACK,,,
0.75537275,I2C,Setup,Read,to,['209',(0xD1)],+,ACK
0.755589,I2C,'255',(0xFF),+,ACK,,,
0.75580525,I2C,e,(0x65),+,ACK,,,
0.75602175,I2C,'254',(0xFE),+,ACK,,,
0.756238,I2C,'244',(0xF4),+,ACK,,,
0.75645425,I2C,'255',(0xFF),+,ACK,,,
0.7566705,I2C,e,(0x65),+,NAK,,,
0.757049,I2C,Setup,Write,to,['208',(0xD0)],+,ACK
0.75726525,I2C,C,(0x43),+,ACK,,,
0.75751775,I2C,Setup,Read,to,['209',(0xD1)],+,ACK
0.757734,I2C,'255',(0xFF),+,ACK,,,
0.75795025,I2C,'129',(0x81),+,ACK,,,
0.7581665,I2C,'254',(0xFE),+,ACK,,,
0.75838275,I2C,'225',(0xE1),+,ACK,,,
0.758599,I2C,'255',(0xFF),+,ACK,,,
0.75881525,I2C,f,(0x66),+,NAK,,,
0.75919375,I2C,Setup,Write,to,['208',(0xD0)],+,ACK
0.75941,I2C,C,(0x43),+,ACK,,,
0.7596625,I2C,Setup,Read,to,['209',(0xD1)],+,ACK
0.75987875,I2C,'255',(0xFF),+,ACK,,,
0.760095,I2C,y,(0x79),+,ACK,,,
0.76031125,I2C,'254',(0xFE),+,ACK,,,
0.7605275,I2C,'240',(0xF0),+,ACK,,,
0.76074375,I2C,'255',(0xFF),+,ACK,,,
0.76096025,I2C,n,(0x6E),+,NAK,,,
0.76133875,I2C,Setup,Write,to,['208',(0xD0)],+,ACK
0.761555,I2C,C,(0x43),+,ACK,,,
0.7618075,I2C,Setup,Read,to,['209',(0xD1)],+,ACK
0.76202375,I2C,'255',(0xFF),+,ACK,,,
0.76224,I2C,'139',(0x8B),+,ACK,,,
0.7624565,I2C,'254',(0xFE),+,ACK,,,
0.76267275,I2C,'252',(0xFC),+,ACK,,,
0.762889,I2C,'255',(0xFF),+,ACK,,,
0.76310525,I2C,j,(0x6A),+,NAK,,,
0.76348375,I2C,Setup,Write,to,['208',(0xD0)],+,ACK
0.7637,I2C,C,(0x43),+,ACK,,,
0.76395225,I2C,Setup,Read,to,['209',(0xD1)],+,ACK
0.76416825,I2C,'255',(0xFF),+,ACK,,,
0.76438475,I2C,W,(0x57),+,ACK,,,
0.764601,I2C,'254',(0xFE),+,ACK,,,
0.764817,I2C,'236',(0xEC),+,ACK,,,
0.76503325,I2C,'255',(0xFF),+,ACK,,,
0.7652495,I2C,Y,(0x59),+,NAK,,,
0.765628,I2C,Setup,Write,to,['208',(0xD0)],+,ACK
0.765844,I2C,C,(0x43),+,ACK,,,
0.76609625,I2C,Setup,Read,to,['209',(0xD1)],+,ACK
0.76631275,I2C,'255',(0xFF),+,ACK,,,
0.766529,I2C,j,(0x6A),+,ACK,,,
0.76674525,I2C,'254',(0xFE),+,ACK,,,
0.7669615,I2C,'221',(0xDD),+,ACK,,,
0.76717775,I2C,'255',(0xFF),+,ACK,,,
0.767394,I2C,W,(0x57),+,NAK,,,
0.7677725,I2C,Setup,Write,to,['208',(0xD0)],+,ACK
0.76798875,I2C,C,(0x43),+,ACK,,,
0.768241,I2C,Setup,Read,to,['209',(0xD1)],+,ACK
0.76845725,I2C,'255',(0xFF),+,ACK,,,
0.7686735,I2C,~,(0x7E),+,ACK,,,
0.76888975,I2C,'254',(0xFE),+,ACK,,,
0.769106,I2C,'230',(0xE6),+,ACK,,,
0.7693225,I2C,'255',(0xFF),+,ACK,,,
0.769539,I2C,O,(0x4F),+,NAK,,,
0.7699175,I2C,Setup,Write,to,['208',(0xD0)],+,ACK
0.77013375,I2C,C,(0x43),+,ACK,,,
0.770386,I2C,Setup,Read,to,['209',(0xD1)],+,ACK
0.77060225,I2C,'255',(0xFF),+,ACK,,,
0.7708185,I2C,`,(0x60),+,ACK,,,
0.77103475,I2C,'254',(0xFE),+,ACK,,,
0.771251,I2C,'230',(0xE6),+,ACK,,,
0.7714675,I2C,'255',(0xFF),+,ACK,,,
0.77168375,I2C,a,(0x61),+,NAK,,,
0.772062,I2C,Setup,Write,to,['208',(0xD0)],+,ACK
0.77227825,I2C,C,(0x43),+,ACK,,,
0.7725305,I2C,Setup,Read,to,['209',(0xD1)],+,ACK
0.772747,I2C,'255',(0xFF),+,ACK,,,
0.77296325,I2C,'128',(0x80),+,ACK,,,
0.7731795,I2C,'254',(0xFE),+,ACK,,,
0.77339575,I2C,'255',(0xFF),+,ACK,,,
0.773612,I2C,'255',(0xFF),+,ACK,,,
0.77382825,I2C,b,(0x62),+,NAK,,,
0.7742065,I2C,Setup,Write,to,['208',(0xD0)],+,ACK
0.77442275,I2C,C,(0x43),+,ACK,,,
0.77467525,I2C,Setup,Read,to,['209',(0xD1)],+,ACK
0.77489125,I2C,'255',(0xFF),+,ACK,,,
0.7751075,I2C,'128',(0x80),+,ACK,,,
0.77532375,I2C,'254',(0xFE),+,ACK,,,
0.77554,I2C,'254',(0xFE),+,ACK,,,
0.77575625,I2C,'255',(0xFF),+,ACK,,,
0.7759725,I2C,i,(0x69),+,NAK,,,
0.77635075,I2C,Setup,Write,to,['208',(0xD0)],+,ACK
0.776567,I2C,C,(0x43),+,ACK,,,
0.77681925,I2C,Setup,Read,to,['209',(0xD1)],+,ACK
0.7770355,I2C,'255',(0xFF),+,ACK,,,
0.77725175,I2C,'133',(0x85),+,ACK,,,
0.77746825,I2C,'254',(0xFE),+,ACK,,,
0.7776845,I2C,'230',(0xE6),+,ACK,,,
0.77790075,I2C,'255',(0xFF),+,ACK,,,
0.778117,I2C,`,(0x60),+,NAK,,,
0.7784955,I2C,Setup,Write,to,['208',(0xD0)],+,ACK
0.77871175,I2C,C,(0x43),+,ACK,,,
0.778964,I2C,Setup,Read,to,['209',(0xD1)],+,ACK
0.77918025,I2C,'255',(0xFF),+,ACK,,,
0.7793965,I2C,w,(0x77),+,ACK,,,
0.77961275,I2C,'254',(0xFE),+,ACK,,,
0.77982925,I2C,'214',(0xD6),+,ACK,,,
0.7800455,I2C,'255',(0xFF),+,ACK,,,
0.78026175,I2C,^,(0x5E),+,NAK,,,
0.78064,I2C,Setup,Write,to,['208',(0xD0)],+,ACK
0.7808565,I2C,C,(0x43),+,ACK,,,
0.78110875,I2C,Setup,Read,to,['209',(0xD1)],+,ACK
0.781325,I2C,'255',(0xFF),+,ACK,,,
0.78154125,I2C,|,(0x7C),+,ACK,,,
0.7817575,I2C,'254',(0xFE),+,ACK,,,
0.78197375,I2C,'218',(0xDA),+,ACK,,,
0.78219,I2C,'255',(0xFF),+,ACK,,,
0.78240625,I2C,l,(0x6C),+,NAK,,,
0.78278475,I2C,Setup,Write,to,['208',(0xD0)],+,ACK
0.783001,I2C,C,(0x43),+,ACK,,,
0.78325325,I2C,Setup,Read,to,['209',(0xD1)],+,ACK
0.7834695,I2C,'255',(0xFF),+,ACK,,,
0.78368575,I2C,~,(0x7E),+,ACK,,,
0.78390225,I2C,'254',(0xFE),+,ACK,,,
0.7841185,I2C,'233',(0xE9),+,ACK,,,
0.78433475,I2C,'255',(0xFF),+,ACK,,,
0.784551,I2C,[,(0x5B),+,NAK,,,
0.78492925,I2C,Setup,Write,to,['208',(0xD0)],+,ACK
0.78514575,I2C,C,(0x43),+,ACK,,,
0.785398,I2C,Setup,Read,to,['209',(0xD1)],+,ACK
0.78561425,I2C,'255',(0xFF),+,ACK,,,
0.7858305,I2C,m,(0x6D),+,ACK,,,
0.78604675,I2C,'254',(0xFE),+,ACK,,,
0.786263,I2C,'233',(0xE9),+,ACK,,,
0.78647925,I2C,'255',(0xFF),+,ACK,,,
0.7866955,I2C,d,(0x64),+,NAK,,,
0.787074,I2C,Setup,Write,to,['208',(0xD0)],+,ACK
0.78729025,I2C,C,(0x43),+,ACK,,,
0.7875425,I2C,Setup,Read,to,['209',(0xD1)],+,ACK
0.78775875,I2C,'255',(0xFF),+,ACK,,,
0.787975,I2C,l,(0x6C),+,ACK,,,
0.78819125,I2C,'254',(0xFE),+,ACK,,,
0.7884075,I2C,'239',(0xEF),+,ACK,,,
0.78862375,I2C,'255',(0xFF),+,ACK,,,
0.78884,I2C,'128',(0x80),+,NAK,,,
0.7892185,I2C,Setup,Write,to,['208',(0xD0)],+,ACK
0.78943475,I2C,C,(0x43),+,ACK,,,
0.789687,I2C,Setup,Read,to,['209',(0xD1)],+,ACK
0.78990325,I2C,'255',(0xFF),+,ACK,,,
0.79011925,I2C,n,(0x6E),+,ACK,,,
0.79033575,I2C,'254',(0xFE),+,ACK,,,
0.790552,I2C,'215',(0xD7),+,ACK,,,
0.790768,I2C,'255',(0xFF),+,ACK,,,
0.79098425,I2C,c,(0x63),+,NAK,,,
0.791363,I2C,Setup,Write,to,['208',(0xD0)],+,ACK
0.79157925,I2C,C,(0x43),+,ACK,,,
0.79183175,I2C,Setup,Read,to,['209',(0xD1)],+,ACK
0.792048,I2C,'255',(0xFF),+,ACK,,,
0.79226425,I2C,'156',(0x9C),+,ACK,,,
0.7924805,I2C,'254',(0xFE),+,ACK,,,
0.79269675,I2C,'238',(0xEE),+,ACK,,,
0.792913,I2C,'255',(0xFF),+,ACK,,,
0.7931295,I2C,w,(0x77),+,NAK,,,
0.79350775,I2C,Setup,Write,to,['208',(0xD0)],+,ACK
0.793724,I2C,C,(0x43),+,ACK,,,
0.7939765,I2C,Setup,Read,to,['209',(0xD1)],+,ACK
0.79419275,I2C,'255',(0xFF),+,ACK,,,
0.794409,I2C,k,(0x6B),+,ACK,,,
0.79462525,I2C,'254',(0xFE),+,ACK,,,
0.7948415,I2C,'236',(0xEC),+,ACK,,,
0.79505775,I2C,'255',(0xFF),+,ACK,,,
0.795274,I2C,y,(0x79),+,NAK,,,
0.7956525,I2C,Setup,Write,to,['208',(0xD0)],+,ACK
0.79586875,I2C,C,(0x43),+,ACK,,,
0.796121,I2C,Setup,Read,to,['209',(0xD1)],+,ACK
0.79633725,I2C,'255',(0xFF),+,ACK,,,
0.7965535,I2C,u,(0x75),+,ACK,,,
0.79677,I2C,'254',(0xFE),+,ACK,,,
0.79698625,I2C,'242',(0xF2),+,ACK,,,
0.7972025,I2C,'255',(0xFF),+,ACK,,,
0.79741875,I2C,`,(0x60),+,NAK,,,
0.79779725,I2C,Setup,Write,to,['208',(0xD0)],+,ACK
0.79801375,I2C,C,(0x43),+,ACK,,,
0.798266,I2C,Setup,Read,to,['209',(0xD1)],+,ACK
0.79848225,I2C,'255',(0xFF),+,ACK,,,
0.79869875,I2C,'128',(0x80),+,ACK,,,
0.79891475,I2C,'254',(0xFE),+,ACK,,,
0.799131,I2C,'208',(0xD0),+,ACK,,,
0.79934725,I2C,'255',(0xFF),+,ACK,,,
0.7995635,I2C,V,(0x56),+,NAK,,,
0.799942,I2C,Setup,Write,to,['208',(0xD0)],+,ACK
0.800158,I2C,C,(0x43),+,ACK,,,
0.80041025,I2C,Setup,Read,to,['209',(0xD1)],+,ACK
0.8006265,I2C,'255',(0xFF),+,ACK,,,
0.80084275,I2C,x,(0x78),+,ACK,,,
0.801059,I2C,'254',(0xFE),+,ACK,,,
0.80127525,I2C,'201',(0xC9),+,ACK,,,
0.80149175,I2C,'255',(0xFF),+,ACK,,,
0.801708,I2C,h,(0x68),+,NAK,,,
0.80208625,I2C,Setup,Write,to,['208',(0xD0)],+,ACK
0.8023025,I2C,C,(0x43),+,ACK,,,
0.80255475,I2C,Setup,Read,to,['209',(0xD1)],+,ACK
0.80277125,I2C,'255',(0xFF),+,ACK,,,
0.8029875,I2C,k,(0x6B),+,ACK,,,
0.80320375,I2C,'254',(0xFE),+,ACK,,,
0.80342,I2C,'219',(0xDB),+,ACK,,,
0.80363625,I2C,'255',(0xFF),+,ACK,,,
0.8038525,I2C,y,(0x79),+,NAK,,,
0.80423075,I2C,Setup,Write,to,['208',(0xD0)],+,ACK
0.804447,I2C,C,(0x43),+,ACK,,,
0.8046995,I2C,Setup,Read,to,['209',(0xD1)],+,ACK
0.80491575,I2C,'255',(0xFF),+,ACK,,,
0.80513175,I2C,~,(0x7E),+,ACK,,,
0.805348,I2C,'254',(0xFE),+,ACK,,,
0.80556425,I2C,'224',(0xE0),+,ACK,,,
0.80578075,I2C,'255',(0xFF),+,ACK,,,
0.80599675,I2C,V,(0x56),+,NAK,,,
0.80637525,I2C,Setup,Write,to,['208',(0xD0)],+,ACK
0.8065915,I2C,C,(0x43),+,ACK,,,
0.80684375,I2C,Setup,Read,to,['209',(0xD1)],+,ACK
0.80706,I2C,'255',(0xFF),+,ACK,,,
0.80727625,I2C,'135',(0x87),+,ACK,,,
0.8074925,I2C,'254',(0xFE),+,ACK,,,
0.80770875,I2C,'236',(0xEC),+,ACK,,,
0.807925,I2C,'255',(0xFF),+,ACK,,,
0.80814125,I2C,f,(0x66),+,NAK,,,
0.8085195,I2C,Setup,Write,to,['208',(0xD0)],+,ACK
0.80873575,I2C,C,(0x43),+,ACK,,,
0.80898825,I2C,Setup,Read,to,['209',(0xD1)],+,ACK
0.8092045,I2C,'255',(0xFF),+,ACK,,,
0.80942075,I2C,i,(0x69),+,ACK,,,
0.809637,I2C,'254',(0xFE),+,ACK,,,
0.80985325,I2C,'246',(0xF6),+,ACK,,,
0.8100695,I2C,'255',(0xFF),+,ACK,,,
0.81028575,I2C,h,(0x68),+,NAK,,,
0.81066425,I2C,Setup,Write,to,['208',(0xD0)],+,ACK
0.8108805,I2C,C,(0x43),+,ACK,,,
0.811133,I2C,Setup,Read,to,['209',(0xD1)],+,ACK
0.81134925,I2C,'255',(0xFF),+,ACK,,,
0.8115655,I2C,k,(0x6B),+,ACK,,,
0.81178175,I2C,'254',(0xFE),+,ACK,,,
0.811998,I2C,'227',(0xE3),+,ACK,,,
0.81221425,I2C,'255',(0xFF),+,ACK,,,
0.8124305,I2C,p,(0x70),+,NAK,,,
0.812809,I2C,Setup,Write,to,['208',(0xD0)],+,ACK
0.81302525,I2C,C,(0x43),+,ACK,,,
0.8132775,I2C,Setup,Read,to,['209',(0xD1)],+,ACK
0.81349375,I2C,'255',(0xFF),+,ACK,,,
0.81371,I2C,'140',(0x8C),+,ACK,,,
0.81392625,I2C,'254',(0xFE),+,ACK,,,
0.81414275,I2C,'228',(0xE4),+,ACK,,,
0.814359,I2C,'255',(0xFF),+,ACK,,,
0.81457525,I2C,g,(0x67),+,NAK,,,
0.81495375,I2C,Setup,Write,to,['208',(0xD0)],+,ACK
0.81517,I2C,C,(0x43),+,ACK,,,
0.81542225,I2C,Setup,Read,to,['209',(0xD1)],+,ACK
0.8156385,I2C,'255',(0xFF),+,ACK,,,
0.81585475,I2C,d,(0x64),+,ACK,,,
0.816071,I2C,'254',(0xFE),+,ACK,,,
0.81628725,I2C,'247',(0xF7),+,ACK,,,
0.81650375,I2C,'255',(0xFF),+,ACK,,,
0.81672,I2C,f,(0x66),+,NAK,,,
0.81709825,I2C,Setup,Write,to,['208',(0xD0)],+,ACK
0.81731475,I2C,C,(0x43),+,ACK,,,
0.817567,I2C,Setup,Read,to,['209',(0xD1)],+,ACK
0.81778325,I2C,'255',(0xFF),+,ACK,,,
0.8179995,I2C,'140',(0x8C),+,ACK,,,
0.81821575,I2C,'254',(0xFE),+,ACK,,,
0.818432,I2C,'229',(0xE5),+,ACK,,,
0.81864825,I2C,'255',(0xFF),+,ACK,,,
0.8188645,I2C,c,(0x63),+,NAK,,,
0.819243,I2C,Setup,Write,to,['208',(0xD0)],+,ACK
0.8194595,I2C,C,(0x43),+,ACK,,,
0.81971175,I2C,Setup,Read,to,['209',(0xD1)],+,ACK
0.819928,I2C,'255',(0xFF),+,ACK,,,
0.8201445,I2C,u,(0x75),+,ACK,,,
0.82036075,I2C,'254',(0xFE),+,ACK,,,
0.820577,I2C,'213',(0xD5),+,ACK,,,
0.82079325,I2C,'255',(0xFF),+,ACK,,,
0.8210095,I2C,c,(0x63),+,NAK,,,
0.821388,I2C,Setup,Write,to,['208',(0xD0)],+,ACK
0.82160425,I2C,C,(0x43),+,ACK,,,
0.8218565,I2C,Setup,Read,to,['209',(0xD1)],+,ACK
0.822073,I2C,'255',(0xFF),+,ACK,,,
0.82228925,I2C,'133',(0x85),+,ACK,,,
0.8225055,I2C,'254',(0xFE),+,ACK,,,
0.82272175,I2C,'221',(0xDD),+,ACK,,,
0.822938,I2C,'255',(0xFF),+,ACK,,,
0.82315425,I2C,k,(0x6B),+,NAK,,,
0.82353275,I2C,Setup,Write,to,['208',(0xD0)],+,ACK
0.823749,I2C,C,(0x43),+,ACK,,,
0.82400125,I2C,Setup,Read,to,['209',(0xD1)],+,ACK
0.8242175,I2C,'255',(0xFF),+,ACK,,,
0.82443375,I2C,u,(0x75),+,ACK,,,
0.82465,I2C,'254',(0xFE),+,ACK,,,
0.82486625,I2C,'241',(0xF1),+,ACK,,,
0.8250825,I2C,'255',(0xFF),+,ACK,,,
0.82529875,I2C,t,(0x74),+,NAK,,,
0.82567725,I2C,Setup,Write,to,['208',(0xD0)],+,ACK
0.8258935,I2C,C,(0x43),+,ACK,,,
0.826146,I2C,Setup,Read,to,['209',(0xD1)],+,ACK
0.82636225,I2C,'255',(0xFF),+,ACK,,,
0.8265785,I2C,\,(0x5C),+,ACK,,,
0.82679475,I2C,'254',(0xFE),+,ACK,,,
0.827011,I2C,'232',(0xE8),+,ACK,,,
0.82722725,I2C,'255',(0xFF),+,ACK,,,
0.82744375,I2C,_,(0x5F),+,NAK,,,
0.827822,I2C,Setup,Write,to,['208',(0xD0)],+,ACK
0.82803825,I2C,C,(0x43),+,ACK,,,
0.82829075,I2C,Setup,Read,to,['209',(0xD1)],+,ACK
0.82850675,I2C,'255',(0xFF),+,ACK,,,
0.82872325,I2C,'139',(0x8B),+,ACK,,,
0.8289395,I2C,'254',(0xFE),+,ACK,,,
0.82915575,I2C,'226',(0xE2),+,ACK,,,
0.829372,I2C,'255',(0xFF),+,ACK,,,
0.82958825,I2C,h,(0x68),+,NAK,,,
0.82996675,I2C,Setup,Write,to,['208',(0xD0)],+,ACK
0.830183,I2C,C,(0x43),+,ACK,,,
0.8304355,I2C,Setup,Read,to,['209',(0xD1)],+,ACK
0.83065175,I2C,'255',(0xFF),+,ACK,,,
0.830868,I2C,a,(0x61),+,ACK,,,
0.83108425,I2C,'254',(0xFE),+,ACK,,,
0.8313005,I2C,'253',(0xFD),+,ACK,,,
0.83151675,I2C,'255',(0xFF),+,ACK,,,
0.83173325,I2C,_,(0x5F),+,NAK,,,
0.83211175,I2C,Setup,Write,to,['208',(0xD0)],+,ACK
0.832328,I2C,C,(0x43),+,ACK,,,
0.83258025,I2C,Setup,Read,to,['209',(0xD1)],+,ACK
0.8327965,I2C,'255',(0xFF),+,ACK,,,
0.83301275,I2C,i,(0x69),+,ACK,,,
0.833229,I2C,'254',(0xFE),+,ACK,,,
0.83344525,I2C,'224',(0xE0),+,ACK,,,
0.8336615,I2C,'255',(0xFF),+,ACK,,,
0.833878,I2C,[,(0x5B),+,NAK,,,
0.8342565,I2C,Setup,Write,to,['208',(0xD0)],+,ACK
0.83447275,I2C,C,(0x43),+,ACK,,,
0.834725,I2C,Setup,Read,to,['209',(0xD1)],+,ACK
0.83494125,I2C,'255',(0xFF),+,ACK,,,
0.8351575,I2C,'136',(0x88),+,ACK,,,
0.83537375,I2C,'254',(0xFE),+,ACK,,,
0.83559,I2C,'234',(0xEA),+,ACK,,,
0.8358065,I2C,'255',(0xFF),+,ACK,,,
0.83602275,I2C,l,(0x6C),+,NAK,,,
0.83640125,I2C,Setup,Write,to,['208',(0xD0)],+,ACK
0.8366175,I2C,C,(0x43),+,ACK,,,
0.83686975,I2C,Setup,Read,to,['209',(0xD1)],+,ACK
0.837086,I2C,'255',(0xFF),+,ACK,,,
0.83730225,I2C,},(0x7D),+,ACK,,,
0.8375185,I2C,'254',(0xFE),+,ACK,,,
0.83773475,I2C,'236',(0xEC),+,ACK,,,
0.83795125,I2C,'255',(0xFF),+,ACK,,,
0.83816725,I2C,U,(0x55),+,NAK,,,
0.83854575,I2C,Setup,Write,to,['208',(0xD0)],+,ACK
0.838762,I2C,C,(0x43),+,ACK,,,
0.83901425,I2C,Setup,Read,to,['209',(0xD1)],+,ACK
0.8392305,I2C,'255',(0xFF),+,ACK,,,
0.83944675,I2C,u,(0x75),+,ACK,,,
0.839663,I2C,'254',(0xFE),+,ACK,,,
0.83987925,I2C,'218',(0xDA),+,ACK,,,
0.84009575,I2C,'255',(0xFF),+,ACK,,,
0.840312,I2C,Z,(0x5A),+,NAK,,,
0.8406905,I2C,Setup,Write,to,['208',(0xD0)],+,ACK
0.84090675,I2C,C,(0x43),+,ACK,,,
0.84115925,I2C,Setup,Read,to,['209',(0xD1)],+,ACK
0.8413755,I2C,'255',(0xFF),+,ACK,,,
0.84159175,I2C,e,(0x65),+,ACK,,,
0.841808,I2C,'254',(0xFE),+,ACK,,,
0.84202425,I2C,'222',(0xDE),+,ACK,,,
0.84224075,I2C,'255',(0xFF),+,ACK,,,
0.842457,I2C,],(0x5D),+,NAK,,,
0.84283525,I2C,Setup,Write,to,['208',(0xD0)],+,ACK
0.84305175,I2C,C,(0x43),+,ACK,,,
0.843304,I2C,Setup,Read,to,['209',(0xD1)],+,ACK
0.84352025,I2C,'255',(0xFF),+,ACK,,,
0.8437365,I2C,'134',(0x86),+,ACK,,,
0.843953,I2C,'255',(0xFF),+,ACK,,,
0.84416925,I2C,'11',(0x0B),+,ACK,,,
0.8443855,I2C,'255',(0xFF),+,ACK,,,
0.84460175,I2C,\,(0x5C),+,NAK,,,
0.84498025,I2C,Setup,Write,to,['208',(0xD0)],+,ACK
0.8451965,I2C,C,(0x43),+,ACK,,,
0.84544875,I2C,Setup,Read,to,['209',(0xD1)],+,ACK
0.845665,I2C,'255',(0xFF),+,ACK,,,
0.8458815,I2C,p,(0x70),+,ACK,,,
0.84609775,I2C,'254',(0xFE),+,ACK,,,
0.846314,I2C,'230',(0xE6),+,ACK,,,
0.84653025,I2C,'255',(0xFF),+,ACK,,,
0.8467465,I2C,c,(0x63),+,NAK,,,
0.847125,I2C,Setup,Write,to,['208',(0xD0)],+,ACK
0.84734125,I2C,C,(0x43),+,ACK,,,
0.8475935,I2C,Setup,Read,to,['209',(0xD1)],+,ACK
0.84780975,I2C,'255',(0xFF),+,ACK,,,
0.848026,I2C,x,(0x78),+,ACK,,,
0.84824225,I2C,'254',(0xFE),+,ACK,,,
0.84845875,I2C,'200',(0xC8),+,ACK,,,
0.848675,I2C,'255',(0xFF),+,ACK,,,
0.84889125,I2C,'135',(0x87),+,NAK,,,
0.8492695,I2C,Setup,Write,to,['208',(0xD0)],+,ACK
0.84948575,I2C,C,(0x43),+,ACK,,,
0.849738,I2C,Setup,Read,to,['209',(0xD1)],+,ACK
0.84995425,I2C,'255',(0xFF),+,ACK,,,
0.8501705,I2C,c,(0x63),+,ACK,,,
0.85038675,I2C,'254',(0xFE),+,ACK,,,
0.850603,I2C,'254',(0xFE),+,ACK,,,
0.85081925,I2C,'255',(0xFF),+,ACK,,,
0.8510355,I2C,d,(0x64),+,NAK,,,
0.85141375,I2C,Setup,Write,to,['208',(0xD0)],+,ACK
0.85163025,I2C,C,(0x43),+,ACK,,,
0.8518825,I2C,Setup,Read,to,['209',(0xD1)],+,ACK
0.85209875,I2C,'255',(0xFF),+,ACK,,,
0.852315,I2C,t,(0x74),+,ACK,,,
0.85253125,I2C,'254',(0xFE),+,ACK,,,
0.8527475,I2C,'243',(0xF3),+,ACK,,,
0.85296375,I2C,'255',(0xFF),+,ACK,,,
0.85318,I2C,l,(0x6C),+,NAK,,,
0.8535585,I2C,Setup,Write,to,['208',(0xD0)],+,ACK
0.85377475,I2C,C,(0x43),+,ACK,,,
0.854027,I2C,Setup,Read,to,['209',(0xD1)],+,ACK
0.85424325,I2C,'255',(0xFF),+,ACK,,,
0.8544595,I2C,n,(0x6E),+,ACK,,,
0.85467575,I2C,'254',(0xFE),+,ACK,,,
0.854892,I2C,'255',(0xFF),+,ACK,,,
0.85510825,I2C,'255',(0xFF),+,ACK,,,
0.8553245,I2C,b,(0x62),+,NAK,,,
0.855703,I2C,Setup,Write,to,['208',(0xD0)],+,ACK
0.85591925,I2C,C,(0x43),+,ACK,,,
0.8561715,I2C,Setup,Read,to,['209',(0xD1)],+,ACK
0.85638775,I2C,'255',(0xFF),+,ACK,,,
0.856604,I2C,'128',(0x80),+,ACK,,,
0.85682025,I2C,'254',(0xFE),+,ACK,,,
0.8570365,I2C,'215',(0xD7),+,ACK,,,
0.85725275,I2C,'255',(0xFF),+,ACK,,,
0.857469,I2C,W,(0x57),+,NAK,,,
0.8578475,I2C,Setup,Write,to,['208',(0xD0)],+,ACK
0.85806375,I2C,C,(0x43),+,ACK,,,
0.858316,I2C,Setup,Read,to,['209',(0xD1)],+,ACK
0.85853225,I2C,'255',(0xFF),+,ACK,,,
0.8587485,I2C,y,(0x79),+,ACK,,,
0.85896475,I2C,'254',(0xFE),+,ACK,,,
0.859181,I2C,'233',(0xE9),+,ACK,,,
0.85939725,I2C,'255',(0xFF),+,ACK,,,
0.8596135,I2C,p,(0x70),+,NAK,,,
0.859992,I2C,Setup,Write,to,['208',(0xD0)],+,ACK
0.86020825,I2C,C,(0x43),+,ACK,,,
0.8604605,I2C,Setup,Read,to,['209',(0xD1)],+,ACK
0.86067675,I2C,'255',(0xFF),+,ACK,,,
0.860893,I2C,z,(0x7A),+,ACK,,,
0.86110925,I2C,'254',(0xFE),+,ACK,,,
0.8613255,I2C,'250',(0xFA),+,ACK,,,
0.86154175,I2C,'255',(0xFF),+,ACK,,,
0.861758,I2C,t,(0x74),+,NAK,,,
0.8621365,I2C,Setup,Write,to,['208',(0xD0)],+,ACK
0.86235275,I2C,C,(0x43),+,ACK,,,
0.862605,I2C,Setup,Read,to,['209',(0xD1)],+,ACK
0.86282125,I2C,'255',(0xFF),+,ACK,,,
0.8630375,I2C,s,(0x73),+,ACK,,,
0.86325375,I2C,'254',(0xFE),+,ACK,,,
0.86347,I2C,'249',(0xF9),+,ACK,,,
0.86368625,I2C,'255',(0xFF),+,ACK,,,
0.8639025,I2C,e,(0x65),+,NAK,,,
0.864281,I2C,Setup,Write,to,['208',(0xD0)],+,ACK
0.86449725,I2C,C,(0x43),+,ACK,,,
0.8647495,I2C,Setup,Read,to,['209',(0xD1)],+,ACK
0.86496575,I2C,'255',(0xFF),+,ACK,,,
0.86518225,I2C,V,(0x56),+,ACK,,,
0.8653985,I2C,'254',(0xFE),+,ACK,,,
0.86561475,I2C,'207',(0xCF),+,ACK,,,
0.865831,I2C,'255',(0xFF),+,ACK,,,
0.86604725,I2C,i,(0x69),+,NAK,,,
0.86642575,I2C,Setup,Write,to,['208',(0xD0)],+,ACK
0.866642,I2C,C,(0x43),+,ACK,,,
0.86689425,I2C,Setup,Read,to,['209',(0xD1)],+,ACK
0.8671105,I2C,'255',(0xFF),+,ACK,,,
0.86732675,I2C,q,(0x71),+,ACK,,,
0.867543,I2C,'254',(0xFE),+,ACK,,,
0.86775925,I2C,'230',(0xE6),+,ACK,,,
0.8679755,I2C,'255',(0xFF),+,ACK,,,
0.86819175,I2C,m,(0x6D),+,NAK,,,
0.86857025,I2C,Setup,Write,to,['208',(0xD0)],+,ACK
0.8687865,I2C,C,(0x43),+,ACK,,,
0.869039,I2C,Setup,Read,to,['209',(0xD1)],+,ACK
0.86925525,I2C,'255',(0xFF),+,ACK,,,
0.86947175,I2C,'128',(0x80),+,ACK,,,
0.869688,I2C,'254',(0xFE),+,ACK,,,
0.86990425,I2C,'222',(0xDE),+,ACK,,,
0.8701205,I2C,'255',(0xFF),+,ACK,,,
0.87033675,I2C,s,(0x73),+,NAK,,,
0.87071525,I2C,Setup,Write,to,['208',(0xD0)],+,ACK
0.8709315,I2C,C,(0x43),+,ACK,,,
0.87118375,I2C,Setup,Read,to,['209',(0xD1)],+,ACK
0.8714,I2C,'255',(0xFF),+,ACK,,,
0.87161625,I2C,d,(0x64),+,ACK,,,
0.8718325,I2C,'254',(0xFE),+,ACK,,,
0.87204875,I2C,'229',(0xE5),+,ACK,,,
0.872265,I2C,'255',(0xFF),+,ACK,,,
0.87248125,I2C,c,(0x63),+,NAK,,,
0.87285975,I2C,Setup,Write,to,['208',(0xD0)],+,ACK
0.873076,I2C,C,(0x43),+,ACK,,,
0.8733285,I2C,Setup,Read,to,['209',(0xD1)],+,ACK
0.87354475,I2C,'255',(0xFF),+,ACK,,,
0.873761,I2C,{,(0x7B),+,ACK,,,
0.87397725,I2C,'254',(0xFE),+,ACK,,,
0.8741935,I2C,'222',(0xDE),+,ACK,,,
0.87440975,I2C,'255',(0xFF),+,ACK,,,
0.874626,I2C,t,(0x74),+,NAK,,,
0.87500425,I2C,Setup,Write,to,['208',(0xD0)],+,ACK
0.8752205,I2C,C,(0x43),+,ACK,,,
0.87547275,I2C,Setup,Read,to,['209',(0xD1)],+,ACK
0.87568925,I2C,'255',(0xFF),+,ACK,,,
0.8759055,I2C,'129',(0x81),+,ACK,,,
0.87612175,I2C,'255',(0xFF),+,ACK,,,
0.876338,I2C,'0',(0x00),+,ACK,,,
0.87655425,I2C,'255',(0xFF),+,ACK,,,
0.8767705,I2C,`,(0x60),+,NAK,,,
0.87714875,I2C,Setup,Write,to,['208',(0xD0)],+,ACK
0.877365,I2C,C,(0x43),+,ACK,,,
0.8776175,I2C,Setup,Read,to,['209',(0xD1)],+,ACK
0.87783375,I2C,'255',(0xFF),+,ACK,,,
0.87804975,I2C,b,(0x62),+,ACK,,,
0.878266,I2C,'254',(0xFE),+,ACK,,,
0.87848225,I2C,'238',(0xEE),+,ACK,,,
0.8786985,I2C,'255',(0xFF),+,ACK,,,
0.87891475,I2C,i,(0x69),+,NAK,,,
0.879293,I2C,Setup,Write,to,['208',(0xD0)],+,ACK
0.87950925,I2C,C,(0x43),+,ACK,,,
0.8797615,I2C,Setup,Read,to,['209',(0xD1)],+,ACK
0.87997775,I2C,'255',(0xFF),+,ACK,,,
0.880194,I2C,n,(0x6E),+,ACK,,,
0.88041025,I2C,'254',(0xFE),+,ACK,,,
0.8806265,I2C,'210',(0xD2),+,ACK,,,
0.88084275,I2C,'255',(0xFF),+,ACK,,,
0.881059,I2C,i,(0x69),+,NAK,,,
0.88143725,I2C,Setup,Write,to,['208',(0xD0)],+,ACK
0.8816535,I2C,C,(0x43),+,ACK,,,
0.88190575,I2C,Setup,Read,to,['209',(0xD1)],+,ACK
0.882122,I2C,'255',(0xFF),+,ACK,,,
0.88233825,I2C,'128',(0x80),+,ACK,,,
0.8825545,I2C,'254',(0xFE),+,ACK,,,
0.88277075,I2C,'231',(0xE7),+,ACK,,,
0.882987,I2C,'255',(0xFF),+,ACK,,,
0.88320325,I2C,R,(0x52),+,NAK,,,
0.88358175,I2C,Setup,Write,to,['208',(0xD0)],+,ACK
0.883798,I2C,C,(0x43),+,ACK,,,
0.88405025,I2C,Setup,Read,to,['209',(0xD1)],+,ACK
0.8842665,I2C,'255',(0xFF),+,ACK,,,
0.88448275,I2C,v,(0x76),+,ACK,,,
0.884699,I2C,'254',(0xFE),+,ACK,,,
0.88491525,I2C,'251',(0xFB),+,ACK,,,
0.8851315,I2C,'255',(0xFF),+,ACK,,,
0.88534775,I2C,'136',(0x88),+,NAK,,,
0.88572625,I2C,Setup,Write,to,['208',(0xD0)],+,ACK
0.88594275,I2C,C,(0x43),+,ACK,,,
0.886195,I2C,Setup,Read,to,['209',(0xD1)],+,ACK
0.88641125,I2C,'255',(0xFF),+,ACK,,,
0.8866275,I2C,S,(0x53),+,ACK,,,
0.88684375,I2C,'254',(0xFE),+,ACK,,,
0.88706,I2C,'242',(0xF2),+,ACK,,,
0.887276,I2C,'255',(0xFF),+,ACK,,,
0.88749225,I2C,S,(0x53),+,NAK,,,
0.88787075,I2C,Setup,Write,to,['208',(0xD0)],+,ACK
0.888087,I2C,C,(0x43),+,ACK,,,
0.88833925,I2C,Setup,Read,to,['209',(0xD1)],+,ACK
0.8885555,I2C,'255',(0xFF),+,ACK,,,
0.88877175,I2C,k,(0x6B),+,ACK,,,
0.888988,I2C,'254',(0xFE),+,ACK,,,
0.88920425,I2C,'226',(0xE2),+,ACK,,,
0.8894205,I2C,'255',(0xFF),+,ACK,,,
0.88963675,I2C,Z,(0x5A),+,NAK,,,
0.89001525,I2C,Setup,Write,to,['208',(0xD0)],+,ACK
0.8902315,I2C,C,(0x43),+,ACK,,,
0.89048375,I2C,Setup,Read,to,['209',(0xD1)],+,ACK
0.8907,I2C,'255',(0xFF),+,ACK,,,
0.89091625,I2C,q,(0x71),+,ACK,,,
0.8911325,I2C,'254',(0xFE),+,ACK,,,
0.89134875,I2C,'213',(0xD5),+,ACK,,,
0.891565,I2C,'255',(0xFF),+,ACK,,,
0.89178125,I2C,J,(0x4A),+,NAK,,,
0.89215975,I2C,Setup,Write,to,['208',(0xD0)],+,ACK
0.892376,I2C,C,(0x43),+,ACK,,,
0.8926285,I2C,Setup,Read,to,['209',(0xD1)],+,ACK
0.89284475,I2C,'255',(0xFF),+,ACK,,,
0.893061,I2C,'127',(0x7F),+,ACK,,,
0.89327725,I2C,'254',(0xFE),+,ACK,,,
0.8934935,I2C,'232',(0xE8),+,ACK,,,
0.89370975,I2C,'255',(0xFF),+,ACK,,,
0.89392625,I2C,n,(0x6E),+,NAK,,,
0.89430475,I2C,Setup,Write,to,['208',(0xD0)],+,ACK
0.894521,I2C,C,(0x43),+,ACK,,,
0.89477325,I2C,Setup,Read,to,['209',(0xD1)],+,ACK
0.8949895,I2C,'255',(0xFF),+,ACK,,,
0.89520575,I2C,'127',(0x7F),+,ACK,,,
0.895422,I2C,'254',(0xFE),+,ACK,,,
0.89563825,I2C,'242',(0xF2),+,ACK,,,
0.8958545,I2C,'255',(0xFF),+,ACK,,,
0.89607075,I2C,`,(0x60),+,NAK,,,
0.89644925,I2C,Setup,Write,to,['208',(0xD0)],+,ACK
0.8966655,I2C,C,(0x43),+,ACK,,,
0.89691775,I2C,Setup,Read,to,['209',(0xD1)],+,ACK
0.897134,I2C,'255',(0xFF),+,ACK,,,
0.89735025,I2C,d,(0x64),+,ACK,,,
0.8975665,I2C,'254',(0xFE),+,ACK,,,
0.89778275,I2C,'240',(0xF0),+,ACK,,,
0.897999,I2C,'255',(0xFF),+,ACK,,,
0.8982155,I2C,s,(0x73),+,NAK,,,
0.89859375,I2C,Setup,Write,to,['208',(0xD0)],+,ACK
0.89881,I2C,C,(0x43),+,ACK,,,
0.89906225,I2C,Setup,Read,to,['209',(0xD1)],+,ACK
0.8992785,I2C,'255',(0xFF),+,ACK,,,
0.89949475,I2C,p,(0x70),+,ACK,,,
0.899711,I2C,'254',(0xFE),+,ACK,,,
0.89992725,I2C,'225',(0xE1),+,ACK,,,
0.9001435,I2C,'255',(0xFF),+,ACK,,,
0.90035975,I2C,w,(0x77),+,NAK,,,
0.90073825,I2C,Setup,Write,to,['208',(0xD0)],+,ACK
0.9009545,I2C,C,(0x43),+,ACK,,,
0.901207,I2C,Setup,Read,to,['209',(0xD1)],+,ACK
0.90142325,I2C,'255',(0xFF),+,ACK,,,
0.9016395,I2C,'127',(0x7F),+,ACK,,,
0.90185575,I2C,'254',(0xFE),+,ACK,,,
0.902072,I2C,'220',(0xDC),+,ACK,,,
0.90228825,I2C,'255',(0xFF),+,ACK,,,
0.90250475,I2C,a,(0x61),+,NAK,,,
0.902883,I2C,Setup,Write,to,['208',(0xD0)],+,ACK
0.9030995,I2C,C,(0x43),+,ACK,,,
0.90335175,I2C,Setup,Read,to,['209',(0xD1)],+,ACK
0.903568,I2C,'255',(0xFF),+,ACK,,,
0.90378425,I2C,`,(0x60),+,ACK,,,
0.9040005,I2C,'254',(0xFE),+,ACK,,,
0.90421675,I2C,'225',(0xE1),+,ACK,,,
0.90443325,I2C,'255',(0xFF),+,ACK,,,
0.9046495,I2C,i,(0x69),+,NAK,,,
0.905028,I2C,Setup,Write,to,['208',(0xD0)],+,ACK
0.90524425,I2C,C,(0x43),+,ACK,,,
0.9054965,I2C,Setup,Read,to,['209',(0xD1)],+,ACK
0.90571275,I2C,'255',(0xFF),+,ACK,,,
0.905929,I2C,g,(0x67),+,ACK,,,
0.90614525,I2C,'254',(0xFE),+,ACK,,,
0.9063615,I2C,'214',(0xD6),+,ACK,,,
0.906578,I2C,'255',(0xFF),+,ACK,,,
0.90679425,I2C,e,(0x65),+,NAK,,,
0.90717275,I2C,Setup,Write,to,['208',(0xD0)],+,ACK
0.907389,I2C,C,(0x43),+,ACK,,,
0.90764125,I2C,Setup,Read,to,['209',(0xD1)],+,ACK
0.90785775,I2C,'255',(0xFF),+,ACK,,,
0.908074,I2C,b,(0x62),+,ACK,,,
0.90829,I2C,'254',(0xFE),+,ACK,,,
0.90850625,I2C,'234',(0xEA),+,ACK,,,
0.90872275,I2C,'255',(0xFF),+,ACK,,,
0.908939,I2C,d,(0x64),+,NAK,,,
0.9093175,I2C,Setup,Write,to,['208',(0xD0)],+,ACK
0.90953375,I2C,C,(0x43),+,ACK,,,
0.909786,I2C,Setup,Read,to,['209',(0xD1)],+,ACK
0.91000225,I2C,'255',(0xFF),+,ACK,,,
0.9102185,I2C,},(0x7D),+,ACK,,,
0.91043475,I2C,'254',(0xFE),+,ACK,,,
0.91065125,I2C,'227',(0xE3),+,ACK,,,
0.9108675,I2C,'255',(0xFF),+,ACK,,,
0.91108375,I2C,Z,(0x5A),+,NAK,,,
0.91146225,I2C,Setup,Write,to,['208',(0xD0)],+,ACK
0.9116785,I2C,C,(0x43),+,ACK,,,
0.911931,I2C,Setup,Read,to,['209',(0xD1)],+,ACK
0.91214725,I2C,'255',(0xFF),+,ACK,,,
0.9123635,I2C,Y,(0x59),+,ACK,,,
0.91257975,I2C,'254',(0xFE),+,ACK,,,
0.912796,I2C,'249',(0xF9),+,ACK,,,
0.91301225,I2C,'255',(0xFF),+,ACK,,,
0.9132285,I2C,],(0x5D),+,NAK,,,
0.913607,I2C,Setup,Write,to,['208',(0xD0)],+,ACK
0.91382325,I2C,C,(0x43),+,ACK,,,
0.91407575,I2C,Setup,Read,to,['209',(0xD1)],+,ACK
0.914292,I2C,'255',(0xFF),+,ACK,,,
0.91450825,I2C,],(0x5D),+,ACK,,,
0.9147245,I2C,'254',(0xFE),+,ACK,,,
0.91494075,I2C,'239',(0xEF),+,ACK,,,
0.915157,I2C,'255',(0xFF),+,ACK,,,
0.91537325,I2C,s,(0x73),+,NAK,,,
0.91575175,I2C,Setup,Write,to,['208',(0xD0)],+,ACK
0.91596825,I2C,C,(0x43),+,ACK,,,
0.9162205,I2C,Setup,Read,to,['209',(0xD1)],+,ACK
0.91643675,I2C,'255',(0xFF),+,ACK,,,
0.916653,I2C,`,(0x60),+,ACK,,,
0.91686925,I2C,'254',(0xFE),+,ACK,,,
0.9170855,I2C,'226',(0xE2),+,ACK,,,
0.91730175,I2C,'255',(0xFF),+,ACK,,,
0.917518,I2C,v,(0x76),+,NAK,,,
0.9178965,I2C,Setup,Write,to,['208',(0xD0)],+,ACK
0.91811275,I2C,C,(0x43),+,ACK,,,
0.91836525,I2C,Setup,Read,to,['209',(0xD1)],+,ACK
0.9185815,I2C,'255',(0xFF),+,ACK,,,
0.91879775,I2C,|,(0x7C),+,ACK,,,
0.919014,I2C,'254',(0xFE),+,ACK,,,
0.91923025,I2C,'233',(0xE9),+,ACK,,,
0.9194465,I2C,'255',(0xFF),+,ACK,,,
0.91966275,I2C,x,(0x78),+,NAK,,,
0.92004125,I2C,Setup,Write,to,['208',(0xD0)],+,ACK
0.9202575,I2C,C,(0x43),+,ACK,,,
0.92050975,I2C,Setup,Read,to,['209',(0xD1)],+,ACK
0.920726,I2C,'255',(0xFF),+,ACK,,,
0.92094225,I2C,w,(0x77),+,ACK,,,
0.92115875,I2C,'254',(0xFE),+,ACK,,,
0.921375,I2C,'203',(0xCB),+,ACK,,,
0.92159125,I2C,'255',(0xFF),+,ACK,,,
0.9218075,I2C,\,(0x5C),+,NAK,,,
0.922186,I2C,Setup,Write,to,['208',(0xD0)],+,ACK
0.92240225,I2C,C,(0x43),+,ACK,,,
0.9226545,I2C,Setup,Read,to,['209',(0xD1)],+,ACK
0.92287075,I2C,'255',(0xFF),+,ACK,,,
0.923087,I2C,e,(0x65),+,ACK,,,
0.9233035,I2C,'254',(0xFE),+,ACK,,,
0.92351975,I2C,'210',(0xD2),+,ACK,,,
0.923736,I2C,'255',(0xFF),+,ACK,,,
0.92395225,I2C,_,(0x5F),+,NAK,,,
0.92433075,I2C,Setup,Write,to,['208',(0xD0)],+,ACK
0.924547,I2C,C,(0x43),+,ACK,,,
0.92479925,I2C,Setup,Read,to,['209',(0xD1)],+,ACK
0.9250155,I2C,'255',(0xFF),+,ACK,,,
0.92523175,I2C,'128',(0x80),+,ACK,,,
0.92544825,I2C,'254',(0xFE),+,ACK,,,
0.9256645,I2C,'228',(0xE4),+,ACK,,,
0.9258805,I2C,'255',(0xFF),+,ACK,,,
0.92609675,I2C,a,(0x61),+,NAK,,,
0.9264755,I2C,Setup,Write,to,['208',(0xD0)],+,ACK
0.92669175,I2C,C,(0x43),+,ACK,,,
0.926944,I2C,Setup,Read,to,['209',(0xD1)],+,ACK
0.92716025,I2C,'255',(0xFF),+,ACK,,,
0.9273765,I2C,b,(0x62),+,ACK,,,
0.92759275,I2C,'255',(0xFF),+,ACK,,,
0.927809,I2C,'11',(0x0B),+,ACK,,,
0.9280255,I2C,'255',(0xFF),+,ACK,,,
0.92824175,I2C,u,(0x75),+,NAK,,,
0.92862025,I2C,Setup,Write,to,['208',(0xD0)],+,ACK
0.9288365,I2C,C,(0x43),+,ACK,,,
0.929089,I2C,Setup,Read,to,['209',(0xD1)],+,ACK
0.92930525,I2C,'255',(0xFF),+,ACK,,,
0.9295215,I2C,w,(0x77),+,ACK,,,
0.92973775,I2C,'254',(0xFE),+,ACK,,,
0.929954,I2C,'214',(0xD6),+,ACK,,,
0.93017025,I2C,'255',(0xFF),+,ACK,,,
0.9303865,I2C,m,(0x6D),+,NAK,,,
0.930765,I2C,Setup,Write,to,['208',(0xD0)],+,ACK
0.93098125,I2C,C,(0x43),+,ACK,,,
0.9312335,I2C,Setup,Read,to,['209',(0xD1)],+,ACK
0.93144975,I2C,'255',(0xFF),+,ACK,,,
0.93166625,I2C,s,(0x73),+,ACK,,,
0.9318825,I2C,'254',(0xFE),+,ACK,,,
0.93209875,I2C,'239',(0xEF),+,ACK,,,
0.932315,I2C,'255',(0xFF),+,ACK,,,
0.93253125,I2C,d,(0x64),+,NAK,,,
0.93290975,I2C,Setup,Write,to,['208',(0xD0)],+,ACK
0.933126,I2C,C,(0x43),+,ACK,,,
0.93337825,I2C,Setup,Read,to,['209',(0xD1)],+,ACK
0.9335945,I2C,'255',(0xFF),+,ACK,,,
0.93381075,I2C,p,(0x70),+,ACK,,,
0.934027,I2C,'254',(0xFE),+,ACK,,,
0.93424325,I2C,'220',(0xDC),+,ACK,,,
0.9344595,I2C,'255',(0xFF),+,ACK,,,
0.93467575,I2C,r,(0x72),+,NAK,,,
0.93505425,I2C,Setup,Write,to,['208',(0xD0)],+,ACK
0.93527025,I2C,C,(0x43),+,ACK,,,
0.93552275,I2C,Setup,Read,to,['209',(0xD1)],+,ACK
0.93573875,I2C,'255',(0xFF),+,ACK,,,
0.93595525,I2C,'132',(0x84),+,ACK,,,
0.93617125,I2C,'254',(0xFE),+,ACK,,,
0.9363875,I2C,'225',(0xE1),+,ACK,,,
0.93660375,I2C,'255',(0xFF),+,ACK,,,
0.93682,I2C,[,(0x5B),+,NAK,,,
0.93719825,I2C,Setup,Write,to,['208',(0xD0)],+,ACK
0.9374145,I2C,C,(0x43),+,ACK,,,
0.93766675,I2C,Setup,Read,to,['209',(0xD1)],+,ACK
0.93788325,I2C,'255',(0xFF),+,ACK,,,
0.9380995,I2C,'141',(0x8D),+,ACK,,,
0.93831575,I2C,'254',(0xFE),+,ACK,,,
0.938532,I2C,'237',(0xED),+,ACK,,,
0.9387485,I2C,'255',(0xFF),+,ACK,,,
0.93896475,I2C,k,(0x6B),+,NAK,,,
0.93934325,I2C,Setup,Write,to,['208',(0xD0)],+,ACK
0.9395595,I2C,C,(0x43),+,ACK,,,
0.939812,I2C,Setup,Read,to,['209',(0xD1)],+,ACK
0.94002825,I2C,'255',(0xFF),+,ACK,,,
0.9402445,I2C,d,(0x64),+,ACK,,,
0.94046075,I2C,'254',(0xFE),+,ACK,,,
0.940677,I2C,'203',(0xCB),+,ACK,,,
0.94089325,I2C,'255',(0xFF),+,ACK,,,
0.9411095,I2C,p,(0x70),+,NAK,,,
0.941488,I2C,Setup,Write,to,['208',(0xD0)],+,ACK
0.94170425,I2C,C,(0x43),+,ACK,,,
0.9419565,I2C,Setup,Read,to,['209',(0xD1)],+,ACK
0.94217275,I2C,'255',(0xFF),+,ACK,,,
0.942389,I2C,n,(0x6E),+,ACK,,,
0.94260525,I2C,'254',(0xFE),+,ACK,,,
0.9428215,I2C,'239',(0xEF),+,ACK,,,
0.94303775,I2C,'255',(0xFF),+,ACK,,,
0.943254,I2C,Y,(0x59),+,NAK,,,
0.9436325,I2C,Setup,Write,to,['208',(0xD0)],+,ACK
0.94384875,I2C,C,(0x43),+,ACK,,,
0.944101,I2C,Setup,Read,to,['209',(0xD1)],+,ACK
0.9443175,I2C,'255',(0xFF),+,ACK,,,
0.94453375,I2C,k,(0x6B),+,ACK,,,
0.94475,I2C,'254',(0xFE),+,ACK,,,
0.944966,I2C,'219',(0xDB),+,ACK,,,
0.9451825,I2C,'255',(0xFF),+,ACK,,,
0.94539875,I2C,`,(0x60),+,NAK,,,
0.945777,I2C,Setup,Write,to,['208',(0xD0)],+,ACK
0.94599325,I2C,C,(0x43),+,ACK,,,
0.94624575,I2C,Setup,Read,to,['209',(0xD1)],+,ACK
0.94646175,I2C,'255',(0xFF),+,ACK,,,
0.946678,I2C,'132',(0x84),+,ACK,,,
0.94689425,I2C,'255',(0xFF),+,ACK,,,
0.94711075,I2C,'7',(0x07),+,ACK,,,
0.947327,I2C,'255',(0xFF),+,ACK,,,
0.947543,I2C,V,(0x56),+,NAK,,,
0.9479215,I2C,Setup,Write,to,['208',(0xD0)],+,ACK
0.94813775,I2C,C,(0x43),+,ACK,,,
0.94839025,I2C,Setup,Read,to,['209',(0xD1)],+,ACK
0.9486065,I2C,'255',(0xFF),+,ACK,,,
0.94882275,I2C,r,(0x72),+,ACK,,,
0.94903875,I2C,'254',(0xFE),+,ACK,,,
0.94925525,I2C,'220',(0xDC),+,ACK,,,
0.9494715,I2C,'255',(0xFF),+,ACK,,,
0.94968775,I2C,e,(0x65),+,NAK,,,
0.95006625,I2C,Setup,Write,to,['208',(0xD0)],+,ACK
0.9502825,I2C,C,(0x43),+,ACK,,,
0.95053475,I2C,Setup,Read,to,['209',(0xD1)],+,ACK
0.950751,I2C,'255',(0xFF),+,ACK,,,
0.95096725,I2C,'128',(0x80),+,ACK,,,
0.9511835,I2C,'254',(0xFE),+,ACK,,,
0.95139975,I2C,'233',(0xE9),+,ACK,,,
0.951616,I2C,'255',(0xFF),+,ACK,,,
0.95183225,I2C,d,(0x64),+,NAK,,,
0.9522105,I2C,Setup,Write,to,['208',(0xD0)],+,ACK
0.952427,I2C,C,(0x43),+,ACK,,,
0.95267925,I2C,Setup,Read,to,['209',(0xD1)],+,ACK
0.9528955,I2C,'255',(0xFF),+,ACK,,,
0.95311175,I2C,{,(0x7B),+,ACK,,,
0.953328,I2C,'254',(0xFE),+,ACK,,,
0.95354425,I2C,'239',(0xEF),+,ACK,,,
0.9537605,I2C,'255',(0xFF),+,ACK,,,
0.95397675,I2C,_,(0x5F),+,NAK,,,
0.954355,I2C,Setup,Write,to,['208',(0xD0)],+,ACK
0.9545715,I2C,C,(0x43),+,ACK,,,
0.95482375,I2C,Setup,Read,to,['209',(0xD1)],+,ACK
0.95504,I2C,'255',(0xFF),+,ACK,,,
0.95525625,I2C,l,(0x6C),+,ACK,,,
0.95547275,I2C,'254',(0xFE),+,ACK,,,
0.955689,I2C,'220',(0xDC),+,ACK,,,
0.95590525,I2C,'255',(0xFF),+,ACK,,,
0.9561215,I2C,T,(0x54),+,NAK,,,
0.95649975,I2C,Setup,Write,to,['208',(0xD0)],+,ACK
0.95671625,I2C,C,(0x43),+,ACK,,,
0.9569685,I2C,Setup,Read,to,['209',(0xD1)],+,ACK
0.95718475,I2C,'255',(0xFF),+,ACK,,,
0.95740075,I2C,'155',(0x9B),+,ACK,,,
0.95761725,I2C,'254',(0xFE),+,ACK,,,
0.95783325,I2C,'214',(0xD6),+,ACK,,,
0.9580495,I2C,'255',(0xFF),+,ACK,,,
0.95826575,I2C,S,(0x53),+,NAK,,,
0.95864425,I2C,Setup,Write,to,['208',(0xD0)],+,ACK
0.9588605,I2C,C,(0x43),+,ACK,,,
0.95911275,I2C,Setup,Read,to,['209',(0xD1)],+,ACK
0.959329,I2C,'255',(0xFF),+,ACK,,,
0.95954525,I2C,o,(0x6F),+,ACK,,,
0.9597615,I2C,'254',(0xFE),+,ACK,,,
0.95997775,I2C,'200',(0xC8),+,ACK,,,
0.960194,I2C,'255',(0xFF),+,ACK,,,
0.96041,I2C,],(0x5D),+,NAK,,,
0.9607885,I2C,Setup,Write,to,['208',(0xD0)],+,ACK
0.96100475,I2C,C,(0x43),+,ACK,,,
0.96125725,I2C,Setup,Read,to,['209',(0xD1)],+,ACK
0.96147325,I2C,'255',(0xFF),+,ACK,,,
0.9616895,I2C,'131',(0x83),+,ACK,,,
0.961906,I2C,'255',(0xFF),+,ACK,,,
0.96212225,I2C,'19',(0x13),+,ACK,,,
0.9623385,I2C,'255',(0xFF),+,ACK,,,
0.96255475,I2C,],(0x5D),+,NAK,,,
0.96293325,I2C,Setup,Write,to,['208',(0xD0)],+,ACK
0.9631495,I2C,C,(0x43),+,ACK,,,
0.96340175,I2C,Setup,Read,to,['209',(0xD1)],+,ACK
0.963618,I2C,'255',(0xFF),+,ACK,,,
0.96383425,I2C,b,(0x62),+,ACK,,,
0.9640505,I2C,'254',(0xFE),+,ACK,,,
0.96426675,I2C,'219',(0xDB),+,ACK,,,
0.964483,I2C,'255',(0xFF),+,ACK,,,
0.96469925,I2C,X,(0x58),+,NAK,,,
0.96507775,I2C,Setup,Write,to,['208',(0xD0)],+,ACK
0.965294,I2C,C,(0x43),+,ACK,,,
0.96554625,I2C,Setup,Read,to,['209',(0xD1)],+,ACK
0.9657625,I2C,'255',(0xFF),+,ACK,,,
0.96597875,I2C,m,(0x6D),+,ACK,,,
0.966195,I2C,'254',(0xFE),+,ACK,,,
0.96641125,I2C,'238',(0xEE),+,ACK,,,
0.9666275,I2C,'255',(0xFF),+,ACK,,,
0.96684375,I2C,f,(0x66),+,NAK,,,
0.96722225,I2C,Setup,Write,to,['208',(0xD0)],+,ACK
0.96743825,I2C,C,(0x43),+,ACK,,,
0.96769075,I2C,Setup,Read,to,['209',(0xD1)],+,ACK
0.96790675,I2C,'255',(0xFF),+,ACK,,,
0.96812325,I2C,'127',(0x7F),+,ACK,,,
0.9683395,I2C,'254',(0xFE),+,ACK,,,
0.9685555,I2C,'244',(0xF4),+,ACK,,,
0.96877175,I2C,'255',(0xFF),+,ACK,,,
0.96898825,I2C,b,(0x62),+,NAK,,,
0.96936675,I2C,Setup,Write,to,['208',(0xD0)],+,ACK
0.969583,I2C,C,(0x43),+,ACK,,,
0.96983525,I2C,Setup,Read,to,['209',(0xD1)],+,ACK
0.9700515,I2C,'255',(0xFF),+,ACK,,,
0.970268,I2C,d,(0x64),+,ACK,,,
0.97048425,I2C,'254',(0xFE),+,ACK,,,
0.9707005,I2C,'251',(0xFB),+,ACK,,,
0.97091675,I2C,'255',(0xFF),+,ACK,,,
0.97113325,I2C,u,(0x75),+,NAK,,,
0.97151175,I2C,Setup,Write,to,['208',(0xD0)],+,ACK
0.971728,I2C,C,(0x43),+,ACK,,,
0.97198025,I2C,Setup,Read,to,['209',(0xD1)],+,ACK
0.9721965,I2C,'255',(0xFF),+,ACK,,,
0.972413,I2C,_,(0x5F),+,ACK,,,
0.97262925,I2C,'254',(0xFE),+,ACK,,,
0.9728455,I2C,'222',(0xDE),+,ACK,,,
0.97306175,I2C,'255',(0xFF),+,ACK,,,
0.973278,I2C,f,(0x66),+,NAK,,,
0.9736565,I2C,Setup,Write,to,['208',(0xD0)],+,ACK
0.97387275,I2C,C,(0x43),+,ACK,,,
0.974125,I2C,Setup,Read,to,['209',(0xD1)],+,ACK
0.9743415,I2C,'255',(0xFF),+,ACK,,,
0.97455775,I2C,t,(0x74),+,ACK,,,
0.974774,I2C,'254',(0xFE),+,ACK,,,
0.97499025,I2C,'252',(0xFC),+,ACK,,,
0.9752065,I2C,'255',(0xFF),+,ACK,,,
0.97542275,I2C,M,(0x4D),+,NAK,,,
0.97580125,I2C,Setup,Write,to,['208',(0xD0)],+,ACK
0.9760175,I2C,C,(0x43),+,ACK,,,
0.97626975,I2C,Setup,Read,to,['209',(0xD1)],+,ACK
0.97648625,I2C,'255',(0xFF),+,ACK,,,
0.9767025,I2C,u,(0x75),+,ACK,,,
0.97691875,I2C,'254',(0xFE),+,ACK,,,
0.977135,I2C,'213',(0xD5),+,ACK,,,
0.97735125,I2C,'255',(0xFF),+,ACK,,,
0.9775675,I2C,`,(0x60),+,NAK,,,
0.977946,I2C,Setup,Write,to,['208',(0xD0)],+,ACK
0.97816225,I2C,C,(0x43),+,ACK,,,
0.9784145,I2C,Setup,Read,to,['209',(0xD1)],+,ACK
0.97863075,I2C,'255',(0xFF),+,ACK,,,
0.978847,I2C,f,(0x66),+,ACK,,,
0.97906325,I2C,'254',(0xFE),+,ACK,,,
0.9792795,I2C,'229',(0xE5),+,ACK,,,
0.97949575,I2C,'255',(0xFF),+,ACK,,,
0.979712,I2C,Y,(0x59),+,NAK,,,
0.9800905,I2C,Setup,Write,to,['208',(0xD0)],+,ACK
0.98030675,I2C,C,(0x43),+,ACK,,,
0.980559,I2C,Setup,Read,to,['209',(0xD1)],+,ACK
0.98077525,I2C,'255',(0xFF),+,ACK,,,
0.9809915,I2C,],(0x5D),+,ACK,,,
0.98120775,I2C,'254',(0xFE),+,ACK,,,
0.981424,I2C,'252',(0xFC),+,ACK,,,
0.98164025,I2C,'255',(0xFF),+,ACK,,,
0.9818565,I2C,e,(0x65),+,NAK,,,
0.982235,I2C,Setup,Write,to,['208',(0xD0)],+,ACK
0.98245125,I2C,C,(0x43),+,ACK,,,
0.9827035,I2C,Setup,Read,to,['209',(0xD1)],+,ACK
0.98291975,I2C,'255',(0xFF),+,ACK,,,
0.983136,I2C,'129',(0x81),+,ACK,,,
0.98335225,I2C,'254',(0xFE),+,ACK,,,
0.9835685,I2C,'214',(0xD6),+,ACK,,,
0.98378475,I2C,'255',(0xFF),+,ACK,,,
0.984001,I2C,b,(0x62),+,NAK,,,
0.9843795,I2C,Setup,Write,to,['208',(0xD0)],+,ACK
0.98459575,I2C,C,(0x43),+,ACK,,,
0.98484825,I2C,Setup,Read,to,['209',(0xD1)],+,ACK
0.98506425,I2C,'255',(0xFF),+,ACK,,,
0.9852805,I2C,m,(0x6D),+,ACK,,,
0.98549675,I2C,'254',(0xFE),+,ACK,,,
0.985713,I2C,'224',(0xE0),+,ACK,,,
0.98592925,I2C,'255',(0xFF),+,ACK,,,
0.9861455,I2C,n,(0x6E),+,NAK,,,
0.98652375,I2C,Setup,Write,to,['208',(0xD0)],+,ACK
0.98674025,I2C,C,(0x43),+,ACK,,,
0.9869925,I2C,Setup,Read,to,['209',(0xD1)],+,ACK
0.98720875,I2C,'255',(0xFF),+,ACK,,,
0.98742475,I2C,y,(0x79),+,ACK,,,
0.987641,I2C,'254',(0xFE),+,ACK,,,
0.98785725,I2C,'220',(0xDC),+,ACK,,,
0.9880735,I2C,'255',(0xFF),+,ACK,,,
0.98828975,I2C,],(0x5D),+,NAK,,,
0.988668,I2C,Setup,Write,to,['208',(0xD0)],+,ACK
0.98888425,I2C,C,(0x43),+,ACK,,,
0.9891365,I2C,Setup,Read,to,['209',(0xD1)],+,ACK
0.98935275,I2C,'255',(0xFF),+,ACK,,,
0.989569,I2C,'134',(0x86),+,ACK,,,
0.98978525,I2C,'254',(0xFE),+,ACK,,,
0.9900015,I2C,'185',(0xB9),+,ACK,,,
0.99021775,I2C,'255',(0xFF),+,ACK,,,
0.990434,I2C,k,(0x6B),+,NAK,,,
0.99081225,I2C,Setup,Write,to,['208',(0xD0)],+,ACK
0.9910285,I2C,C,(0x43),+,ACK,,,
0.99128075,I2C,Setup,Read,to,['209',(0xD1)],+,ACK
0.991497,I2C,'255',(0xFF),+,ACK,,,
0.99171325,I2C,`,(0x60),+,ACK,,,
0.9919295,I2C,'254',(0xFE),+,ACK,,,
0.99214575,I2C,'220',(0xDC),+,ACK,,,
0.992362,I2C,'255',(0xFF),+,ACK,,,
0.992578,I2C,z,(0x7A),+,NAK,,,
0.9929565,I2C,Setup,Write,to,['208',(0xD0)],+,ACK
0.99317275,I2C,C,(0x43),+,ACK,,,
0.993425,I2C,Setup,Read,to,['209',(0xD1)],+,ACK
0.99364125,I2C,'255',(0xFF),+,ACK,,,
0.9938575,I2C,n,(0x6E),+,ACK,,,
0.99407375,I2C,'254',(0xFE),+,ACK,,,
0.99429,I2C,'248',(0xF8),+,ACK,,,
0.99450625,I2C,'255',(0xFF),+,ACK,,,
0.99472225,I2C,i,(0x69),+,NAK,,,
0.99510075,I2C,Setup,Write,to,['208',(0xD0)],+,ACK
0.995317,I2C,C,(0x43),+,ACK,,,
0.99556925,I2C,Setup,Read,to,['209',(0xD1)],+,ACK
0.9957855,I2C,'255',(0xFF),+,ACK,,,
0.99600175,I2C,q,(0x71),+,ACK,,,
0.996218,I2C,'254',(0xFE),+,ACK,,,
0.99643425,I2C,'232',(0xE8),+,ACK,,,
0.9966505,I2C,'255',(0xFF),+,ACK,,,
0.99686675,I2C,[,(0x5B),+,NAK,,,
0.99724525,I2C,Setup,Write,to,['208',(0xD0)],+,ACK
0.9974615,I2C,C,(0x43),+,ACK,,,
0.99771375,I2C,Setup,Read,to,['209',(0xD1)],+,ACK
0.99793,I2C,'255',(0xFF),+,ACK,,,
0.99814625,I2C,w,(0x77),+,ACK,,,
0.9983625,I2C,'254',(0xFE),+,ACK,,,
0.99857875,I2C,'215',(0xD7),+,ACK,,,
0.998795,I2C,'255',(0xFF),+,ACK,,,
0.99901125,I2C,`,(0x60),+,NAK,,,
0.99938975,I2C,Setup,Write,to,['208',(0xD0)],+,ACK
0.999606,I2C,C,(0x43),+,ACK,,,
0.99985825,I2C,Setup,Read,to,['209',(0xD1)],+,ACK
1.0000745,I2C,'255',(0xFF),+,ACK,,,
1.00029075,I2C,t,(0x74),+,ACK,,,
1.000507,I2C,'254',(0xFE),+,ACK,,,
1.00072325,I2C,'220',(0xDC),+,ACK,,,
1.0009395,I2C,'255',(0xFF),+,ACK,,,
1.00115575,I2C,P,(0x50),+,NAK,,,
1.001534,I2C,Setup,Write,to,['208',(0xD0)],+,ACK
1.00175025,I2C,C,(0x43),+,ACK,,,
1.0020025,I2C,Setup,Read,to,['209',(0xD1)],+,ACK
1.00221875,I2C,'255',(0xFF),+,ACK,,,
1.002435,I2C,'141',(0x8D),+,ACK,,,
1.00265125,I2C,'254',(0xFE),+,ACK,,,
1.0028675,I2C,'246',(0xF6),+,ACK,,,
1.00308375,I2C,'255',(0xFF),+,ACK,,,
1.0033,I2C,\,(0x5C),+,NAK,,,
1.00367825,I2C,Setup,Write,to,['208',(0xD0)],+,ACK
1.0038945,I2C,C,(0x43),+,ACK,,,
1.00414675,I2C,Setup,Read,to,['209',(0xD1)],+,ACK
1.004363,I2C,'255',(0xFF),+,ACK,,,
1.0045795,I2C,{,(0x7B),+,ACK,,,
1.0047955,I2C,'254',(0xFE),+,ACK,,,
1.00501175,I2C,'224',(0xE0),+,ACK,,,
1.005228,I2C,'255',(0xFF),+,ACK,,,
1.00544425,I2C,g,(0x67),+,NAK,,,
1.00582275,I2C,Setup,Write,to,['208',(0xD0)],+,ACK
1.006039,I2C,C,(0x43),+,ACK,,,
1.00629125,I2C,Setup,Read,to,['209',(0xD1)],+,ACK
1.0065075,I2C,'255',(0xFF),+,ACK,,,
1.00672375,I2C,'130',(0x82),+,ACK,,,
1.00694,I2C,'254',(0xFE),+,ACK,,,
1.00715625,I2C,'230',(0xE6),+,ACK,,,
1.0073725,I2C,'255',(0xFF),+,ACK,,,
1.00758875,I2C,],(0x5D),+,NAK,,,
1.00796725,I2C,Setup,Write,to,['208',(0xD0)],+,ACK
1.0081835,I2C,C,(0x43),+,ACK,,,
1.00843575,I2C,Setup,Read,to,['209',(0xD1)],+,ACK
1.008652,I2C,'255',(0xFF),+,ACK,,,
1.00886825,I2C,u,(0x75),+,ACK,,,
1.0090845,I2C,'254',(0xFE),+,ACK,,,
1.00930075,I2C,'209',(0xD1),+,ACK,,,
1.009517,I2C,'255',(0xFF),+,ACK,,,
1.00973325,I2C,d,(0x64),+,NAK,,,
1.01011175,I2C,Setup,Write,to,['208',(0xD0)],+,ACK
1.010328,I2C,C,(0x43),+,ACK,,,
1.01058025,I2C,Setup,Read,to,['209',(0xD1)],+,ACK
1.01079675,I2C,'255',(0xFF),+,ACK,,,
1.01101275,I2C,},(0x7D),+,ACK,,,
1.011229,I2C,'254',(0xFE),+,ACK,,,
1.01144525,I2C,'231',(0xE7),+,ACK,,,
1.01166175,I2C,'255',(0xFF),+,ACK,,,
1.011878,I2C,V,(0x56),+,NAK,,,
1.01225625,I2C,Setup,Write,to,['208',(0xD0)],+,ACK
1.0124725,I2C,C,(0x43),+,ACK,,,
1.012725,I2C,Setup,Read,to,['209',(0xD1)],+,ACK
1.01294125,I2C,'255',(0xFF),+,ACK,,,
1.0131575,I2C,'140',(0x8C),+,ACK,,,
1.01337375,I2C,'254',(0xFE),+,ACK,,,
1.01359,I2C,'229',(0xE5),+,ACK,,,
1.0138065,I2C,'255',(0xFF),+,ACK,,,
1.01402275,I2C,A,(0x41),+,NAK,,,
1.014401,I2C,Setup,Write,to,['208',(0xD0)],+,ACK
1.01461725,I2C,C,(0x43),+,ACK,,,
1.0148695,I2C,Setup,Read,to,['209',(0xD1)],+,ACK
1.01508575,I2C,'255',(0xFF),+,ACK,,,
1.015302,I2C,a,(0x61),+,ACK,,,
1.01551825,I2C,'254',(0xFE),+,ACK,,,
1.0157345,I2C,'225',(0xE1),+,ACK,,,
1.01595075,I2C,'255',(0xFF),+,ACK,,,
1.016167,I2C,P,(0x50),+,NAK,,,
1.0165455,I2C,Setup,Write,to,['208',(0xD0)],+,ACK
1.01676175,I2C,C,(0x43),+,ACK,,,
1.017014,I2C,Setup,Read,to,['209',(0xD1)],+,ACK
1.01723025,I2C,'255',(0xFF),+,ACK,,,
1.0174465,I2C,d,(0x64),+,ACK,,,
1.01766275,I2C,'254',(0xFE),+,ACK,,,
1.01787925,I2C,'237',(0xED),+,ACK,,,
1.01809525,I2C,'255',(0xFF),+,ACK,,,
1.0183115,I2C,e,(0x65),+,NAK,,,
1.01869,I2C,Setup,Write,to,['208',(0xD0)],+,ACK
1.0189065,I2C,C,(0x43),+,ACK,,,
1.01915875,I2C,Setup,Read,to,['209',(0xD1)],+,ACK
1.019375,I2C,'255',(0xFF),+,ACK,,,
1.01959125,I2C,r,(0x72),+,ACK,,,
1.0198075,I2C,'254',(0xFE),+,ACK,,,
1.02002375,I2C,'253',(0xFD),+,ACK,,,
1.02024,I2C,'255',(0xFF),+,ACK,,,
1.02045625,I2C,^,(0x5E),+,NAK,,,
1.02083475,I2C,Setup,Write,to,['208',(0xD0)],+,ACK
1.021051,I2C,C,(0x43),+,ACK,,,
1.02130325,I2C,Setup,Read,to,['209',(0xD1)],+,ACK
1.0215195,I2C,'255',(0xFF),+,ACK,,,
1.02173575,I2C,`,(0x60),+,ACK,,,
1.021952,I2C,'254',(0xFE),+,ACK,,,
1.02216825,I2C,'246',(0xF6),+,ACK,,,
1.0223845,I2C,'255',(0xFF),+,ACK,,,
1.02260075,I2C,h,(0x68),+,NAK,,,
1.02297925,I2C,Setup,Write,to,['208',(0xD0)],+,ACK
1.0231955,I2C,C,(0x43),+,ACK,,,
1.02344775,I2C,Setup,Read,to,['209',(0xD1)],+,ACK
1.023664,I2C,'255',(0xFF),+,ACK,,,
1.02388025,I2C,'139',(0x8B),+,ACK,,,
1.02409675,I2C,'254',(0xFE),+,ACK,,,
1.024313,I2C,'214',(0xD6),+,ACK,,,
1.02452925,I2C,'255',(0xFF),+,ACK,,,
1.0247455,I2C,f,(0x66),+,NAK,,,
1.025124,I2C,Setup,Write,to,['208',(0xD0)],+,ACK
1.02534025,I2C,C,(0x43),+,ACK,,,
1.0255925,I2C,Setup,Read,to,['209',(0xD1)],+,ACK
1.02580875,I2C,'255',(0xFF),+,ACK,,,
1.026025,I2C,m,(0x6D),+,ACK,,,
1.02624125,I2C,'254',(0xFE),+,ACK,,,
1.0264575,I2C,'235',(0xEB),+,ACK,,,
1.02667375,I2C,'255',(0xFF),+,ACK,,,
1.02689,I2C,j,(0x6A),+,NAK,,,
1.02726875,I2C,Setup,Write,to,['208',(0xD0)],+,ACK
1.027485,I2C,C,(0x43),+,ACK,,,
1.02773725,I2C,Setup,Read,to,['209',(0xD1)],+,ACK
1.0279535,I2C,'255',(0xFF),+,ACK,,,
1.02816975,I2C,|,(0x7C),+,ACK,,,
1.028386,I2C,'254',(0xFE),+,ACK,,,
1.02860225,I2C,'234',(0xEA),+,ACK,,,
1.02881875,I2C,'255',(0xFF),+,ACK,,,
1.029035,I2C,R,(0x52),+,NAK,,,
1.0294135,I2C,Setup,Write,to,['208',(0xD0)],+,ACK
1.02963,I2C,C,(0x43),+,ACK,,,
1.02988225,I2C,Setup,Read,to,['209',(0xD1)],+,ACK
1.0300985,I2C,'255',(0xFF),+,ACK,,,
1.03031475,I2C,d,(0x64),+,ACK,,,
1.030531,I2C,'254',(0xFE),+,ACK,,,
1.03074725,I2C,'240',(0xF0),+,ACK,,,
1.0309635,I2C,'255',(0xFF),+,ACK,,,
1.03117975,I2C,U,(0x55),+,NAK,,,
1.03155825,I2C,Setup,Write,to,['208',(0xD0)],+,ACK
1.0317745,I2C,C,(0x43),+,ACK,,,
1.03202675,I2C,Setup,Read,to,['209',(0xD1)],+,ACK
1.03224275,I2C,'255',(0xFF),+,ACK,,,
1.03245925,I2C,'138',(0x8A),+,ACK,,,
1.03267525,I2C,'255',(0xFF),+,ACK,,,
1.0328915,I2C,'0',(0x00),+,ACK,,,
1.03310775,I2C,'255',(0xFF),+,ACK,,,
1.03332425,I2C,V,(0x56),+,NAK,,,
1.03370275,I2C,Setup,Write,to,['208',(0xD0)],+,ACK
1.033919,I2C,C,(0x43),+,ACK,,,
1.03417125,I2C,Setup,Read,to,['209',(0xD1)],+,ACK
1.0343875,I2C,'255',(0xFF),+,ACK,,,
1.03460375,I2C,n,(0x6E),+,ACK,,,
1.03482,I2C,'254',(0xFE),+,ACK,,,
1.03503625,I2C,'228',(0xE4),+,ACK,,,
1.0352525,I2C,'255',(0xFF),+,ACK,,,
1.03546875,I2C,g,(0x67),+,NAK,,,
1.03584725,I2C,Setup,Write,to,['208',(0xD0)],+,ACK
1.0360635,I2C,C,(0x43),+,ACK,,,
1.036316,I2C,Setup,Read,to,['209',(0xD1)],+,ACK
1.036532,I2C,'255',(0xFF),+,ACK,,,
1.0367485,I2C,p,(0x70),+,ACK,,,
1.03696475,I2C,'254',(0xFE),+,ACK,,,
1.037181,I2C,'237',(0xED),+,ACK,,,
1.03739725,I2C,'255',(0xFF),+,ACK,,,
1.0376135,I2C,O,(0x4F),+,NAK,,,
1.037992,I2C,Setup,Write,to,['208',(0xD0)],+,ACK
1.03820825,I2C,C,(0x43),+,ACK,,,
1.0384605,I2C,Setup,Read,to,['209',(0xD1)],+,ACK
1.03867675,I2C,'255',(0xFF),+,ACK,,,
1.038893,I2C,l,(0x6C),+,ACK,,,
1.03910925,I2C,'254',(0xFE),+,ACK,,,
1.0393255,I2C,'226',(0xE2),+,ACK,,,
1.03954175,I2C,'255',(0xFF),+,ACK,,,
1.039758,I2C,j,(0x6A),+,NAK,,,
1.0401365,I2C,Setup,Write,to,['208',(0xD0)],+,ACK
1.04035275,I2C,C,(0x43),+,ACK,,,
1.040605,I2C,Setup,Read,to,['209',(0xD1)],+,ACK
1.04082125,I2C,'255',(0xFF),+,ACK,,,
1.0410375,I2C,'134',(0x86),+,ACK,,,
1.0412535,I2C,'254',(0xFE),+,ACK,,,
1.04146975,I2C,'238',(0xEE),+,ACK,,,
1.041686,I2C,'255',(0xFF),+,ACK,,,
1.04190225,I2C,Z,(0x5A),+,NAK,,,
1.04228075,I2C,Setup,Write,to,['208',(0xD0)],+,ACK
1.042497,I2C,C,(0x43),+,ACK,,,
1.04274925,I2C,Setup,Read,to,['209',(0xD1)],+,ACK
1.04296575,I2C,'255',(0xFF),+,ACK,,,
1.043182,I2C,I,(0x49),+,ACK,,,
1.0433985,I2C,'254',(0xFE),+,ACK,,,
1.04361475,I2C,'235',(0xEB),+,ACK,,,
1.04383125,I2C,'255',(0xFF),+,ACK,,,
1.0440475,I2C,s,(0x73),+,NAK,,,
1.044426,I2C,Setup,Write,to,['208',(0xD0)],+,ACK
1.04464225,I2C,C,(0x43),+,ACK,,,
1.0448945,I2C,Setup,Read,to,['209',(0xD1)],+,ACK
1.045111,I2C,'255',(0xFF),+,ACK,,,
1.04532725,I2C,k,(0x6B),+,ACK,,,
1.0455435,I2C,'254',(0xFE),+,ACK,,,
1.04575975,I2C,'211',(0xD3),+,ACK,,,
1.04597625,I2C,'255',(0xFF),+,ACK,,,
1.04619225,I2C,e,(0x65),+,NAK,,,
1.046571,I2C,Setup,Write,to,['208',(0xD0)],+,ACK
1.04678725,I2C,C,(0x43),+,ACK,,,
1.0470395,I2C,Setup,Read,to,['209',(0xD1)],+,ACK
1.04725575,I2C,'255',(0xFF),+,ACK,,,
1.047472,I2C,r,(0x72),+,ACK,,,
1.04768825,I2C,'254',(0xFE),+,ACK,,,
1.0479045,I2C,'205',(0xCD),+,ACK,,,
1.048121,I2C,'255',(0xFF),+,ACK,,,
1.04833725,I2C,b,(0x62),+,NAK,,,
1.04871575,I2C,Setup,Write,to,['208',(0xD0)],+,ACK
1.04893175,I2C,C,(0x43),+,ACK,,,
1.04918425,I2C,Setup,Read,to,['209',(0xD1)],+,ACK
1.0494005,I2C,'255',(0xFF),+,ACK,,,
1.04961675,I2C,b,(0x62),+,ACK,,,
1.049833,I2C,'254',(0xFE),+,ACK,,,
1.05004925,I2C,'239',(0xEF),+,ACK,,,
1.0502655,I2C,'255',(0xFF),+,ACK,,,
1.05048175,I2C,i,(0x69),+,NAK,,,
1.05086025,I2C,Setup,Write,to,['208',(0xD0)],+,ACK
1.0510765,I2C,C,(0x43),+,ACK,,,
1.05132875,I2C,Setup,Read,to,['209',(0xD1)],+,ACK
1.051545,I2C,'255',(0xFF),+,ACK,,,
1.05176125,I2C,f,(0x66),+,ACK,,,
1.0519775,I2C,'254',(0xFE),+,ACK,,,
1.05219375,I2C,'249',(0xF9),+,ACK,,,
1.05241,I2C,'255',(0xFF),+,ACK,,,
1.05262625,I2C,`,(0x60),+,NAK,,,
1.05300475,I2C,Setup,Write,to,['208',(0xD0)],+,ACK
1.053221,I2C,C,(0x43),+,ACK,,,
1.0534735,I2C,Setup,Read,to,['209',(0xD1)],+,ACK
1.05368975,I2C,'255',(0xFF),+,ACK,,,
1.053906,I2C,s,(0x73),+,ACK,,,
1.05412225,I2C,'254',(0xFE),+,ACK,,,
1.0543385,I2C,'239',(0xEF),+,ACK,,,
1.05455475,I2C,'255',(0xFF),+,ACK,,,
1.054771,I2C,i,(0x69),+,NAK,,,
1.0551495,I2C,Setup,Write,to,['208',(0xD0)],+,ACK
1.05536575,I2C,C,(0x43),+,ACK,,,
1.055618,I2C,Setup,Read,to,['209',(0xD1)],+,ACK
1.05583425,I2C,'255',(0xFF),+,ACK,,,
1.0560505,I2C,`,(0x60),+,ACK,,,
1.05626675,I2C,'254',(0xFE),+,ACK,,,
1.056483,I2C,'235',(0xEB),+,ACK,,,
1.05669925,I2C,'255',(0xFF),+,ACK,,,
1.0569155,I2C,e,(0x65),+,NAK,,,
1.057294,I2C,Setup,Write,to,['208',(0xD0)],+,ACK
1.05751025,I2C,C,(0x43),+,ACK,,,
1.05776275,I2C,Setup,Read,to,['209',(0xD1)],+,ACK
1.05797875,I2C,'255',(0xFF),+,ACK,,,
1.058195,I2C,h,(0x68),+,ACK,,,
1.0584115,I2C,'254',(0xFE),+,ACK,,,
1.05862775,I2C,'204',(0xCC),+,ACK,,,
1.058844,I2C,'255',(0xFF),+,ACK,,,
1.05906025,I2C,r,(0x72),+,NAK,,,
1.0594385,I2C,Setup,Write,to,['208',(0xD0)],+,ACK
1.05965475,I2C,C,(0x43),+,ACK,,,
1.05990725,I2C,Setup,Read,to,['209',(0xD1)],+,ACK
1.0601235,I2C,'255',(0xFF),+,ACK,,,
1.0603395,I2C,'139',(0x8B),+,ACK,,,
1.060556,I2C,'254',(0xFE),+,ACK,,,
1.06077225,I2C,'234',(0xEA),+,ACK,,,
1.0609885,I2C,'255',(0xFF),+,ACK,,,
1.0612045,I2C,x,(0x78),+,NAK,,,
1.06158325,I2C,Setup,Write,to,['208',(0xD0)],+,ACK
1.06179925,I2C,C,(0x43),+,ACK,,,
1.06205175,I2C,Setup,Read,to,['209',(0xD1)],+,ACK
1.06226775,I2C,'255',(0xFF),+,ACK,,,
1.062484,I2C,~,(0x7E),+,ACK,,,
1.0627005,I2C,'254',(0xFE),+,ACK,,,
1.06291675,I2C,'224',(0xE0),+,ACK,,,
1.06313275,I2C,'255',(0xFF),+,ACK,,,
1.063349,I2C,m,(0x6D),+,NAK,,,
1.0637275,I2C,Setup,Write,to,['208',(0xD0)],+,ACK
1.06394375,I2C,C,(0x43),+,ACK,,,
1.064196,I2C,Setup,Read,to,['209',(0xD1)],+,ACK
1.06441225,I2C,'255',(0xFF),+,ACK,,,
1.0646285,I2C,y,(0x79),+,ACK,,,
1.06484475,I2C,'254',(0xFE),+,ACK,,,
1.065061,I2C,'247',(0xF7),+,ACK,,,
1.06527725,I2C,'255',(0xFF),+,ACK,,,
1.0654935,I2C,b,(0x62),+,NAK,,,
1.065872,I2C,Setup,Write,to,['208',(0xD0)],+,ACK
1.06608825,I2C,C,(0x43),+,ACK,,,
1.0663405,I2C,Setup,Read,to,['209',(0xD1)],+,ACK
1.06655675,I2C,'255',(0xFF),+,ACK,,,
1.06677325,I2C,w,(0x77),+,ACK,,,
1.0669895,I2C,'254',(0xFE),+,ACK,,,
1.06720575,I2C,'225',(0xE1),+,ACK,,,
1.067422,I2C,'255',(0xFF),+,ACK,,,
1.06763825,I2C,h,(0x68),+,NAK,,,
1.06801675,I2C,Setup,Write,to,['208',(0xD0)],+,ACK
1.068233,I2C,C,(0x43),+,ACK,,,
1.06848525,I2C,Setup,Read,to,['209',(0xD1)],+,ACK
1.0687015,I2C,'255',(0xFF),+,ACK,,,
1.06891775,I2C,{,(0x7B),+,ACK,,,
1.069134,I2C,'254',(0xFE),+,ACK,,,
1.06935025,I2C,'213',(0xD5),+,ACK,,,
1.0695665,I2C,'255',(0xFF),+,ACK,,,
1.069783,I2C,\,(0x5C),+,NAK,,,
1.07016125,I2C,Setup,Write,to,['208',(0xD0)],+,ACK
1.0703775,I2C,C,(0x43),+,ACK,,,
1.07062975,I2C,Setup,Read,to,['209',(0xD1)],+,ACK
1.070846,I2C,'255',(0xFF),+,ACK,,,
1.0710625,I2C,V,(0x56),+,ACK,,,
1.07127875,I2C,'254',(0xFE),+,ACK,,,
1.071495,I2C,'235',(0xEB),+,ACK,,,
1.07171125,I2C,'255',(0xFF),+,ACK,,,
1.07192775,I2C,f,(0x66),+,NAK,,,
1.07230625,I2C,Setup,Write,to,['208',(0xD0)],+,ACK
1.0725225,I2C,C,(0x43),+,ACK,,,
1.07277475,I2C,Setup,Read,to,['209',(0xD1)],+,ACK
1.072991,I2C,'255',(0xFF),+,ACK,,,
1.07320725,I2C,y,(0x79),+,ACK,,,
1.0734235,I2C,'254',(0xFE),+,ACK,,,
1.07363975,I2C,'255',(0xFF),+,ACK,,,
1.073856,I2C,'255',(0xFF),+,ACK,,,
1.0740725,I2C,X,(0x58),+,NAK,,,
1.07445075,I2C,Setup,Write,to,['208',(0xD0)],+,ACK
1.074667,I2C,C,(0x43),+,ACK,,,
1.07491925,I2C,Setup,Read,to,['209',(0xD1)],+,ACK
1.07513575,I2C,'255',(0xFF),+,ACK,,,
1.075352,I2C,i,(0x69),+,ACK,,,
1.07556825,I2C,'254',(0xFE),+,ACK,,,
1.0757845,I2C,'236',(0xEC),+,ACK,,,
1.07600075,I2C,'255',(0xFF),+,ACK,,,
1.076217,I2C,r,(0x72),+,NAK,,,
1.07659525,I2C,Setup,Write,to,['208',(0xD0)],+,ACK
1.0768115,I2C,C,(0x43),+,ACK,,,
1.077064,I2C,Setup,Read,to,['209',(0xD1)],+,ACK
1.07728025,I2C,'255',(0xFF),+,ACK,,,
1.0774965,I2C,'136',(0x88),+,ACK,,,
1.077713,I2C,'254',(0xFE),+,ACK,,,
1.077929,I2C,'226',(0xE2),+,ACK,,,
1.0781455,I2C,'255',(0xFF),+,ACK,,,
1.07836175,I2C,O,(0x4F),+,NAK,,,
1.07874025,I2C,Setup,Write,to,['208',(0xD0)],+,ACK
1.0789565,I2C,C,(0x43),+,ACK,,,
1.07920875,I2C,Setup,Read,to,['209',(0xD1)],+,ACK
1.07942525,I2C,'255',(0xFF),+,ACK,,,
1.0796415,I2C,e,(0x65),+,ACK,,,
1.07985775,I2C,'254',(0xFE),+,ACK,,,
1.080074,I2C,'203',(0xCB),+,ACK,,,
1.08029025,I2C,'255',(0xFF),+,ACK,,,
1.0805065,I2C,V,(0x56),+,NAK,,,
1.080885,I2C,Setup,Write,to,['208',(0xD0)],+,ACK
1.08110125,I2C,C,(0x43),+,ACK,,,
1.08135375,I2C,Setup,Read,to,['209',(0xD1)],+,ACK
1.08157,I2C,'255',(0xFF),+,ACK,,,
1.08178625,I2C,'127',(0x7F),+,ACK,,,
1.0820025,I2C,'254',(0xFE),+,ACK,,,
1.08221875,I2C,'225',(0xE1),+,ACK,,,
1.082435,I2C,'255',(0xFF),+,ACK,,,
1.08265125,I2C,v,(0x76),+,NAK,,,
1.0830295,I2C,Setup,Write,to,['208',(0xD0)],+,ACK
1.08324575,I2C,C,(0x43),+,ACK,,,
1.08349825,I2C,Setup,Read,to,['209',(0xD1)],+,ACK
1.0837145,I2C,'255',(0xFF),+,ACK,,,
1.08393075,I2C,r,(0x72),+,ACK,,,
1.084147,I2C,'254',(0xFE),+,ACK,,,
1.08436325,I2C,'228',(0xE4),+,ACK,,,
1.0845795,I2C,'255',(0xFF),+,ACK,,,
1.08479575,I2C,`,(0x60),+,NAK,,,
1.08517425,I2C,Setup,Write,to,['208',(0xD0)],+,ACK
1.0853905,I2C,C,(0x43),+,ACK,,,
1.085643,I2C,Setup,Read,to,['209',(0xD1)],+,ACK
1.0858595,I2C,'255',(0xFF),+,ACK,,,
1.08607575,I2C,x,(0x78),+,ACK,,,
1.086292,I2C,'255',(0xFF),+,ACK,,,
1.08650825,I2C,'1',(0x01),+,ACK,,,
1.0867245,I2C,'255',(0xFF),+,ACK,,,
1.08694075,I2C,`,(0x60),+,NAK,,,
1.0873195,I2C,Setup,Write,to,['208',(0xD0)],+,ACK
1.08753575,I2C,C,(0x43),+,ACK,,,
1.08778825,I2C,Setup,Read,to,['209',(0xD1)],+,ACK
1.0880045,I2C,'255',(0xFF),+,ACK,,,
1.08822075,I2C,y,(0x79),+,ACK,,,
1.088437,I2C,'254',(0xFE),+,ACK,,,
1.08865325,I2C,'242',(0xF2),+,ACK,,,
1.0888695,I2C,'255',(0xFF),+,ACK,,,
1.08908575,I2C,L,(0x4C),+,NAK,,,
1.089464,I2C,Setup,Write,to,['208',(0xD0)],+,ACK
1.0896805,I2C,C,(0x43),+,ACK,,,
1.08993275,I2C,Setup,Read,to,['209',(0xD1)],+,ACK
1.090149,I2C,'255',(0xFF),+,ACK,,,
1.09036525,I2C,j,(0x6A),+,ACK,,,
1.0905815,I2C,'254',(0xFE),+,ACK,,,
1.09079775,I2C,'227',(0xE3),+,ACK,,,
1.091014,I2C,'255',(0xFF),+,ACK,,,
1.09123025,I2C,d,(0x64),+,NAK,,,
1.0916085,I2C,Setup,Write,to,['208',(0xD0)],+,ACK
1.091825,I2C,C,(0x43),+,ACK,,,
1.0920775,I2C,Setup,Read,to,['209',(0xD1)],+,ACK
1.09229375,I2C,'255',(0xFF),+,ACK,,,
1.09251,I2C,'146',(0x92),+,ACK,,,
1.09272625,I2C,'254',(0xFE),+,ACK,,,
1.0929425,I2C,'234',(0xEA),+,ACK,,,
1.09315875,I2C,'255',(0xFF),+,ACK,,,
1.093375,I2C,'129',(0x81),+,NAK,,,
1.0937535,I2C,Setup,Write,to,['208',(0xD0)],+,ACK
1.09396975,I2C,C,(0x43),+,ACK,,,
1.09422225,I2C,Setup,Read,to,['209',(0xD1)],+,ACK
1.0944385,I2C,'255',(0xFF),+,ACK,,,
1.09465475,I2C,p,(0x70),+,ACK,,,
1.094871,I2C,'254',(0xFE),+,ACK,,,
1.09508725,I2C,'234',(0xEA),+,ACK,,,
1.09530375,I2C,'255',(0xFF),+,ACK,,,
1.09552,I2C,b,(0x62),+,NAK,,,
1.09589875,I2C,Setup,Write,to,['208',(0xD0)],+,ACK
1.096115,I2C,C,(0x43),+,ACK,,,
1.09636725,I2C,Setup,Read,to,['209',(0xD1)],+,ACK
1.0965835,I2C,'255',(0xFF),+,ACK,,,
1.09679975,I2C,u,(0x75),+,ACK,,,
1.097016,I2C,'254',(0xFE),+,ACK,,,
1.09723225,I2C,'233',(0xE9),+,ACK,,,
1.0974485,I2C,'255',(0xFF),+,ACK,,,
1.09766475,I2C,p,(0x70),+,NAK,,,
1.09804325,I2C,Setup,Write,to,['208',(0xD0)],+,ACK
1.0982595,I2C,C,(0x43),+,ACK,,,
1.09851175,I2C,Setup,Read,to,['209',(0xD1)],+,ACK
1.098728,I2C,'255',(0xFF),+,ACK,,,
1.09894425,I2C,a,(0x61),+,ACK,,,
1.0991605,I2C,'254',(0xFE),+,ACK,,,
1.09937675,I2C,'237',(0xED),+,ACK,,,
1.09959275,I2C,'255',(0xFF),+,ACK,,,
1.099809,I2C,O,(0x4F),+,NAK,,,
1.1001875,I2C,Setup,Write,to,['208',(0xD0)],+,ACK
1.10040375,I2C,C,(0x43),+,ACK,,,
1.100656,I2C,Setup,Read,to,['209',(0xD1)],+,ACK
1.10087225,I2C,'255',(0xFF),+,ACK,,,
1.1010885,I2C,n,(0x6E),+,ACK,,,
1.10130475,I2C,'254',(0xFE),+,ACK,,,
1.101521,I2C,'228',(0xE4),+,ACK,,,
1.10173725,I2C,'255',(0xFF),+,ACK,,,
1.1019535,I2C,_,(0x5F),+,NAK,,,
1.102332,I2C,Setup,Write,to,['208',(0xD0)],+,ACK
1.10254825,I2C,C,(0x43),+,ACK,,,
1.1028005,I2C,Setup,Read,to,['209',(0xD1)],+,ACK
1.10301675,I2C,'255',(0xFF),+,ACK,,,
1.103233,I2C,o,(0x6F),+,ACK,,,
1.10344925,I2C,'254',(0xFE),+,ACK,,,
1.1036655,I2C,'221',(0xDD),+,ACK,,,
1.10388175,I2C,'255',(0xFF),+,ACK,,,
1.10409825,I2C,v,(0x76),+,NAK,,,
1.10447675,I2C,Setup,Write,to,['208',(0xD0)],+,ACK
1.104693,I2C,C,(0x43),+,ACK,,,
1.10494525,I2C,Setup,Read,to,['209',(0xD1)],+,ACK
1.1051615,I2C,'255',(0xFF),+,ACK,,,
1.10537775,I2C,\,(0x5C),+,ACK,,,
1.105594,I2C,'254',(0xFE),+,ACK,,,
1.10581025,I2C,'240',(0xF0),+,ACK,,,
1.1060265,I2C,'255',(0xFF),+,ACK,,,
1.106243,I2C,e,(0x65),+,NAK,,,
1.10662175,I2C,Setup,Write,to,['208',(0xD0)],+,ACK
1.106838,I2C,C,(0x43),+,ACK,,,
1.10709025,I2C,Setup,Read,to,['209',(0xD1)],+,ACK
1.1073065,I2C,'255',(0xFF),+,ACK,,,
1.107523,I2C,x,(0x78),+,ACK,,,
1.10773925,I2C,'254',(0xFE),+,ACK,,,
1.1079555,I2C,'227',(0xE3),+,ACK,,,
1.10817175,I2C,'255',(0xFF),+,ACK,,,
1.10838825,I2C,j,(0x6A),+,NAK,,,
1.10876675,I2C,Setup,Write,to,['208',(0xD0)],+,ACK
1.108983,I2C,C,(0x43),+,ACK,,,
1.10923525,I2C,Setup,Read,to,['209',(0xD1)],+,ACK
1.1094515,I2C,'255',(0xFF),+,ACK,,,
1.10966775,I2C,S,(0x53),+,ACK,,,
1.109884,I2C,'254',(0xFE),+,ACK,,,
1.11010025,I2C,'229',(0xE5),+,ACK,,,
1.11031675,I2C,'255',(0xFF),+,ACK,,,
1.110533,I2C,h,(0x68),+,NAK,,,
1.1109115,I2C,Setup,Write,to,['208',(0xD0)],+,ACK
1.1111275,I2C,C,(0x43),+,ACK,,,
1.11138,I2C,Setup,Read,to,['209',(0xD1)],+,ACK
1.11159625,I2C,'255',(0xFF),+,ACK,,,
1.1118125,I2C,t,(0x74),+,ACK,,,
1.11202875,I2C,'254',(0xFE),+,ACK,,,
1.112245,I2C,'221',(0xDD),+,ACK,,,
1.1124615,I2C,'255',(0xFF),+,ACK,,,
1.11267775,I2C,O,(0x4F),+,NAK,,,
1.113056,I2C,Setup,Write,to,['208',(0xD0)],+,ACK
1.11327225,I2C,C,(0x43),+,ACK,,,
1.1135245,I2C,Setup,Read,to,['209',(0xD1)],+,ACK
1.113741,I2C,'255',(0xFF),+,ACK,,,
1.11395725,I2C,i,(0x69),+,ACK,,,
1.1141735,I2C,'254',(0xFE),+,ACK,,,
1.11438975,I2C,'218',(0xDA),+,ACK,,,
1.114606,I2C,'255',(0xFF),+,ACK,,,
1.11482225,I2C,e,(0x65),+,NAK,,,
1.11520075,I2C,Setup,Write,to,['208',(0xD0)],+,ACK
1.115417,I2C,C,(0x43),+,ACK,,,
1.11566925,I2C,Setup,Read,to,['209',(0xD1)],+,ACK
1.11588575,I2C,'255',(0xFF),+,ACK,,,
1.116102,I2C,b,(0x62),+,ACK,,,
1.11631825,I2C,'254',(0xFE),+,ACK,,,
1.1165345,I2C,'236',(0xEC),+,ACK,,,
1.116751,I2C,'255',(0xFF),+,ACK,,,
1.11696725,I2C,n,(0x6E),+,NAK,,,
1.11734575,I2C,Setup,Write,to,['208',(0xD0)],+,ACK
1.117562,I2C,C,(0x43),+,ACK,,,
1.1178145,I2C,Setup,Read,to,['209',(0xD1)],+,ACK
1.11803075,I2C,'255',(0xFF),+,ACK,,,
1.118247,I2C,v,(0x76),+,ACK,,,
1.11846325,I2C,'255',(0xFF),+,ACK,,,
1.11867975,I2C,\n,(0x0A),+,ACK,,,
1.118896,I2C,'255',(0xFF),+,ACK,,,
1.11911225,I2C,d,(0x64),+,NAK,,,
1.11949075,I2C,Setup,Write,to,['208',(0xD0)],+,ACK
1.119707,I2C,C,(0x43),+,ACK,,,
1.1199595,I2C,Setup,Read,to,['209',(0xD1)],+,ACK
1.12017575,I2C,'255',(0xFF),+,ACK,,,
1.120392,I2C,c,(0x63),+,ACK,,,
1.12060825,I2C,'254',(0xFE),+,ACK,,,
1.1208245,I2C,'243',(0xF3),+,ACK,,,
1.12104075,I2C,'255',(0xFF),+,ACK,,,
1.121257,I2C,d,(0x64),+,NAK,,,
1.1216355,I2C,Setup,Write,to,['208',(0xD0)],+,ACK
1.12185175,I2C,C,(0x43),+,ACK,,,
1.12210425,I2C,Setup,Read,to,['209',(0xD1)],+,ACK
1.12232025,I2C,'255',(0xFF),+,ACK,,,
1.1225365,I2C,S,(0x53),+,ACK,,,
1.12275275,I2C,'254',(0xFE),+,ACK,,,
1.122969,I2C,'213',(0xD5),+,ACK,,,
1.12318525,I2C,'255',(0xFF),+,ACK,,,
1.1234015,I2C,_,(0x5F),+,NAK,,,
1.12378,I2C,Setup,Write,to,['208',(0xD0)],+,ACK
1.12399625,I2C,C,(0x43),+,ACK,,,
1.12424875,I2C,Setup,Read,to,['209',(0xD1)],+,ACK
1.12446475,I2C,'255',(0xFF),+,ACK,,,
1.124681,I2C,'131',(0x83),+,ACK,,,
1.12489725,I2C,'254',(0xFE),+,ACK,,,
1.12511375,I2C,'245',(0xF5),+,ACK,,,
1.12533,I2C,'255',(0xFF),+,ACK,,,
1.12554625,I2C,t,(0x74),+,NAK,,,
1.1259245,I2C,Setup,Write,to,['208',(0xD0)],+,ACK
1.126141,I2C,C,(0x43),+,ACK,,,
1.12639325,I2C,Setup,Read,to,['209',(0xD1)],+,ACK
1.1266095,I2C,'255',(0xFF),+,ACK,,,
1.12682575,I2C,u,(0x75),+,ACK,,,
1.127042,I2C,'254',(0xFE),+,ACK,,,
1.12725825,I2C,'218',(0xDA),+,ACK,,,
1.1274745,I2C,'255',(0xFF),+,ACK,,,
1.12769075,I2C,a,(0x61),+,NAK,,,
1.12806925,I2C,Setup,Write,to,['208',(0xD0)],+,ACK
1.1282855,I2C,C,(0x43),+,ACK,,,
1.128538,I2C,Setup,Read,to,['209',(0xD1)],+,ACK
1.12875425,I2C,'255',(0xFF),+,ACK,,,
1.1289705,I2C,{,(0x7B),+,ACK,,,
1.12918675,I2C,'254',(0xFE),+,ACK,,,
1.12940325,I2C,'212',(0xD4),+,ACK,,,
1.1296195,I2C,'255',(0xFF),+,ACK,,,
1.12983575,I2C,h,(0x68),+,NAK,,,
1.13021425,I2C,Setup,Write,to,['208',(0xD0)],+,ACK
1.1304305,I2C,C,(0x43),+,ACK,,,
1.13068275,I2C,Setup,Read,to,['209',(0xD1)],+,ACK
1.130899,I2C,'255',(0xFF),+,ACK,,,
1.13111525,I2C,{,(0x7B),+,ACK,,,
1.13133175,I2C,'254',(0xFE),+,ACK,,,
1.131548,I2C,'214',(0xD6),+,ACK,,,
1.13176425,I2C,'255',(0xFF),+,ACK,,,
1.13198025,I2C,^,(0x5E),+,NAK,,,
1.132359,I2C,Setup,Write,to,['208',(0xD0)],+,ACK
1.13257525,I2C,C,(0x43),+,ACK,,,
1.1328275,I2C,Setup,Read,to,['209',(0xD1)],+,ACK
1.13304375,I2C,'255',(0xFF),+,ACK,,,
1.13326,I2C,'151',(0x97),+,ACK,,,
1.1334765,I2C,'254',(0xFE),+,ACK,,,
1.13369275,I2C,'230',(0xE6),+,ACK,,,
1.13390875,I2C,'255',(0xFF),+,ACK,,,
1.134125,I2C,a,(0x61),+,NAK,,,
1.1345035,I2C,Setup,Write,to,['208',(0xD0)],+,ACK
1.13471975,I2C,C,(0x43),+,ACK,,,
1.13497225,I2C,Setup,Read,to,['209',(0xD1)],+,ACK
1.1351885,I2C,'255',(0xFF),+,ACK,,,
1.13540475,I2C,c,(0x63),+,ACK,,,
1.135621,I2C,'254',(0xFE),+,ACK,,,
1.13583725,I2C,'222',(0xDE),+,ACK,,,
1.1360535,I2C,'255',(0xFF),+,ACK,,,
1.13626975,I2C,O,(0x4F),+,NAK,,,
1.13664825,I2C,Setup,Write,to,['208',(0xD0)],+,ACK
1.1368645,I2C,C,(0x43),+,ACK,,,
1.13711675,I2C,Setup,Read,to,['209',(0xD1)],+,ACK
1.137333,I2C,'255',(0xFF),+,ACK,,,
1.1375495,I2C,q,(0x71),+,ACK,,,
1.13776575,I2C,'254',(0xFE),+,ACK,,,
1.137982,I2C,'246',(0xF6),+,ACK,,,
1.13819825,I2C,'255',(0xFF),+,ACK,,,
1.1384145,I2C,k,(0x6B),+,NAK,,,
1.138793,I2C,Setup,Write,to,['208',(0xD0)],+,ACK
1.13900925,I2C,C,(0x43),+,ACK,,,
1.1392615,I2C,Setup,Read,to,['209',(0xD1)],+,ACK
1.13947775,I2C,'255',(0xFF),+,ACK,,,
1.13969425,I2C,X,(0x58),+,ACK,,,
1.1399105,I2C,'254',(0xFE),+,ACK,,,
1.14012675,I2C,'238',(0xEE),+,ACK,,,
1.140343,I2C,'255',(0xFF),+,ACK,,,
1.14055925,I2C,v,(0x76),+,NAK,,,
1.14093775,I2C,Setup,Write,to,['208',(0xD0)],+,ACK
1.141154,I2C,C,(0x43),+,ACK,,,
1.14140625,I2C,Setup,Read,to,['209',(0xD1)],+,ACK
1.1416225,I2C,'255',(0xFF),+,ACK,,,
1.14183875,I2C,'131',(0x83),+,ACK,,,
1.142055,I2C,'254',(0xFE),+,ACK,,,
1.14227125,I2C,'229',(0xE5),+,ACK,,,
1.1424875,I2C,'255',(0xFF),+,ACK,,,
1.142704,I2C,[,(0x5B),+,NAK,,,
1.1430825,I2C,Setup,Write,to,['208',(0xD0)],+,ACK
1.14329875,I2C,C,(0x43),+,ACK,,,
1.143551,I2C,Setup,Read,to,['209',(0xD1)],+,ACK
1.1437675,I2C,'255',(0xFF),+,ACK,,,
1.14398375,I2C,q,(0x71),+,ACK,,,
1.1442,I2C,'254',(0xFE),+,ACK,,,
1.14441625,I2C,'216',(0xD8),+,ACK,,,
1.1446325,I2C,'255',(0xFF),+,ACK,,,
1.14484875,I2C,[,(0x5B),+,NAK,,,
1.14522725,I2C,Setup,Write,to,['208',(0xD0)],+,ACK
1.1454435,I2C,C,(0x43),+,ACK,,,
1.14569575,I2C,Setup,Read,to,['209',(0xD1)],+,ACK
1.14591225,I2C,'255',(0xFF),+,ACK,,,
1.1461285,I2C,g,(0x67),+,ACK,,,
1.14634475,I2C,'254',(0xFE),+,ACK,,,
1.146561,I2C,'180',(0xB4),+,ACK,,,
1.14677725,I2C,'255',(0xFF),+,ACK,,,
1.1469935,I2C,T,(0x54),+,NAK,,,
1.147372,I2C,Setup,Write,to,['208',(0xD0)],+,ACK
1.14758825,I2C,C,(0x43),+,ACK,,,
1.1478405,I2C,Setup,Read,to,['209',(0xD1)],+,ACK
1.148057,I2C,'255',(0xFF),+,ACK,,,
1.14827325,I2C,v,(0x76),+,ACK,,,
1.14848925,I2C,'254',(0xFE),+,ACK,,,
1.1487055,I2C,'205',(0xCD),+,ACK,,,
1.148922,I2C,'255',(0xFF),+,ACK,,,
1.14913825,I2C,R,(0x52),+,NAK,,,
1.1495165,I2C,Setup,Write,to,['208',(0xD0)],+,ACK
1.14973275,I2C,C,(0x43),+,ACK,,,
1.14998525,I2C,Setup,Read,to,['209',(0xD1)],+,ACK
1.1502015,I2C,'255',(0xFF),+,ACK,,,
1.15041775,I2C,n,(0x6E),+,ACK,,,
1.150634,I2C,'254',(0xFE),+,ACK,,,
1.15085025,I2C,'246',(0xF6),+,ACK,,,
1.1510665,I2C,'255',(0xFF),+,ACK,,,
1.15128275,I2C,n,(0x6E),+,NAK,,,
1.15166125,I2C,Setup,Write,to,['208',(0xD0)],+,ACK
1.1518775,I2C,C,(0x43),+,ACK,,,
1.15212975,I2C,Setup,Read,to,['209',(0xD1)],+,ACK
1.152346,I2C,'255',(0xFF),+,ACK,,,
1.15256225,I2C,p,(0x70),+,ACK,,,
1.15277825,I2C,'254',(0xFE),+,ACK,,,
1.15299475,I2C,'254',(0xFE),+,ACK,,,
1.153211,I2C,'255',(0xFF),+,ACK,,,
1.153427,I2C,q,(0x71),+,NAK,,,
1.1538055,I2C,Setup,Write,to,['208',(0xD0)],+,ACK
1.15402175,I2C,C,(0x43),+,ACK,,,
1.154274,I2C,Setup,Read,to,['209',(0xD1)],+,ACK
1.15449025,I2C,'255',(0xFF),+,ACK,,,
1.15470625,I2C,'137',(0x89),+,ACK,,,
1.1549225,I2C,'254',(0xFE),+,ACK,,,
1.15513875,I2C,'236',(0xEC),+,ACK,,,
1.155355,I2C,'255',(0xFF),+,ACK,,,
1.15557125,I2C,c,(0x63),+,NAK,,,
1.1559495,I2C,Setup,Write,to,['208',(0xD0)],+,ACK
1.156166,I2C,C,(0x43),+,ACK,,,
1.15641825,I2C,Setup,Read,to,['209',(0xD1)],+,ACK
1.15663425,I2C,'255',(0xFF),+,ACK,,,
1.1568505,I2C,'143',(0x8F),+,ACK,,,
1.15706675,I2C,'254',(0xFE),+,ACK,,,
1.15728325,I2C,'238',(0xEE),+,ACK,,,
1.1574995,I2C,'255',(0xFF),+,ACK,,,
1.15771575,I2C,m,(0x6D),+,NAK,,,
1.15809425,I2C,Setup,Write,to,['208',(0xD0)],+,ACK
1.1583105,I2C,C,(0x43),+,ACK,,,
1.15856275,I2C,Setup,Read,to,['209',(0xD1)],+,ACK
1.158779,I2C,'255',(0xFF),+,ACK,,,
1.15899525,I2C,n,(0x6E),+,ACK,,,
1.1592115,I2C,'254',(0xFE),+,ACK,,,
1.15942775,I2C,'244',(0xF4),+,ACK,,,
1.159644,I2C,'255',(0xFF),+,ACK,,,
1.15986025,I2C,a,(0x61),+,NAK,,,
1.16023875,I2C,Setup,Write,to,['208',(0xD0)],+,ACK
1.160455,I2C,C,(0x43),+,ACK,,,
1.1607075,I2C,Setup,Read,to,['209',(0xD1)],+,ACK
1.16092375,I2C,'255',(0xFF),+,ACK,,,
1.16114,I2C,~,(0x7E),+,ACK,,,
1.16135625,I2C,'254',(0xFE),+,ACK,,,
1.1615725,I2C,'231',(0xE7),+,ACK,,,
1.16178875,I2C,'255',(0xFF),+,ACK,,,
1.162005,I2C,v,(0x76),+,NAK,,,
1.16238325,I2C,Setup,Write,to,['208',(0xD0)],+,ACK
1.16259975,I2C,C,(0x43),+,ACK,,,
1.162852,I2C,Setup,Read,to,['209',(0xD1)],+,ACK
1.16306825,I2C,'255',(0xFF),+,ACK,,,
1.1632845,I2C,m,(0x6D),+,ACK,,,
1.16350075,I2C,'254',(0xFE),+,ACK,,,
1.163717,I2C,'222',(0xDE),+,ACK,,,
1.16393325,I2C,'255',(0xFF),+,ACK,,,
1.1641495,I2C,S,(0x53),+,NAK,,,
1.164528,I2C,Setup,Write,to,['208',(0xD0)],+,ACK
1.16474425,I2C,C,(0x43),+,ACK,,,
1.1649965,I2C,Setup,Read,to,['209',(0xD1)],+,ACK
1.16521275,I2C,'255',(0xFF),+,ACK,,,
1.165429,I2C,v,(0x76),+,ACK,,,
1.16564525,I2C,'254',(0xFE),+,ACK,,,
1.1658615,I2C,'225',(0xE1),+,ACK,,,
1.1660775,I2C,'255',(0xFF),+,ACK,,,
1.16629375,I2C,},(0x7D),+,NAK,,,
1.16667225,I2C,Setup,Write,to,['208',(0xD0)],+,ACK
1.1668885,I2C,C,(0x43),+,ACK,,,
1.1671405,I2C,Setup,Read,to,['209',(0xD1)],+,ACK
1.16735675,I2C,'255',(0xFF),+,ACK,,,
1.167573,I2C,`,(0x60),+,ACK,,,
1.16778925,I2C,'254',(0xFE),+,ACK,,,
1.16800525,I2C,'211',(0xD3),+,ACK,,,
1.1682215,I2C,'255',(0xFF),+,ACK,,,
1.16843775,I2C,d,(0x64),+,NAK,,,
1.168816,I2C,Setup,Write,to,['208',(0xD0)],+,ACK
1.16903225,I2C,C,(0x43),+,ACK,,,
1.16928425,I2C,Setup,Read,to,['209',(0xD1)],+,ACK
1.1695005,I2C,'255',(0xFF),+,ACK,,,
1.16971675,I2C,p,(0x70),+,ACK,,,
1.169933,I2C,'254',(0xFE),+,ACK,,,
1.170149,I2C,'225',(0xE1),+,ACK,,,
1.17036525,I2C,'255',(0xFF),+,ACK,,,
1.1705815,I2C,`,(0x60),+,NAK,,,
1.17095975,I2C,Setup,Write,to,['208',(0xD0)],+,ACK
1.171176,I2C,C,(0x43),+,ACK,,,
1.1714285,I2C,Setup,Read,to,['209',(0xD1)],+,ACK
1.17164475,I2C,'255',(0xFF),+,ACK,,,
1.171861,I2C,k,(0x6B),+,ACK,,,
1.17207725,I2C,'255',(0xFF),+,ACK,,,
1.1722935,I2C,\r,(0x0D),+,ACK,,,
1.1725095,I2C,'255',(0xFF),+,ACK,,,
1.172726,I2C,u,(0x75),+,NAK,,,
1.17310425,I2C,Setup,Write,to,['208',(0xD0)],+,ACK
1.1733205,I2C,C,(0x43),+,ACK,,,
1.17357275,I2C,Setup,Read,to,['209',(0xD1)],+,ACK
1.173789,I2C,'255',(0xFF),+,ACK,,,
1.17400525,I2C,'128',(0x80),+,ACK,,,
1.17422125,I2C,'255',(0xFF),+,ACK,,,
1.1744375,I2C,'4',(0x04),+,ACK,,,
1.17465375,I2C,'255',(0xFF),+,ACK,,,
1.17487,I2C,c,(0x63),+,NAK,,,
1.17524825,I2C,Setup,Write,to,['208',(0xD0)],+,ACK
1.1754645,I2C,C,(0x43),+,ACK,,,
1.17571675,I2C,Setup,Read,to,['209',(0xD1)],+,ACK
1.175933,I2C,'255',(0xFF),+,ACK,,,
1.1761495,I2C,q,(0x71),+,ACK,,,
1.1763655,I2C,'254',(0xFE),+,ACK,,,
1.17658175,I2C,'216',(0xD8),+,ACK,,,
1.176798,I2C,'255',(0xFF),+,ACK,,,
1.17701425,I2C,m,(0x6D),+,NAK,,,
1.17739275,I2C,Setup,Write,to,['208',(0xD0)],+,ACK
1.17760925,I2C,C,(0x43),+,ACK,,,
1.1778615,I2C,Setup,Read,to,['209',(0xD1)],+,ACK
1.17807775,I2C,'255',(0xFF),+,ACK,,,
1.178294,I2C,l,(0x6C),+,ACK,,,
1.17851025,I2C,'254',(0xFE),+,ACK,,,
1.1787265,I2C,'223',(0xDF),+,ACK,,,
1.17894275,I2C,'255',(0xFF),+,ACK,,,
1.179159,I2C,},(0x7D),+,NAK,,,
1.1795375,I2C,Setup,Write,to,['208',(0xD0)],+,ACK
1.17975375,I2C,C,(0x43),+,ACK,,,
1.180006,I2C,Setup,Read,to,['209',(0xD1)],+,ACK
1.1802225,I2C,'255',(0xFF),+,ACK,,,
1.18043875,I2C,k,(0x6B),+,ACK,,,
1.180655,I2C,'254',(0xFE),+,ACK,,,
1.18087125,I2C,'212',(0xD4),+,ACK,,,
1.1810875,I2C,'255',(0xFF),+,ACK,,,
1.18130375,I2C,g,(0x67),+,NAK,,,
1.18168225,I2C,Setup,Write,to,['208',(0xD0)],+,ACK
1.18189825,I2C,C,(0x43),+,ACK,,,
1.18215075,I2C,Setup,Read,to,['209',(0xD1)],+,ACK
1.182367,I2C,'255',(0xFF),+,ACK,,,
1.18258325,I2C,'131',(0x83),+,ACK,,,
1.1827995,I2C,'254',(0xFE),+,ACK,,,
1.1830155,I2C,'226',(0xE2),+,ACK,,,
1.183232,I2C,'255',(0xFF),+,ACK,,,
1.18344825,I2C,^,(0x5E),+,NAK,,,
1.1838265,I2C,Setup,Write,to,['208',(0xD0)],+,ACK
1.18404275,I2C,C,(0x43),+,ACK,,,
1.184295,I2C,Setup,Read,to,['209',(0xD1)],+,ACK
1.1845115,I2C,'255',(0xFF),+,ACK,,,
1.18472775,I2C,d,(0x64),+,ACK,,,
1.18494375,I2C,'254',(0xFE),+,ACK,,,
1.18516,I2C,'222',(0xDE),+,ACK,,,
1.1853765,I2C,'255',(0xFF),+,ACK,,,
1.1855925,I2C,h,(0x68),+,NAK,,,
1.185971,I2C,Setup,Write,to,['208',(0xD0)],+,ACK
1.18618725,I2C,C,(0x43),+,ACK,,,
1.1864395,I2C,Setup,Read,to,['209',(0xD1)],+,ACK
1.18665575,I2C,'255',(0xFF),+,ACK,,,
1.186872,I2C,'144',(0x90),+,ACK,,,
1.18708825,I2C,'254',(0xFE),+,ACK,,,
1.1873045,I2C,'247',(0xF7),+,ACK,,,
1.18752075,I2C,'255',(0xFF),+,ACK,,,
1.187737,I2C,^,(0x5E),+,NAK,,,
1.18811525,I2C,Setup,Write,to,['208',(0xD0)],+,ACK
1.1883315,I2C,C,(0x43),+,ACK,,,
1.188584,I2C,Setup,Read,to,['209',(0xD1)],+,ACK
1.18880025,I2C,'255',(0xFF),+,ACK,,,
1.1890165,I2C,h,(0x68),+,ACK,,,
1.18923275,I2C,'254',(0xFE),+,ACK,,,
1.189449,I2C,'247',(0xF7),+,ACK,,,
1.18966525,I2C,'255',(0xFF),+,ACK,,,
1.1898815,I2C,^,(0x5E),+,NAK,,,
1.19025975,I2C,Setup,Write,to,['208',(0xD0)],+,ACK
1.19047625,I2C,C,(0x43),+,ACK,,,
1.1907285,I2C,Setup,Read,to,['209',(0xD1)],+,ACK
1.1909445,I2C,'255',(0xFF),+,ACK,,,
1.19116075,I2C,x,(0x78),+,ACK,,,
1.191377,I2C,'255',(0xFF),+,ACK,,,
1.19159325,I2C,'5',(0x05),+,ACK,,,
1.1918095,I2C,'255',(0xFF),+,ACK,,,
1.19202575,I2C,X,(0x58),+,NAK,,,
1.19240425,I2C,Setup,Write,to,['208',(0xD0)],+,ACK
1.19262075,I2C,C,(0x43),+,ACK,,,
1.192873,I2C,Setup,Read,to,['209',(0xD1)],+,ACK
1.19308925,I2C,'255',(0xFF),+,ACK,,,
1.1933055,I2C,'131',(0x83),+,ACK,,,
1.1935215,I2C,'254',(0xFE),+,ACK,,,
1.193738,I2C,'226',(0xE2),+,ACK,,,
1.19395425,I2C,'255',(0xFF),+,ACK,,,
1.1941705,I2C,m,(0x6D),+,NAK,,,
1.19454875,I2C,Setup,Write,to,['208',(0xD0)],+,ACK
1.19476525,I2C,C,(0x43),+,ACK,,,
1.1950175,I2C,Setup,Read,to,['209',(0xD1)],+,ACK
1.19523375,I2C,'255',(0xFF),+,ACK,,,
1.19544975,I2C,u,(0x75),+,ACK,,,
1.19566625,I2C,'254',(0xFE),+,ACK,,,
1.1958825,I2C,'229',(0xE5),+,ACK,,,
1.1960985,I2C,'255',(0xFF),+,ACK,,,
1.19631475,I2C,o,(0x6F),+,NAK,,,
1.19669325,I2C,Setup,Write,to,['208',(0xD0)],+,ACK
1.1969095,I2C,C,(0x43),+,ACK,,,
1.19716175,I2C,Setup,Read,to,['209',(0xD1)],+,ACK
1.197378,I2C,'255',(0xFF),+,ACK,,,
1.19759425,I2C,r,(0x72),+,ACK,,,
1.1978105,I2C,'254',(0xFE),+,ACK,,,
1.19802675,I2C,'236',(0xEC),+,ACK,,,
1.19824275,I2C,'255',(0xFF),+,ACK,,,
1.198459,I2C,f,(0x66),+,NAK,,,
1.1988375,I2C,Setup,Write,to,['208',(0xD0)],+,ACK
1.19905375,I2C,C,(0x43),+,ACK,,,
1.199306,I2C,Setup,Read,to,['209',(0xD1)],+,ACK
1.199522,I2C,'255',(0xFF),+,ACK,,,
1.19973825,I2C,z,(0x7A),+,ACK,,,
1.19995475,I2C,'254',(0xFE),+,ACK,,,
1.20017075,I2C,'208',(0xD0),+,ACK,,,
1.200387,I2C,'255',(0xFF),+,ACK,,,
1.20060325,I2C,`,(0x60),+,NAK,,,
1.20098175,I2C,Setup,Write,to,['208',(0xD0)],+,ACK
1.201198,I2C,C,(0x43),+,ACK,,,
1.20145025,I2C,Setup,Read,to,['209',(0xD1)],+,ACK
1.2016665,I2C,'255',(0xFF),+,ACK,,,
1.2018825,I2C,'147',(0x93),+,ACK,,,
1.202099,I2C,'254',(0xFE),+,ACK,,,
1.202315,I2C,'214',(0xD6),+,ACK,,,
1.20253125,I2C,'255',(0xFF),+,ACK,,,
1.2027475,I2C,G,(0x47),+,NAK,,,
1.203126,I2C,Setup,Write,to,['208',(0xD0)],+,ACK
1.20334225,I2C,C,(0x43),+,ACK,,,
1.2035945,I2C,Setup,Read,to,['209',(0xD1)],+,ACK
1.20381075,I2C,'255',(0xFF),+,ACK,,,
1.204027,I2C,p,(0x70),+,ACK,,,
1.20424325,I2C,'254',(0xFE),+,ACK,,,
1.2044595,I2C,'213',(0xD5),+,ACK,,,
1.20467575,I2C,'255',(0xFF),+,ACK,,,
1.204892,I2C,\,(0x5C),+,NAK,,,
1.2052705,I2C,Setup,Write,to,['208',(0xD0)],+,ACK
1.20548675,I2C,C,(0x43),+,ACK,,,
1.205739,I2C,Setup,Read,to,['209',(0xD1)],+,ACK
1.20595525,I2C,'255',(0xFF),+,ACK,,,
1.2061715,I2C,u,(0x75),+,ACK,,,
1.20638775,I2C,'254',(0xFE),+,ACK,,,
1.206604,I2C,'249',(0xF9),+,ACK,,,
1.20682025,I2C,'255',(0xFF),+,ACK,,,
1.2070365,I2C,j,(0x6A),+,NAK,,,
1.20741475,I2C,Setup,Write,to,['208',(0xD0)],+,ACK
1.207631,I2C,C,(0x43),+,ACK,,,
1.20788325,I2C,Setup,Read,to,['209',(0xD1)],+,ACK
1.2080995,I2C,'255',(0xFF),+,ACK,,,
1.20831575,I2C,'128',(0x80),+,ACK,,,
1.20853225,I2C,'254',(0xFE),+,ACK,,,
1.2087485,I2C,'247',(0xF7),+,ACK,,,
1.2089645,I2C,'255',(0xFF),+,ACK,,,
1.20918075,I2C,c,(0x63),+,NAK,,,
1.20955925,I2C,Setup,Write,to,['208',(0xD0)],+,ACK
1.2097755,I2C,C,(0x43),+,ACK,,,
1.21002775,I2C,Setup,Read,to,['209',(0xD1)],+,ACK
1.210244,I2C,'255',(0xFF),+,ACK,,,
1.21046025,I2C,_,(0x5F),+,ACK,,,
1.21067625,I2C,'254',(0xFE),+,ACK,,,
1.2108925,I2C,'215',(0xD7),+,ACK,,,
1.2111085,I2C,'255',(0xFF),+,ACK,,,
1.21132475,I2C,a,(0x61),+,NAK,,,
1.21170325,I2C,Setup,Write,to,['208',(0xD0)],+,ACK
1.2119195,I2C,C,(0x43),+,ACK,,,
1.21217175,I2C,Setup,Read,to,['209',(0xD1)],+,ACK
1.212388,I2C,'255',(0xFF),+,ACK,,,
1.21260425,I2C,'144',(0x90),+,ACK,,,
1.2128205,I2C,'254',(0xFE),+,ACK,,,
1.21303675,I2C,'225',(0xE1),+,ACK,,,
1.213253,I2C,'255',(0xFF),+,ACK,,,
1.21346925,I2C,h,(0x68),+,NAK,,,
1.2138475,I2C,Setup,Write,to,['208',(0xD0)],+,ACK
1.21406375,I2C,C,(0x43),+,ACK,,,
1.214316,I2C,Setup,Read,to,['209',(0xD1)],+,ACK
1.21453225,I2C,'255',(0xFF),+,ACK,,,
1.2147485,I2C,{,(0x7B),+,ACK,,,
1.21496475,I2C,'254',(0xFE),+,ACK,,,
1.215181,I2C,'211',(0xD3),+,ACK,,,
1.21539725,I2C,'255',(0xFF),+,ACK,,,
1.2156135,I2C,l,(0x6C),+,NAK,,,
1.21599175,I2C,Setup,Write,to,['208',(0xD0)],+,ACK
1.216208,I2C,C,(0x43),+,ACK,,,
1.21646025,I2C,Setup,Read,to,['209',(0xD1)],+,ACK
1.2166765,I2C,'255',(0xFF),+,ACK,,,
1.21689275,I2C,S,(0x53),+,ACK,,,
1.217109,I2C,'254',(0xFE),+,ACK,,,
1.21732525,I2C,'228',(0xE4),+,ACK,,,
1.2175415,I2C,'255',(0xFF),+,ACK,,,
1.21775775,I2C,{,(0x7B),+,NAK,,,
1.218136,I2C,Setup,Write,to,['208',(0xD0)],+,ACK
1.21835225,I2C,C,(0x43),+,ACK,,,
1.2186045,I2C,Setup,Read,to,['209',(0xD1)],+,ACK
1.21882075,I2C,'255',(0xFF),+,ACK,,,
1.21903675,I2C,'139',(0x8B),+,ACK,,,
1.219253,I2C,'254',(0xFE),+,ACK,,,
1.21946925,I2C,'233',(0xE9),+,ACK,,,
1.2196855,I2C,'255',(0xFF),+,ACK,,,
1.21990175,I2C,h,(0x68),+,NAK,,,
1.22028,I2C,Setup,Write,to,['208',(0xD0)],+,ACK
1.22049625,I2C,C,(0x43),+,ACK,,,
1.2207485,I2C,Setup,Read,to,['209',(0xD1)],+,ACK
1.22096475,I2C,'255',(0xFF),+,ACK,,,
1.221181,I2C,'129',(0x81),+,ACK,,,
1.22139725,I2C,'254',(0xFE),+,ACK,,,
1.2216135,I2C,'218',(0xDA),+,ACK,,,
1.22182975,I2C,'255',(0xFF),+,ACK,,,
1.222046,I2C,Z,(0x5A),+,NAK,,,
1.2224245,I2C,Setup,Write,to,['208',(0xD0)],+,ACK
1.22264075,I2C,C,(0x43),+,ACK,,,
1.222893,I2C,Setup,Read,to,['209',(0xD1)],+,ACK
1.22310925,I2C,'255',(0xFF),+,ACK,,,
1.2233255,I2C,g,(0x67),+,ACK,,,
1.2235415,I2C,'254',(0xFE),+,ACK,,,
1.223758,I2C,'252',(0xFC),+,ACK,,,
1.22397425,I2C,'255',(0xFF),+,ACK,,,
1.22419025,I2C,p,(0x70),+,NAK,,,
1.22456875,I2C,Setup,Write,to,['208',(0xD0)],+,ACK
1.224785,I2C,C,(0x43),+,ACK,,,
1.22503725,I2C,Setup,Read,to,['209',(0xD1)],+,ACK
1.2252535,I2C,'255',(0xFF),+,ACK,,,
1.22546975,I2C,'127',(0x7F),+,ACK,,,
1.225686,I2C,'254',(0xFE),+,ACK,,,
1.22590225,I2C,'226',(0xE2),+,ACK,,,
1.22611825,I2C,'255',(0xFF),+,ACK,,,
1.2263345,I2C,a,(0x61),+,NAK,,,
1.226713,I2C,Setup,Write,to,['208',(0xD0)],+,ACK
1.22692925,I2C,C,(0x43),+,ACK,,,
1.2271815,I2C,Setup,Read,to,['209',(0xD1)],+,ACK
1.22739775,I2C,'255',(0xFF),+,ACK,,,
1.22761375,I2C,u,(0x75),+,ACK,,,
1.22783,I2C,'254',(0xFE),+,ACK,,,
1.22804625,I2C,'245',(0xF5),+,ACK,,,
1.2282625,I2C,'255',(0xFF),+,ACK,,,
1.22847875,I2C,i,(0x69),+,NAK,,,
1.22885725,I2C,Setup,Write,to,['208',(0xD0)],+,ACK
1.2290735,I2C,C,(0x43),+,ACK,,,
1.22932575,I2C,Setup,Read,to,['209',(0xD1)],+,ACK
1.229542,I2C,'255',(0xFF),+,ACK,,,
1.22975825,I2C,f,(0x66),+,ACK,,,
1.2299745,I2C,'254',(0xFE),+,ACK,,,
1.23019075,I2C,'221',(0xDD),+,ACK,,,
1.230407,I2C,'255',(0xFF),+,ACK,,,
1.230623,I2C,},(0x7D),+,NAK,,,
1.2310015,I2C,Setup,Write,to,['208',(0xD0)],+,ACK
1.23121775,I2C,C,(0x43),+,ACK,,,
1.23147,I2C,Setup,Read,to,['209',(0xD1)],+,ACK
1.23168625,I2C,'255',(0xFF),+,ACK,,,
1.2319025,I2C,|,(0x7C),+,ACK,,,
1.23211875,I2C,'254',(0xFE),+,ACK,,,
1.232335,I2C,'226',(0xE2),+,ACK,,,
1.23255125,I2C,'255',(0xFF),+,ACK,,,
1.2327675,I2C,\,(0x5C),+,NAK,,,
1.233146,I2C,Setup,Write,to,['208',(0xD0)],+,ACK
1.23336225,I2C,C,(0x43),+,ACK,,,
1.2336145,I2C,Setup,Read,to,['209',(0xD1)],+,ACK
1.23383075,I2C,'255',(0xFF),+,ACK,,,
1.234047,I2C,z,(0x7A),+,ACK,,,
1.23426325,I2C,'254',(0xFE),+,ACK,,,
1.2344795,I2C,'222',(0xDE),+,ACK,,,
1.23469575,I2C,'255',(0xFF),+,ACK,,,
1.234912,I2C,`,(0x60),+,NAK,,,
1.2352905,I2C,Setup,Write,to,['208',(0xD0)],+,ACK
1.23550675,I2C,C,(0x43),+,ACK,,,
1.235759,I2C,Setup,Read,to,['209',(0xD1)],+,ACK
1.23597525,I2C,'255',(0xFF),+,ACK,,,
1.2361915,I2C,z,(0x7A),+,ACK,,,
1.23640775,I2C,'254',(0xFE),+,ACK,,,
1.236624,I2C,'207',(0xCF),+,ACK,,,
1.23684025,I2C,'255',(0xFF),+,ACK,,,
1.2370565,I2C,i,(0x69),+,NAK,,,
1.237435,I2C,Setup,Write,to,['208',(0xD0)],+,ACK
1.23765125,I2C,C,(0x43),+,ACK,,,
1.2379035,I2C,Setup,Read,to,['209',(0xD1)],+,ACK
1.23811975,I2C,'255',(0xFF),+,ACK,,,
1.238336,I2C,R,(0x52),+,ACK,,,
1.23855225,I2C,'254',(0xFE),+,ACK,,,
1.2387685,I2C,'233',(0xE9),+,ACK,,,
1.23898475,I2C,'255',(0xFF),+,ACK,,,
1.239201,I2C,a,(0x61),+,NAK,,,
1.2395795,I2C,Setup,Write,to,['208',(0xD0)],+,ACK
1.23979575,I2C,C,(0x43),+,ACK,,,
1.240048,I2C,Setup,Read,to,['209',(0xD1)],+,ACK
1.24026425,I2C,'255',(0xFF),+,ACK,,,
1.24048075,I2C,w,(0x77),+,ACK,,,
1.240697,I2C,'254',(0xFE),+,ACK,,,
1.24091325,I2C,'245',(0xF5),+,ACK,,,
1.24112925,I2C,'255',(0xFF),+,ACK,,,
1.24134575,I2C,m,(0x6D),+,NAK,,,
1.24172425,I2C,Setup,Write,to,['208',(0xD0)],+,ACK
1.2419405,I2C,C,(0x43),+,ACK,,,
1.24219275,I2C,Setup,Read,to,['209',(0xD1)],+,ACK
1.242409,I2C,'255',(0xFF),+,ACK,,,
1.24262525,I2C,e,(0x65),+,ACK,,,
1.2428415,I2C,'254',(0xFE),+,ACK,,,
1.24305775,I2C,'234',(0xEA),+,ACK,,,
1.243274,I2C,'255',(0xFF),+,ACK,,,
1.24349025,I2C,T,(0x54),+,NAK,,,
1.24386875,I2C,Setup,Write,to,['208',(0xD0)],+,ACK
1.244085,I2C,C,(0x43),+,ACK,,,
1.24433725,I2C,Setup,Read,to,['209',(0xD1)],+,ACK
1.2445535,I2C,'255',(0xFF),+,ACK,,,
1.24476975,I2C,e,(0x65),+,ACK,,,
1.244986,I2C,'254',(0xFE),+,ACK,,,
1.24520225,I2C,'248',(0xF8),+,ACK,,,
1.24541825,I2C,'255',(0xFF),+,ACK,,,
1.24563475,I2C,\,(0x5C),+,NAK,,,
1.246013,I2C,Setup,Write,to,['208',(0xD0)],+,ACK
1.2462295,I2C,C,(0x43),+,ACK,,,
1.24648175,I2C,Setup,Read,to,['209',(0xD1)],+,ACK
1.246698,I2C,'255',(0xFF),+,ACK,,,
1.24691425,I2C,m,(0x6D),+,ACK,,,
1.2471305,I2C,'254',(0xFE),+,ACK,,,
1.24734675,I2C,'224',(0xE0),+,ACK,,,
1.247563,I2C,'255',(0xFF),+,ACK,,,
1.24777925,I2C,Y,(0x59),+,NAK,,,
1.24815775,I2C,Setup,Write,to,['208',(0xD0)],+,ACK
1.248374,I2C,C,(0x43),+,ACK,,,
1.24862625,I2C,Setup,Read,to,['209',(0xD1)],+,ACK
1.2488425,I2C,'255',(0xFF),+,ACK,,,
1.24905875,I2C,T,(0x54),+,ACK,,,
1.249275,I2C,'254',(0xFE),+,ACK,,,
1.24949125,I2C,'226',(0xE2),+,ACK,,,
1.24970775,I2C,'255',(0xFF),+,ACK,,,
1.249924,I2C,h,(0x68),+,NAK,,,
1.2503025,I2C,Setup,Write,to,['208',(0xD0)],+,ACK
1.25051875,I2C,C,(0x43),+,ACK,,,
1.250771,I2C,Setup,Read,to,['209',(0xD1)],+,ACK
1.2509875,I2C,'255',(0xFF),+,ACK,,,
1.25120375,I2C,w,(0x77),+,ACK,,,
1.25141975,I2C,'254',(0xFE),+,ACK,,,
1.25163625,I2C,'231',(0xE7),+,ACK,,,
1.2518525,I2C,'255',(0xFF),+,ACK,,,
1.25206875,I2C,b,(0x62),+,NAK,,,
1.252447,I2C,Setup,Write,to,['208',(0xD0)],+,ACK
1.25266325,I2C,C,(0x43),+,ACK,,,
1.2529155,I2C,Setup,Read,to,['209',(0xD1)],+,ACK
1.253132,I2C,'255',(0xFF),+,ACK,,,
1.25334825,I2C,a,(0x61),+,ACK,,,
1.2535645,I2C,'254',(0xFE),+,ACK,,,
1.2537805,I2C,'240',(0xF0),+,ACK,,,
1.253997,I2C,'255',(0xFF),+,ACK,,,
1.25421325,I2C,c,(0x63),+,NAK,,,
1.2545915,I2C,Setup,Write,to,['208',(0xD0)],+,ACK
1.25480775,I2C,C,(0x43),+,ACK,,,
1.25506025,I2C,Setup,Read,to,['209',(0xD1)],+,ACK
1.25527625,I2C,'255',(0xFF),+,ACK,,,
1.25549275,I2C,w,(0x77),+,ACK,,,
1.255709,I2C,'254',(0xFE),+,ACK,,,
1.25592525,I2C,'219',(0xDB),+,ACK,,,
1.2561415,I2C,'255',(0xFF),+,ACK,,,
1.25635775,I2C,X,(0x58),+,NAK,,,
1.25673625,I2C,Setup,Write,to,['208',(0xD0)],+,ACK
1.2569525,I2C,C,(0x43),+,ACK,,,
1.25720475,I2C,Setup,Read,to,['209',(0xD1)],+,ACK
1.257421,I2C,'255',(0xFF),+,ACK,,,
1.25763725,I2C,'129',(0x81),+,ACK,,,
1.2578535,I2C,'254',(0xFE),+,ACK,,,
1.25807,I2C,'248',(0xF8),+,ACK,,,
1.258286,I2C,'255',(0xFF),+,ACK,,,
1.25850225,I2C,i,(0x69),+,NAK,,,
1.25888075,I2C,Setup,Write,to,['208',(0xD0)],+,ACK
1.25909725,I2C,C,(0x43),+,ACK,,,
1.2593495,I2C,Setup,Read,to,['209',(0xD1)],+,ACK
1.25956575,I2C,'255',(0xFF),+,ACK,,,
1.259782,I2C,'128',(0x80),+,ACK,,,
1.25999825,I2C,'254',(0xFE),+,ACK,,,
1.2602145,I2C,'240',(0xF0),+,ACK,,,
1.26043075,I2C,'255',(0xFF),+,ACK,,,
1.260647,I2C,c,(0x63),+,NAK,,,
1.2610255,I2C,Setup,Write,to,['208',(0xD0)],+,ACK
1.26124175,I2C,C,(0x43),+,ACK,,,
1.26149425,I2C,Setup,Read,to,['209',(0xD1)],+,ACK
1.2617105,I2C,'255',(0xFF),+,ACK,,,
1.2619265,I2C,y,(0x79),+,ACK,,,
1.26214275,I2C,'254',(0xFE),+,ACK,,,
1.26235925,I2C,'212',(0xD4),+,ACK,,,
1.2625755,I2C,'255',(0xFF),+,ACK,,,
1.26279175,I2C,~,(0x7E),+,NAK,,,
1.26317025,I2C,Setup,Write,to,['208',(0xD0)],+,ACK
1.26338675,I2C,C,(0x43),+,ACK,,,
1.263639,I2C,Setup,Read,to,['209',(0xD1)],+,ACK
1.26385525,I2C,'255',(0xFF),+,ACK,,,
1.2640715,I2C,'128',(0x80),+,ACK,,,
1.264288,I2C,'255',(0xFF),+,ACK,,,
1.26450425,I2C,'6',(0x06),+,ACK,,,
1.2647205,I2C,'255',(0xFF),+,ACK,,,
1.26493675,I2C,f,(0x66),+,NAK,,,
1.26531525,I2C,Setup,Write,to,['208',(0xD0)],+,ACK
1.26553175,I2C,C,(0x43),+,ACK,,,
1.265784,I2C,Setup,Read,to,['209',(0xD1)],+,ACK
1.2660005,I2C,'255',(0xFF),+,ACK,,,
1.26621675,I2C,j,(0x6A),+,ACK,,,
1.266433,I2C,'254',(0xFE),+,ACK,,,
1.26664925,I2C,'218',(0xDA),+,ACK,,,
1.2668655,I2C,'255',(0xFF),+,ACK,,,
1.26708175,I2C,l,(0x6C),+,NAK,,,
1.26746,I2C,Setup,Write,to,['208',(0xD0)],+,ACK
1.26767625,I2C,C,(0x43),+,ACK,,,
1.26792875,I2C,Setup,Read,to,['209',(0xD1)],+,ACK
1.268145,I2C,'255',(0xFF),+,ACK,,,
1.26836125,I2C,y,(0x79),+,ACK,,,
1.2685775,I2C,'254',(0xFE),+,ACK,,,
1.26879375,I2C,'219',(0xDB),+,ACK,,,
1.26901,I2C,'255',(0xFF),+,ACK,,,
1.26922625,I2C,h,(0x68),+,NAK,,,
1.269605,I2C,Setup,Write,to,['208',(0xD0)],+,ACK
1.26982125,I2C,C,(0x43),+,ACK,,,
1.27007375,I2C,Setup,Read,to,['209',(0xD1)],+,ACK
1.27029,I2C,'255',(0xFF),+,ACK,,,
1.27050625,I2C,'129',(0x81),+,ACK,,,
1.2707225,I2C,'254',(0xFE),+,ACK,,,
1.27093875,I2C,'217',(0xD9),+,ACK,,,
1.271155,I2C,'255',(0xFF),+,ACK,,,
1.27137125,I2C,W,(0x57),+,NAK,,,
1.27174975,I2C,Setup,Write,to,['208',(0xD0)],+,ACK
1.271966,I2C,C,(0x43),+,ACK,,,
1.27221825,I2C,Setup,Read,to,['209',(0xD1)],+,ACK
1.2724345,I2C,'255',(0xFF),+,ACK,,,
1.272651,I2C,m,(0x6D),+,ACK,,,
1.27286725,I2C,'254',(0xFE),+,ACK,,,
1.2730835,I2C,'234',(0xEA),+,ACK,,,
1.27329975,I2C,'255',(0xFF),+,ACK,,,
1.273516,I2C,u,(0x75),+,NAK,,,
1.2738945,I2C,Setup,Write,to,['208',(0xD0)],+,ACK
1.27411075,I2C,C,(0x43),+,ACK,,,
1.274363,I2C,Setup,Read,to,['209',(0xD1)],+,ACK
1.27457925,I2C,'255',(0xFF),+,ACK,,,
1.27479575,I2C,n,(0x6E),+,ACK,,,
1.275012,I2C,'254',(0xFE),+,ACK,,,
1.27522825,I2C,'252',(0xFC),+,ACK,,,
1.2754445,I2C,'255',(0xFF),+,ACK,,,
1.27566075,I2C,n,(0x6E),+,NAK,,,
1.27603925,I2C,Setup,Write,to,['208',(0xD0)],+,ACK
1.2762555,I2C,C,(0x43),+,ACK,,,
1.276508,I2C,Setup,Read,to,['209',(0xD1)],+,ACK
1.27672425,I2C,'255',(0xFF),+,ACK,,,
1.2769405,I2C,a,(0x61),+,ACK,,,
1.277157,I2C,'254',(0xFE),+,ACK,,,
1.27737325,I2C,'251',(0xFB),+,ACK,,,
1.27758925,I2C,'255',(0xFF),+,ACK,,,
1.27780575,I2C,m,(0x6D),+,NAK,,,
1.27818425,I2C,Setup,Write,to,['208',(0xD0)],+,ACK
1.2784005,I2C,C,(0x43),+,ACK,,,
1.27865275,I2C,Setup,Read,to,['209',(0xD1)],+,ACK
1.278869,I2C,'255',(0xFF),+,ACK,,,
1.2790855,I2C,f,(0x66),+,ACK,,,
1.27930175,I2C,'254',(0xFE),+,ACK,,,
1.279518,I2C,'220',(0xDC),+,ACK,,,
1.27973425,I2C,'255',(0xFF),+,ACK,,,
1.2799505,I2C,d,(0x64),+,NAK,,,
1.280329,I2C,Setup,Write,to,['208',(0xD0)],+,ACK
1.28054525,I2C,C,(0x43),+,ACK,,,
1.2807975,I2C,Setup,Read,to,['209',(0xD1)],+,ACK
1.281014,I2C,'255',(0xFF),+,ACK,,,
1.28123025,I2C,V,(0x56),+,ACK,,,
1.2814465,I2C,'254',(0xFE),+,ACK,,,
1.28166275,I2C,'199',(0xC7),+,ACK,,,
1.281879,I2C,'255',(0xFF),+,ACK,,,
1.2820955,I2C,f,(0x66),+,NAK,,,
1.282474,I2C,Setup,Write,to,['208',(0xD0)],+,ACK
1.28269025,I2C,C,(0x43),+,ACK,,,
1.2829425,I2C,Setup,Read,to,['209',(0xD1)],+,ACK
1.28315875,I2C,'255',(0xFF),+,ACK,,,
1.283375,I2C,e,(0x65),+,ACK,,,
1.28359125,I2C,'254',(0xFE),+,ACK,,,
1.2838075,I2C,'233',(0xE9),+,ACK,,,
1.28402375,I2C,'255',(0xFF),+,ACK,,,
1.28424,I2C,e,(0x65),+,NAK,,,
1.2846185,I2C,Setup,Write,to,['208',(0xD0)],+,ACK
1.28483475,I2C,C,(0x43),+,ACK,,,
1.285087,I2C,Setup,Read,to,['209',(0xD1)],+,ACK
1.28530325,I2C,'255',(0xFF),+,ACK,,,
1.2855195,I2C,i,(0x69),+,ACK,,,
1.28573575,I2C,'255',(0xFF),+,ACK,,,
1.285952,I2C,'8',(0x08),+,ACK,,,
1.28616825,I2C,'255',(0xFF),+,ACK,,,
1.2863845,I2C,b,(0x62),+,NAK,,,
1.28676275,I2C,Setup,Write,to,['208',(0xD0)],+,ACK
1.286979,I2C,C,(0x43),+,ACK,,,
1.2872315,I2C,Setup,Read,to,['209',(0xD1)],+,ACK
1.28744775,I2C,'255',(0xFF),+,ACK,,,
1.287664,I2C,'131',(0x83),+,ACK,,,
1.28788025,I2C,'254',(0xFE),+,ACK,,,
1.2880965,I2C,'218',(0xDA),+,ACK,,,
1.288313,I2C,'255',(0xFF),+,ACK,,,
1.28852925,I2C,p,(0x70),+,NAK,,,
1.288908,I2C,Setup,Write,to,['208',(0xD0)],+,ACK
1.28912425,I2C,C,(0x43),+,ACK,,,
1.2893765,I2C,Setup,Read,to,['209',(0xD1)],+,ACK
1.28959275,I2C,'255',(0xFF),+,ACK,,,
1.289809,I2C,t,(0x74),+,ACK,,,
1.29002525,I2C,'254',(0xFE),+,ACK,,,
1.29024175,I2C,'224',(0xE0),+,ACK,,,
1.290458,I2C,'255',(0xFF),+,ACK,,,
1.290674,I2C,h,(0x68),+,NAK,,,
1.29105275,I2C,Setup,Write,to,['208',(0xD0)],+,ACK
1.291269,I2C,C,(0x43),+,ACK,,,
1.29152125,I2C,Setup,Read,to,['209',(0xD1)],+,ACK
1.2917375,I2C,'255',(0xFF),+,ACK,,,
1.29195375,I2C,W,(0x57),+,ACK,,,
1.29217,I2C,'254',(0xFE),+,ACK,,,
1.29238625,I2C,'224',(0xE0),+,ACK,,,
1.2926025,I2C,'255',(0xFF),+,ACK,,,
1.29281875,I2C,c,(0x63),+,NAK,,,
1.29319725,I2C,Setup,Write,to,['208',(0xD0)],+,ACK
1.29341375,I2C,C,(0x43),+,ACK,,,
1.293666,I2C,Setup,Read,to,['209',(0xD1)],+,ACK
1.29388225,I2C,'255',(0xFF),+,ACK,,,
1.29409875,I2C,g,(0x67),+,ACK,,,
1.29431475,I2C,'254',(0xFE),+,ACK,,,
1.29453125,I2C,'215',(0xD7),+,ACK,,,
1.2947475,I2C,'255',(0xFF),+,ACK,,,
1.2949635,I2C,d,(0x64),+,NAK,,,
1.295342,I2C,Setup,Write,to,['208',(0xD0)],+,ACK
1.2955585,I2C,C,(0x43),+,ACK,,,
1.29581075,I2C,Setup,Read,to,['209',(0xD1)],+,ACK
1.296027,I2C,'255',(0xFF),+,ACK,,,
1.29624325,I2C,},(0x7D),+,ACK,,,
1.2964595,I2C,'254',(0xFE),+,ACK,,,
1.29667575,I2C,'220',(0xDC),+,ACK,,,
1.296892,I2C,'255',(0xFF),+,ACK,,,
1.29710825,I2C,d,(0x64),+,NAK,,,
1.29748675,I2C,Setup,Write,to,['208',(0xD0)],+,ACK
1.297703,I2C,C,(0x43),+,ACK,,,
1.2979555,I2C,Setup,Read,to,['209',(0xD1)],+,ACK
1.29817175,I2C,'255',(0xFF),+,ACK,,,
1.298388,I2C,'131',(0x83),+,ACK,,,
1.29860425,I2C,'255',(0xFF),+,ACK,,,
1.2988205,I2C,'20',(0x14),+,ACK,,,
1.29903675,I2C,'255',(0xFF),+,ACK,,,
1.29925325,I2C,l,(0x6C),+,NAK,,,
1.29963175,I2C,Setup,Write,to,['208',(0xD0)],+,ACK
1.299848,I2C,C,(0x43),+,ACK,,,
1.30010025,I2C,Setup,Read,to,['209',(0xD1)],+,ACK
1.30031675,I2C,'255',(0xFF),+,ACK,,,
1.300533,I2C,'138',(0x8A),+,ACK,,,
1.30074925,I2C,'254',(0xFE),+,ACK,,,
1.3009655,I2C,'227',(0xE3),+,ACK,,,
1.30118175,I2C,'255',(0xFF),+,ACK,,,
1.301398,I2C,i,(0x69),+,NAK,,,
1.3017765,I2C,Setup,Write,to,['208',(0xD0)],+,ACK
1.30199275,I2C,C,(0x43),+,ACK,,,
1.30224525,I2C,Setup,Read,to,['209',(0xD1)],+,ACK
1.3024615,I2C,'255',(0xFF),+,ACK,,,
1.30267775,I2C,e,(0x65),+,ACK,,,
1.30289425,I2C,'254',(0xFE),+,ACK,,,
1.3031105,I2C,'224',(0xE0),+,ACK,,,
1.30332675,I2C,'255',(0xFF),+,ACK,,,
1.303543,I2C,`,(0x60),+,NAK,,,
1.3039215,I2C,Setup,Write,to,['208',(0xD0)],+,ACK
1.30413775,I2C,C,(0x43),+,ACK,,,
1.30439,I2C,Setup,Read,to,['209',(0xD1)],+,ACK
1.30460625,I2C,'255',(0xFF),+,ACK,,,
1.3048225,I2C,'146',(0x92),+,ACK,,,
1.30503875,I2C,'254',(0xFE),+,ACK,,,
1.305255,I2C,'232',(0xE8),+,ACK,,,
1.30547125,I2C,'255',(0xFF),+,ACK,,,
1.3056875,I2C,b,(0x62),+,NAK,,,
1.30606625,I2C,Setup,Write,to,['208',(0xD0)],+,ACK
1.3062825,I2C,C,(0x43),+,ACK,,,
1.30653475,I2C,Setup,Read,to,['209',(0xD1)],+,ACK
1.306751,I2C,'255',(0xFF),+,ACK,,,
1.30696725,I2C,'138',(0x8A),+,ACK,,,
1.3071835,I2C,'254',(0xFE),+,ACK,,,
1.30739975,I2C,'212',(0xD4),+,ACK,,,
1.307616,I2C,'255',(0xFF),+,ACK,,,
1.30783225,I2C,g,(0x67),+,NAK,,,
1.30821075,I2C,Setup,Write,to,['208',(0xD0)],+,ACK
1.308427,I2C,C,(0x43),+,ACK,,,
1.3086795,I2C,Setup,Read,to,['209',(0xD1)],+,ACK
1.30889575,I2C,'255',(0xFF),+,ACK,,,
1.309112,I2C,},(0x7D),+,ACK,,,
1.3093285,I2C,'255',(0xFF),+,ACK,,,
1.30954475,I2C,'4',(0x04),+,ACK,,,
1.309761,I2C,'255',(0xFF),+,ACK,,,
1.3099775,I2C,b,(0x62),+,NAK,,,
1.310356,I2C,Setup,Write,to,['208',(0xD0)],+,ACK
1.31057225,I2C,C,(0x43),+,ACK,,,
1.3108245,I2C,Setup,Read,to,['209',(0xD1)],+,ACK
1.311041,I2C,'255',(0xFF),+,ACK,,,
1.31125725,I2C,h,(0x68),+,ACK,,,
1.3114735,I2C,'254',(0xFE),+,ACK,,,
1.31168975,I2C,'233',(0xE9),+,ACK,,,
1.311906,I2C,'255',(0xFF),+,ACK,,,
1.31212225,I2C,K,(0x4B),+,NAK,,,
1.31250075,I2C,Setup,Write,to,['208',(0xD0)],+,ACK
1.31271725,I2C,C,(0x43),+,ACK,,,
1.3129695,I2C,Setup,Read,to,['209',(0xD1)],+,ACK
1.31318575,I2C,'255',(0xFF),+,ACK,,,
1.313402,I2C,'142',(0x8E),+,ACK,,,
1.31361825,I2C,'254',(0xFE),+,ACK,,,
1.3138345,I2C,'238',(0xEE),+,ACK,,,
1.314051,I2C,'255',(0xFF),+,ACK,,,
1.31426725,I2C,V,(0x56),+,NAK,,,
1.31464575,I2C,Setup,Write,to,['208',(0xD0)],+,ACK
1.314862,I2C,C,(0x43),+,ACK,,,
1.3151145,I2C,Setup,Read,to,['209',(0xD1)],+,ACK
1.31533075,I2C,'255',(0xFF),+,ACK,,,
1.315547,I2C,m,(0x6D),+,ACK,,,
1.31576325,I2C,'254',(0xFE),+,ACK,,,
1.3159795,I2C,'219',(0xDB),+,ACK,,,
1.316196,I2C,'255',(0xFF),+,ACK,,,
1.31641225,I2C,n,(0x6E),+,NAK,,,
1.3167905,I2C,Setup,Write,to,['208',(0xD0)],+,ACK
1.31700675,I2C,C,(0x43),+,ACK,,,
1.31725925,I2C,Setup,Read,to,['209',(0xD1)],+,ACK
1.3174755,I2C,'255',(0xFF),+,ACK,,,
1.31769175,I2C,'135',(0x87),+,ACK,,,
1.31790825,I2C,'254',(0xFE),+,ACK,,,
1.3181245,I2C,'208',(0xD0),+,ACK,,,
1.318341,I2C,'255',(0xFF),+,ACK,,,
1.31855725,I2C,q,(0x71),+,NAK,,,
1.31893575,I2C,Setup,Write,to,['208',(0xD0)],+,ACK
1.319152,I2C,C,(0x43),+,ACK,,,
1.31940425,I2C,Setup,Read,to,['209',(0xD1)],+,ACK
1.31962075,I2C,'255',(0xFF),+,ACK,,,
1.319837,I2C,z,(0x7A),+,ACK,,,
1.3200535,I2C,'254',(0xFE),+,ACK,,,
1.32026975,I2C,'215',(0xD7),+,ACK,,,
1.320486,I2C,'255',(0xFF),+,ACK,,,
1.3207025,I2C,c,(0x63),+,NAK,,,
1.321081,I2C,Setup,Write,to,['208',(0xD0)],+,ACK
1.321297,I2C,C,(0x43),+,ACK,,,
1.3215495,I2C,Setup,Read,to,['209',(0xD1)],+,ACK
1.32176575,I2C,'255',(0xFF),+,ACK,,,
1.321982,I2C,f,(0x66),+,ACK,,,
1.32219825,I2C,'254',(0xFE),+,ACK,,,
1.3224145,I2C,'233',(0xE9),+,ACK,,,
1.32263075,I2C,'255',(0xFF),+,ACK,,,
1.322847,I2C,X,(0x58),+,NAK,,,
1.3232255,I2C,Setup,Write,to,['208',(0xD0)],+,ACK
1.32344175,I2C,C,(0x43),+,ACK,,,
1.323694,I2C,Setup,Read,to,['209',(0xD1)],+,ACK
1.32391025,I2C,'255',(0xFF),+,ACK,,,
1.3241265,I2C,'131',(0x83),+,ACK,,,
1.32434275,I2C,'254',(0xFE),+,ACK,,,
1.324559,I2C,'227',(0xE3),+,ACK,,,
1.32477525,I2C,'255',(0xFF),+,ACK,,,
1.3249915,I2C,X,(0x58),+,NAK,,,
1.32537,I2C,Setup,Write,to,['208',(0xD0)],+,ACK
1.32558625,I2C,C,(0x43),+,ACK,,,
1.32583875,I2C,Setup,Read,to,['209',(0xD1)],+,ACK
1.326055,I2C,'255',(0xFF),+,ACK,,,
1.32627125,I2C,`,(0x60),+,ACK,,,
1.3264875,I2C,'254',(0xFE),+,ACK,,,
1.32670375,I2C,'210',(0xD2),+,ACK,,,
1.32692,I2C,'255',(0xFF),+,ACK,,,
1.32713625,I2C,o,(0x6F),+,NAK,,,
1.32751475,I2C,Setup,Write,to,['208',(0xD0)],+,ACK
1.327731,I2C,C,(0x43),+,ACK,,,
1.32798325,I2C,Setup,Read,to,['209',(0xD1)],+,ACK
1.3281995,I2C,'255',(0xFF),+,ACK,,,
1.32841575,I2C,'150',(0x96),+,ACK,,,
1.328632,I2C,'254',(0xFE),+,ACK,,,
1.3288485,I2C,'232',(0xE8),+,ACK,,,
1.32906475,I2C,'255',(0xFF),+,ACK,,,
1.329281,I2C,P,(0x50),+,NAK,,,
1.32965925,I2C,Setup,Write,to,['208',(0xD0)],+,ACK
1.32987575,I2C,C,(0x43),+,ACK,,,
1.330128,I2C,Setup,Read,to,['209',(0xD1)],+,ACK
1.33034425,I2C,'255',(0xFF),+,ACK,,,
1.3305605,I2C,w,(0x77),+,ACK,,,
1.33077675,I2C,'254',(0xFE),+,ACK,,,
1.330993,I2C,'233',(0xE9),+,ACK,,,
1.33120925,I2C,'255',(0xFF),+,ACK,,,
1.3314255,I2C,e,(0x65),+,NAK,,,
1.33180375,I2C,Setup,Write,to,['208',(0xD0)],+,ACK
1.33202025,I2C,C,(0x43),+,ACK,,,
1.3322725,I2C,Setup,Read,to,['209',(0xD1)],+,ACK
1.33248875,I2C,'255',(0xFF),+,ACK,,,
1.33270475,I2C,c,(0x63),+,ACK,,,
1.33292125,I2C,'254',(0xFE),+,ACK,,,
1.33313725,I2C,'236',(0xEC),+,ACK,,,
1.3333535,I2C,'255',(0xFF),+,ACK,,,
1.33356975,I2C,c,(0x63),+,NAK,,,
1.33394825,I2C,Setup,Write,to,['208',(0xD0)],+,ACK
1.33416475,I2C,C,(0x43),+,ACK,,,
1.334417,I2C,Setup,Read,to,['209',(0xD1)],+,ACK
1.33463325,I2C,'255',(0xFF),+,ACK,,,
1.3348495,I2C,'148',(0x94),+,ACK,,,
1.33506575,I2C,'254',(0xFE),+,ACK,,,
1.335282,I2C,'253',(0xFD),+,ACK,,,
1.33549825,I2C,'255',(0xFF),+,ACK,,,
1.3357145,I2C,b,(0x62),+,NAK,,,
1.336093,I2C,Setup,Write,to,['208',(0xD0)],+,ACK
1.33630925,I2C,C,(0x43),+,ACK,,,
1.3365615,I2C,Setup,Read,to,['209',(0xD1)],+,ACK
1.33677775,I2C,'255',(0xFF),+,ACK,,,
1.336994,I2C,p,(0x70),+,ACK,,,
1.3372105,I2C,'254',(0xFE),+,ACK,,,
1.33742675,I2C,'215',(0xD7),+,ACK,,,
1.337643,I2C,'255',(0xFF),+,ACK,,,
1.33785925,I2C,m,(0x6D),+,NAK,,,
1.33823775,I2C,Setup,Write,to,['208',(0xD0)],+,ACK
1.338454,I2C,C,(0x43),+,ACK,,,
1.33870625,I2C,Setup,Read,to,['209',(0xD1)],+,ACK
1.3389225,I2C,'255',(0xFF),+,ACK,,,
1.33913875,I2C,n,(0x6E),+,ACK,,,
1.339355,I2C,'254',(0xFE),+,ACK,,,
1.33957125,I2C,'211',(0xD3),+,ACK,,,
1.3397875,I2C,'255',(0xFF),+,ACK,,,
1.34000375,I2C,[,(0x5B),+,NAK,,,
1.3403825,I2C,Setup,Write,to,['208',(0xD0)],+,ACK
1.34059875,I2C,C,(0x43),+,ACK,,,
1.340851,I2C,Setup,Read,to,['209',(0xD1)],+,ACK
1.34106725,I2C,'255',(0xFF),+,ACK,,,
1.3412835,I2C,d,(0x64),+,ACK,,,
1.34149975,I2C,'254',(0xFE),+,ACK,,,
1.341716,I2C,'226',(0xE2),+,ACK,,,
1.34193225,I2C,'255',(0xFF),+,ACK,,,
1.34214875,I2C,s,(0x73),+,NAK,,,
1.342527,I2C,Setup,Write,to,['208',(0xD0)],+,ACK
1.34274325,I2C,C,(0x43),+,ACK,,,
1.34299575,I2C,Setup,Read,to,['209',(0xD1)],+,ACK
1.343212,I2C,'255',(0xFF),+,ACK,,,
1.34342825,I2C,v,(0x76),+,ACK,,,
1.3436445,I2C,'254',(0xFE),+,ACK,,,
1.34386075,I2C,'228',(0xE4),+,ACK,,,
1.344077,I2C,'255',(0xFF),+,ACK,,,
1.34429325,I2C,X,(0x58),+,NAK,,,
1.34467175,I2C,Setup,Write,to,['208',(0xD0)],+,ACK
1.344888,I2C,C,(0x43),+,ACK,,,
1.34514025,I2C,Setup,Read,to,['209',(0xD1)],+,ACK
1.3453565,I2C,'255',(0xFF),+,ACK,,,
1.34557275,I2C,l,(0x6C),+,ACK,,,
1.345789,I2C,'254',(0xFE),+,ACK,,,
1.34600525,I2C,'250',(0xFA),+,ACK,,,
1.3462215,I2C,'255',(0xFF),+,ACK,,,
1.34643775,I2C,b,(0x62),+,NAK,,,
1.34681625,I2C,Setup,Write,to,['208',(0xD0)],+,ACK
1.3470325,I2C,C,(0x43),+,ACK,,,
1.34728475,I2C,Setup,Read,to,['209',(0xD1)],+,ACK
1.347501,I2C,'255',(0xFF),+,ACK,,,
1.34771725,I2C,r,(0x72),+,ACK,,,
1.3479335,I2C,'255',(0xFF),+,ACK,,,
1.34814975,I2C,'0',(0x00),+,ACK,,,
1.348366,I2C,'255',(0xFF),+,ACK,,,
1.34858225,I2C,_,(0x5F),+,NAK,,,
1.34896075,I2C,Setup,Write,to,['208',(0xD0)],+,ACK
1.349177,I2C,C,(0x43),+,ACK,,,
1.34942925,I2C,Setup,Read,to,['209',(0xD1)],+,ACK
1.34964575,I2C,'255',(0xFF),+,ACK,,,
1.349862,I2C,|,(0x7C),+,ACK,,,
1.35007825,I2C,'254',(0xFE),+,ACK,,,
1.3502945,I2C,'219',(0xDB),+,ACK,,,
1.35051075,I2C,'255',(0xFF),+,ACK,,,
1.350727,I2C,^,(0x5E),+,NAK,,,
1.3511055,I2C,Setup,Write,to,['208',(0xD0)],+,ACK
1.35132175,I2C,C,(0x43),+,ACK,,,
1.351574,I2C,Setup,Read,to,['209',(0xD1)],+,ACK
1.35179025,I2C,'255',(0xFF),+,ACK,,,
1.3520065,I2C,v,(0x76),+,ACK,,,
1.35222275,I2C,'254',(0xFE),+,ACK,,,
1.352439,I2C,'249',(0xF9),+,ACK,,,
1.3526555,I2C,'255',(0xFF),+,ACK,,,
1.35287175,I2C,x,(0x78),+,NAK,,,
1.35325025,I2C,Setup,Write,to,['208',(0xD0)],+,ACK
1.3534665,I2C,C,(0x43),+,ACK,,,
1.353719,I2C,Setup,Read,to,['209',(0xD1)],+,ACK
1.35393525,I2C,'255',(0xFF),+,ACK,,,
1.35415175,I2C,'144',(0x90),+,ACK,,,
1.354368,I2C,'254',(0xFE),+,ACK,,,
1.35458425,I2C,'210',(0xD2),+,ACK,,,
1.3548005,I2C,'255',(0xFF),+,ACK,,,
1.35501675,I2C,b,(0x62),+,NAK,,,
1.35539525,I2C,Setup,Write,to,['208',(0xD0)],+,ACK
1.3556115,I2C,C,(0x43),+,ACK,,,
1.35586375,I2C,Setup,Read,to,['209',(0xD1)],+,ACK
1.35608025,I2C,'255',(0xFF),+,ACK,,,
1.3562965,I2C,b,(0x62),+,ACK,,,
1.35651275,I2C,'254',(0xFE),+,ACK,,,
1.356729,I2C,'231',(0xE7),+,ACK,,,
1.35694525,I2C,'255',(0xFF),+,ACK,,,
1.3571615,I2C,V,(0x56),+,NAK,,,
1.35753975,I2C,Setup,Write,to,['208',(0xD0)],+,ACK
1.357756,I2C,C,(0x43),+,ACK,,,
1.3580085,I2C,Setup,Read,to,['209',(0xD1)],+,ACK
1.35822475,I2C,'255',(0xFF),+,ACK,,,
1.358441,I2C,h,(0x68),+,ACK,,,
1.35865725,I2C,'254',(0xFE),+,ACK,,,
1.3588735,I2C,'207',(0xCF),+,ACK,,,
1.35908975,I2C,'255',(0xFF),+,ACK,,,
1.359306,I2C,p,(0x70),+,NAK,,,
1.3596845,I2C,Setup,Write,to,['208',(0xD0)],+,ACK
1.35990075,I2C,C,(0x43),+,ACK,,,
1.360153,I2C,Setup,Read,to,['209',(0xD1)],+,ACK
1.36036925,I2C,'255',(0xFF),+,ACK,,,
1.3605855,I2C,t,(0x74),+,ACK,,,
1.36080175,I2C,'254',(0xFE),+,ACK,,,
1.361018,I2C,'252',(0xFC),+,ACK,,,
1.36123425,I2C,'255',(0xFF),+,ACK,,,
1.3614505,I2C,_,(0x5F),+,NAK,,,
1.36182875,I2C,Setup,Write,to,['208',(0xD0)],+,ACK
1.36204525,I2C,C,(0x43),+,ACK,,,
1.3622975,I2C,Setup,Read,to,['209',(0xD1)],+,ACK
1.36251375,I2C,'255',(0xFF),+,ACK,,,
1.36272975,I2C,b,(0x62),+,ACK,,,
1.362946,I2C,'254',(0xFE),+,ACK,,,
1.3631625,I2C,'255',(0xFF),+,ACK,,,
1.36337875,I2C,'255',(0xFF),+,ACK,,,
1.36359475,I2C,d,(0x64),+,NAK,,,
1.36397325,I2C,Setup,Write,to,['208',(0xD0)],+,ACK
1.3641895,I2C,C,(0x43),+,ACK,,,
1.364442,I2C,Setup,Read,to,['209',(0xD1)],+,ACK
1.364658,I2C,'255',(0xFF),+,ACK,,,
1.36487425,I2C,'131',(0x83),+,ACK,,,
1.3650905,I2C,'254',(0xFE),+,ACK,,,
1.365307,I2C,'211',(0xD3),+,ACK,,,
1.36552325,I2C,'255',(0xFF),+,ACK,,,
1.36573925,I2C,[,(0x5B),+,NAK,,,
1.36611775,I2C,Setup,Write,to,['208',(0xD0)],+,ACK
1.36633425,I2C,C,(0x43),+,ACK,,,
1.3665865,I2C,Setup,Read,to,['209',(0xD1)],+,ACK
1.36680275,I2C,'255',(0xFF),+,ACK,,,
1.367019,I2C,o,(0x6F),+,ACK,,,
1.36723525,I2C,'254',(0xFE),+,ACK,,,
1.3674515,I2C,'214',(0xD6),+,ACK,,,
1.36766775,I2C,'255',(0xFF),+,ACK,,,
1.36788375,I2C,[,(0x5B),+,NAK,,,
1.36826225,I2C,Setup,Write,to,['208',(0xD0)],+,ACK
1.3684785,I2C,C,(0x43),+,ACK,,,
1.368731,I2C,Setup,Read,to,['209',(0xD1)],+,ACK
1.368947,I2C,'255',(0xFF),+,ACK,,,
1.36916325,I2C,g,(0x67),+,ACK,,,
1.36937975,I2C,'254',(0xFE),+,ACK,,,
1.369596,I2C,'232',(0xE8),+,ACK,,,
1.36981225,I2C,'255',(0xFF),+,ACK,,,
1.3700285,I2C,Z,(0x5A),+,NAK,,,
1.370407,I2C,Setup,Write,to,['208',(0xD0)],+,ACK
1.37062325,I2C,C,(0x43),+,ACK,,,
1.37087575,I2C,Setup,Read,to,['209',(0xD1)],+,ACK
1.371092,I2C,'255',(0xFF),+,ACK,,,
1.371308,I2C,u,(0x75),+,ACK,,,
1.3715245,I2C,'254',(0xFE),+,ACK,,,
1.37174075,I2C,'225',(0xE1),+,ACK,,,
1.37195675,I2C,'255',(0xFF),+,ACK,,,
1.372173,I2C,Z,(0x5A),+,NAK,,,
1.3725515,I2C,Setup,Write,to,['208',(0xD0)],+,ACK
1.37276775,I2C,C,(0x43),+,ACK,,,
1.37302,I2C,Setup,Read,to,['209',(0xD1)],+,ACK
1.37323625,I2C,'255',(0xFF),+,ACK,,,
1.3734525,I2C,},(0x7D),+,ACK,,,
1.37366875,I2C,'254',(0xFE),+,ACK,,,
1.373885,I2C,'252',(0xFC),+,ACK,,,
1.37410125,I2C,'255',(0xFF),+,ACK,,,
1.3743175,I2C,f,(0x66),+,NAK,,,
1.374696,I2C,Setup,Write,to,['208',(0xD0)],+,ACK
1.37491225,I2C,C,(0x43),+,ACK,,,
1.37516475,I2C,Setup,Read,to,['209',(0xD1)],+,ACK
1.375381,I2C,'255',(0xFF),+,ACK,,,
1.37559725,I2C,x,(0x78),+,ACK,,,
1.3758135,I2C,'254',(0xFE),+,ACK,,,
1.37602975,I2C,'226',(0xE2),+,ACK,,,
1.37624625,I2C,'255',(0xFF),+,ACK,,,
1.3764625,I2C,X,(0x58),+,NAK,,,
1.37684125,I2C,Setup,Write,to,['208',(0xD0)],+,ACK
1.3770575,I2C,C,(0x43),+,ACK,,,
1.37730975,I2C,Setup,Read,to,['209',(0xD1)],+,ACK
1.37752625,I2C,'255',(0xFF),+,ACK,,,
1.3777425,I2C,o,(0x6F),+,ACK,,,
1.37795875,I2C,'254',(0xFE),+,ACK,,,
1.37817525,I2C,'207',(0xCF),+,ACK,,,
1.3783915,I2C,'255',(0xFF),+,ACK,,,
1.37860775,I2C,c,(0x63),+,NAK,,,
1.37898625,I2C,Setup,Write,to,['208',(0xD0)],+,ACK
1.3792025,I2C,C,(0x43),+,ACK,,,
1.37945475,I2C,Setup,Read,to,['209',(0xD1)],+,ACK
1.379671,I2C,'255',(0xFF),+,ACK,,,
1.3798875,I2C,l,(0x6C),+,ACK,,,
1.38010375,I2C,'254',(0xFE),+,ACK,,,
1.38032,I2C,'233',(0xE9),+,ACK,,,
1.38053625,I2C,'255',(0xFF),+,ACK,,,
1.3807525,I2C,X,(0x58),+,NAK,,,
1.381131,I2C,Setup,Write,to,['208',(0xD0)],+,ACK
1.38134725,I2C,C,(0x43),+,ACK,,,
1.38159975,I2C,Setup,Read,to,['209',(0xD1)],+,ACK
1.381816,I2C,'255',(0xFF),+,ACK,,,
1.38203225,I2C,'131',(0x83),+,ACK,,,
1.3822485,I2C,'254',(0xFE),+,ACK,,,
1.382465,I2C,'204',(0xCC),+,ACK,,,
1.38268125,I2C,'255',(0xFF),+,ACK,,,
1.3828975,I2C,b,(0x62),+,NAK,,,
1.383276,I2C,Setup,Write,to,['208',(0xD0)],+,ACK
1.38349225,I2C,C,(0x43),+,ACK,,,
1.38374475,I2C,Setup,Read,to,['209',(0xD1)],+,ACK
1.383961,I2C,'255',(0xFF),+,ACK,,,
1.38417725,I2C,W,(0x57),+,ACK,,,
1.3843935,I2C,'254',(0xFE),+,ACK,,,
1.38460975,I2C,'241',(0xF1),+,ACK,,,
1.38482625,I2C,'255',(0xFF),+,ACK,,,
1.38504225,I2C,c,(0x63),+,NAK,,,
1.38542075,I2C,Setup,Write,to,['208',(0xD0)],+,ACK
1.385637,I2C,C,(0x43),+,ACK,,,
1.38588925,I2C,Setup,Read,to,['209',(0xD1)],+,ACK
1.38610575,I2C,'255',(0xFF),+,ACK,,,
1.386322,I2C,v,(0x76),+,ACK,,,
1.38653825,I2C,'255',(0xFF),+,ACK,,,
1.3867545,I2C,'3',(0x03),+,ACK,,,
1.38697075,I2C,'255',(0xFF),+,ACK,,,
1.387187,I2C,^,(0x5E),+,NAK,,,
1.3875655,I2C,Setup,Write,to,['208',(0xD0)],+,ACK
1.38778175,I2C,C,(0x43),+,ACK,,,
1.388034,I2C,Setup,Read,to,['209',(0xD1)],+,ACK
1.3882505,I2C,'255',(0xFF),+,ACK,,,
1.38846675,I2C,},(0x7D),+,ACK,,,
1.388683,I2C,'254',(0xFE),+,ACK,,,
1.38889925,I2C,'226',(0xE2),+,ACK,,,
1.3891155,I2C,'255',(0xFF),+,ACK,,,
1.38933175,I2C,c,(0x63),+,NAK,,,
1.38971025,I2C,Setup,Write,to,['208',(0xD0)],+,ACK
1.3899265,I2C,C,(0x43),+,ACK,,,
1.39017875,I2C,Setup,Read,to,['209',(0xD1)],+,ACK
1.39039525,I2C,'255',(0xFF),+,ACK,,,
1.39061125,I2C,r,(0x72),+,ACK,,,
1.39082775,I2C,'254',(0xFE),+,ACK,,,
1.39104375,I2C,'209',(0xD1),+,ACK,,,
1.39126025,I2C,'255',(0xFF),+,ACK,,,
1.3914765,I2C,k,(0x6B),+,NAK,,,
1.39185475,I2C,Setup,Write,to,['208',(0xD0)],+,ACK
1.392071,I2C,C,(0x43),+,ACK,,,
1.3923235,I2C,Setup,Read,to,['209',(0xD1)],+,ACK
1.39253975,I2C,'255',(0xFF),+,ACK,,,
1.392756,I2C,x,(0x78),+,ACK,,,
1.39297225,I2C,'254',(0xFE),+,ACK,,,
1.3931885,I2C,'238',(0xEE),+,ACK,,,
1.39340475,I2C,'255',(0xFF),+,ACK,,,
1.393621,I2C,k,(0x6B),+,NAK,,,
1.39399925,I2C,Setup,Write,to,['208',(0xD0)],+,ACK
1.3942155,I2C,C,(0x43),+,ACK,,,
1.394468,I2C,Setup,Read,to,['209',(0xD1)],+,ACK
1.394684,I2C,'255',(0xFF),+,ACK,,,
1.39490025,I2C,w,(0x77),+,ACK,,,
1.3951165,I2C,'254',(0xFE),+,ACK,,,
1.39533275,I2C,'238',(0xEE),+,ACK,,,
1.395549,I2C,'255',(0xFF),+,ACK,,,
1.39576525,I2C,i,(0x69),+,NAK,,,
1.39614375,I2C,Setup,Write,to,['208',(0xD0)],+,ACK
1.39636,I2C,C,(0x43),+,ACK,,,
1.39661225,I2C,Setup,Read,to,['209',(0xD1)],+,ACK
1.3968285,I2C,'255',(0xFF),+,ACK,,,
1.39704475,I2C,o,(0x6F),+,ACK,,,
1.397261,I2C,'254',(0xFE),+,ACK,,,
1.39747725,I2C,'230',(0xE6),+,ACK,,,
1.3976935,I2C,'255',(0xFF),+,ACK,,,
1.39790975,I2C,`,(0x60),+,NAK,,,
1.398288,I2C,Setup,Write,to,['208',(0xD0)],+,ACK
1.3985045,I2C,C,(0x43),+,ACK,,,
1.39875675,I2C,Setup,Read,to,['209',(0xD1)],+,ACK
1.398973,I2C,'255',(0xFF),+,ACK,,,
1.39918925,I2C,g,(0x67),+,ACK,,,
1.3994055,I2C,'254',(0xFE),+,ACK,,,
1.39962175,I2C,'233',(0xE9),+,ACK,,,
1.399838,I2C,'255',(0xFF),+,ACK,,,
1.40005425,I2C,b,(0x62),+,NAK,,,
1.40043275,I2C,Setup,Write,to,['208',(0xD0)],+,ACK
1.400649,I2C,C,(0x43),+,ACK,,,
1.40090125,I2C,Setup,Read,to,['209',(0xD1)],+,ACK
1.4011175,I2C,'255',(0xFF),+,ACK,,,
1.40133375,I2C,z,(0x7A),+,ACK,,,
1.40155025,I2C,'254',(0xFE),+,ACK,,,
1.4017665,I2C,'233',(0xE9),+,ACK,,,
1.40198275,I2C,'255',(0xFF),+,ACK,,,
1.40219875,I2C,q,(0x71),+,NAK,,,
1.40257725,I2C,Setup,Write,to,['208',(0xD0)],+,ACK
1.40279375,I2C,C,(0x43),+,ACK,,,
1.403046,I2C,Setup,Read,to,['209',(0xD1)],+,ACK
1.40326225,I2C,'255',(0xFF),+,ACK,,,
1.4034785,I2C,I,(0x49),+,ACK,,,
1.40369475,I2C,'254',(0xFE),+,ACK,,,
1.403911,I2C,'210',(0xD2),+,ACK,,,
1.40412725,I2C,'255',(0xFF),+,ACK,,,
1.4043435,I2C,V,(0x56),+,NAK,,,
1.404722,I2C,Setup,Write,to,['208',(0xD0)],+,ACK
1.40493825,I2C,C,(0x43),+,ACK,,,
1.4051905,I2C,Setup,Read,to,['209',(0xD1)],+,ACK
1.40540675,I2C,'255',(0xFF),+,ACK,,,
1.405623,I2C,g,(0x67),+,ACK,,,
1.4058395,I2C,'254',(0xFE),+,ACK,,,
1.40605575,I2C,'255',(0xFF),+,ACK,,,
1.406272,I2C,'255',(0xFF),+,ACK,,,
1.40648825,I2C,j,(0x6A),+,NAK,,,
1.40686675,I2C,Setup,Write,to,['208',(0xD0)],+,ACK
1.407083,I2C,C,(0x43),+,ACK,,,
1.40733525,I2C,Setup,Read,to,['209',(0xD1)],+,ACK
1.4075515,I2C,'255',(0xFF),+,ACK,,,
1.40776775,I2C,v,(0x76),+,ACK,,,
1.40798425,I2C,'254',(0xFE),+,ACK,,,
1.4082005,I2C,'242',(0xF2),+,ACK,,,
1.40841675,I2C,'255',(0xFF),+,ACK,,,
1.408633,I2C,c,(0x63),+,NAK,,,
1.4090115,I2C,Setup,Write,to,['208',(0xD0)],+,ACK
1.40922775,I2C,C,(0x43),+,ACK,,,
1.40948,I2C,Setup,Read,to,['209',(0xD1)],+,ACK
1.40969625,I2C,'255',(0xFF),+,ACK,,,
1.4099125,I2C,W,(0x57),+,ACK,,,
1.41012875,I2C,'254',(0xFE),+,ACK,,,
1.410345,I2C,'225',(0xE1),+,ACK,,,
1.41056125,I2C,'255',(0xFF),+,ACK,,,
1.4107775,I2C,f,(0x66),+,NAK,,,
1.411156,I2C,Setup,Write,to,['208',(0xD0)],+,ACK
1.41137225,I2C,C,(0x43),+,ACK,,,
1.4116245,I2C,Setup,Read,to,['209',(0xD1)],+,ACK
1.41184075,I2C,'255',(0xFF),+,ACK,,,
1.41205725,I2C,g,(0x67),+,ACK,,,
1.41227325,I2C,'254',(0xFE),+,ACK,,,
1.4124895,I2C,'211',(0xD3),+,ACK,,,
1.41270575,I2C,'255',(0xFF),+,ACK,,,
1.41292225,I2C,k,(0x6B),+,NAK,,,
1.41330075,I2C,Setup,Write,to,['208',(0xD0)],+,ACK
1.413517,I2C,C,(0x43),+,ACK,,,
1.41376925,I2C,Setup,Read,to,['209',(0xD1)],+,ACK
1.4139855,I2C,'255',(0xFF),+,ACK,,,
1.41420175,I2C,i,(0x69),+,ACK,,,
1.414418,I2C,'254',(0xFE),+,ACK,,,
1.41463425,I2C,'233',(0xE9),+,ACK,,,
1.41485075,I2C,'255',(0xFF),+,ACK,,,
1.415067,I2C,|,(0x7C),+,NAK,,,
1.4154455,I2C,Setup,Write,to,['208',(0xD0)],+,ACK
1.41566175,I2C,C,(0x43),+,ACK,,,
1.415914,I2C,Setup,Read,to,['209',(0xD1)],+,ACK
1.41613025,I2C,'255',(0xFF),+,ACK,,,
1.41634675,I2C,h,(0x68),+,ACK,,,
1.416563,I2C,'255',(0xFF),+,ACK,,,
1.41677925,I2C,'30',(0x1E),+,ACK,,,
1.41699525,I2C,'255',(0xFF),+,ACK,,,
1.41721175,I2C,L,(0x4C),+,NAK,,,
1.41759,I2C,Setup,Write,to,['208',(0xD0)],+,ACK
1.41780625,I2C,C,(0x43),+,ACK,,,
1.41805875,I2C,Setup,Read,to,['209',(0xD1)],+,ACK
1.418275,I2C,'255',(0xFF),+,ACK,,,
1.41849125,I2C,p,(0x70),+,ACK,,,
1.41870725,I2C,'254',(0xFE),+,ACK,,,
1.4189235,I2C,'221',(0xDD),+,ACK,,,
1.41914,I2C,'255',(0xFF),+,ACK,,,
1.41935625,I2C,p,(0x70),+,NAK,,,
1.4197345,I2C,Setup,Write,to,['208',(0xD0)],+,ACK
1.419951,I2C,C,(0x43),+,ACK,,,
1.42020325,I2C,Setup,Read,to,['209',(0xD1)],+,ACK
1.4204195,I2C,'255',(0xFF),+,ACK,,,
1.42063575,I2C,p,(0x70),+,ACK,,,
1.420852,I2C,'254',(0xFE),+,ACK,,,
1.42106825,I2C,'219',(0xDB),+,ACK,,,
1.4212845,I2C,'255',(0xFF),+,ACK,,,
1.42150075,I2C,n,(0x6E),+,NAK,,,
1.42187925,I2C,Setup,Write,to,['208',(0xD0)],+,ACK
1.42209525,I2C,C,(0x43),+,ACK,,,
1.4223475,I2C,Setup,Read,to,['209',(0xD1)],+,ACK
1.422564,I2C,'255',(0xFF),+,ACK,,,
1.42278025,I2C,y,(0x79),+,ACK,,,
1.4229965,I2C,'254',(0xFE),+,ACK,,,
1.42321275,I2C,'229',(0xE5),+,ACK,,,
1.423429,I2C,'255',(0xFF),+,ACK,,,
1.42364525,I2C,X,(0x58),+,NAK,,,
1.4240235,I2C,Setup,Write,to,['208',(0xD0)],+,ACK
1.42423975,I2C,C,(0x43),+,ACK,,,
1.424492,I2C,Setup,Read,to,['209',(0xD1)],+,ACK
1.42470825,I2C,'255',(0xFF),+,ACK,,,
1.4249245,I2C,S,(0x53),+,ACK,,,
1.42514075,I2C,'254',(0xFE),+,ACK,,,
1.42535675,I2C,'229',(0xE5),+,ACK,,,
1.42557325,I2C,'255',(0xFF),+,ACK,,,
1.42578925,I2C,_,(0x5F),+,NAK,,,
1.42616775,I2C,Setup,Write,to,['208',(0xD0)],+,ACK
1.426384,I2C,C,(0x43),+,ACK,,,
1.42663625,I2C,Setup,Read,to,['209',(0xD1)],+,ACK
1.4268525,I2C,'255',(0xFF),+,ACK,,,
1.42706875,I2C,i,(0x69),+,ACK,,,
1.427285,I2C,'254',(0xFE),+,ACK,,,
1.42750125,I2C,'224',(0xE0),+,ACK,,,
1.4277175,I2C,'255',(0xFF),+,ACK,,,
1.4279335,I2C,p,(0x70),+,NAK,,,
1.428312,I2C,Setup,Write,to,['208',(0xD0)],+,ACK
1.42852825,I2C,C,(0x43),+,ACK,,,
1.4287805,I2C,Setup,Read,to,['209',(0xD1)],+,ACK
1.42899675,I2C,'255',(0xFF),+,ACK,,,
1.429213,I2C,X,(0x58),+,ACK,,,
1.42942925,I2C,'254',(0xFE),+,ACK,,,
1.4296455,I2C,'244',(0xF4),+,ACK,,,
1.42986175,I2C,'255',(0xFF),+,ACK,,,
1.430078,I2C,Y,(0x59),+,NAK,,,
1.4304565,I2C,Setup,Write,to,['208',(0xD0)],+,ACK
1.430673,I2C,C,(0x43),+,ACK,,,
1.43092525,I2C,Setup,Read,to,['209',(0xD1)],+,ACK
1.4311415,I2C,'255',(0xFF),+,ACK,,,
1.43135775,I2C,p,(0x70),+,ACK,,,
1.43157375,I2C,'254',(0xFE),+,ACK,,,
1.43179025,I2C,'224',(0xE0),+,ACK,,,
1.4320065,I2C,'255',(0xFF),+,ACK,,,
1.4322225,I2C,d,(0x64),+,NAK,,,
1.432601,I2C,Setup,Write,to,['208',(0xD0)],+,ACK
1.43281725,I2C,C,(0x43),+,ACK,,,
1.43306975,I2C,Setup,Read,to,['209',(0xD1)],+,ACK
1.43328575,I2C,'255',(0xFF),+,ACK,,,
1.433502,I2C,x,(0x78),+,ACK,,,
1.43371825,I2C,'254',(0xFE),+,ACK,,,
1.43393475,I2C,'238',(0xEE),+,ACK,,,
1.434151,I2C,'255',(0xFF),+,ACK,,,
1.434367,I2C,T,(0x54),+,NAK,,,
1.4347455,I2C,Setup,Write,to,['208',(0xD0)],+,ACK
1.43496175,I2C,C,(0x43),+,ACK,,,
1.43521425,I2C,Setup,Read,to,['209',(0xD1)],+,ACK
1.43543025,I2C,'255',(0xFF),+,ACK,,,
1.4356465,I2C,c,(0x63),+,ACK,,,
1.435863,I2C,'254',(0xFE),+,ACK,,,
1.43607925,I2C,'216',(0xD8),+,ACK,,,
1.4362955,I2C,'255',(0xFF),+,ACK,,,
1.43651175,I2C,c,(0x63),+,NAK,,,
1.43689025,I2C,Setup,Write,to,['208',(0xD0)],+,ACK
1.4371065,I2C,C,(0x43),+,ACK,,,
1.43735875,I2C,Setup,Read,to,['209',(0xD1)],+,ACK
1.437575,I2C,'255',(0xFF),+,ACK,,,
1.43779125,I2C,s,(0x73),+,ACK,,,
1.43800775,I2C,'254',(0xFE),+,ACK,,,
1.438224,I2C,'242',(0xF2),+,ACK,,,
1.43844025,I2C,'255',(0xFF),+,ACK,,,
1.4386565,I2C,c,(0x63),+,NAK,,,
1.439035,I2C,Setup,Write,to,['208',(0xD0)],+,ACK
1.43925125,I2C,C,(0x43),+,ACK,,,
1.4395035,I2C,Setup,Read,to,['209',(0xD1)],+,ACK
1.43971975,I2C,'255',(0xFF),+,ACK,,,
1.439936,I2C,h,(0x68),+,ACK,,,
1.44015225,I2C,'254',(0xFE),+,ACK,,,
1.4403685,I2C,'239',(0xEF),+,ACK,,,
1.44058475,I2C,'255',(0xFF),+,ACK,,,
1.440801,I2C,a,(0x61),+,NAK,,,
1.44117975,I2C,Setup,Write,to,['208',(0xD0)],+,ACK
1.441396,I2C,C,(0x43),+,ACK,,,
1.44164825,I2C,Setup,Read,to,['209',(0xD1)],+,ACK
1.4418645,I2C,'255',(0xFF),+,ACK,,,
1.44208075,I2C,q,(0x71),+,ACK,,,
1.442297,I2C,'254',(0xFE),+,ACK,,,
1.44251325,I2C,'208',(0xD0),+,ACK,,,
1.4427295,I2C,'255',(0xFF),+,ACK,,,
1.44294575,I2C,H,(0x48),+,NAK,,,
1.44332425,I2C,Setup,Write,to,['208',(0xD0)],+,ACK
1.4435405,I2C,C,(0x43),+,ACK,,,
1.44379275,I2C,Setup,Read,to,['209',(0xD1)],+,ACK
1.444009,I2C,'255',(0xFF),+,ACK,,,
1.44422525,I2C,'127',(0x7F),+,ACK,,,
1.4444415,I2C,'254',(0xFE),+,ACK,,,
1.44465775,I2C,'242',(0xF2),+,ACK,,,
1.444874,I2C,'255',(0xFF),+,ACK,,,
1.44509025,I2C,j,(0x6A),+,NAK,,,
1.44546875,I2C,Setup,Write,to,['208',(0xD0)],+,ACK
1.445685,I2C,C,(0x43),+,ACK,,,
1.44593725,I2C,Setup,Read,to,['209',(0xD1)],+,ACK
1.4461535,I2C,'255',(0xFF),+,ACK,,,
1.44636975,I2C,n,(0x6E),+,ACK,,,
1.446586,I2C,'254',(0xFE),+,ACK,,,
1.44680225,I2C,'229',(0xE5),+,ACK,,,
1.4470185,I2C,'255',(0xFF),+,ACK,,,
1.44723475,I2C,b,(0x62),+,NAK,,,
1.44761325,I2C,Setup,Write,to,['208',(0xD0)],+,ACK
1.44782925,I2C,C,(0x43),+,ACK,,,
1.44808175,I2C,Setup,Read,to,['209',(0xD1)],+,ACK
1.448298,I2C,'255',(0xFF),+,ACK,,,
1.44851425,I2C,'128',(0x80),+,ACK,,,
1.4487305,I2C,'254',(0xFE),+,ACK,,,
1.44894675,I2C,'246',(0xF6),+,ACK,,,
1.449163,I2C,'255',(0xFF),+,ACK,,,
1.44937925,I2C,T,(0x54),+,NAK,,,
1.44975775,I2C,Setup,Write,to,['208',(0xD0)],+,ACK
1.449974,I2C,C,(0x43),+,ACK,,,
1.45022625,I2C,Setup,Read,to,['209',(0xD1)],+,ACK
1.4504425,I2C,'255',(0xFF),+,ACK,,,
1.45065875,I2C,G,(0x47),+,ACK,,,
1.450875,I2C,'254',(0xFE),+,ACK,,,
1.45109125,I2C,'225',(0xE1),+,ACK,,,
1.4513075,I2C,'255',(0xFF),+,ACK,,,
1.451524,I2C,k,(0x6B),+,NAK,,,
1.45190225,I2C,Setup,Write,to,['208',(0xD0)],+,ACK
1.4521185,I2C,C,(0x43),+,ACK,,,
1.452371,I2C,Setup,Read,to,['209',(0xD1)],+,ACK
1.45258725,I2C,'255',(0xFF),+,ACK,,,
1.4528035,I2C,'127',(0x7F),+,ACK,,,
1.45301975,I2C,'254',(0xFE),+,ACK,,,
1.453236,I2C,'254',(0xFE),+,ACK,,,
1.4534525,I2C,'255',(0xFF),+,ACK,,,
1.45366875,I2C,n,(0x6E),+,NAK,,,
1.45404725,I2C,Setup,Write,to,['208',(0xD0)],+,ACK
1.4542635,I2C,C,(0x43),+,ACK,,,
1.45451575,I2C,Setup,Read,to,['209',(0xD1)],+,ACK
1.45473225,I2C,'255',(0xFF),+,ACK,,,
1.4549485,I2C,\,(0x5C),+,ACK,,,
1.45516475,I2C,'254',(0xFE),+,ACK,,,
1.45538125,I2C,'225',(0xE1),+,ACK,,,
1.4555975,I2C,'255',(0xFF),+,ACK,,,
1.45581375,I2C,d,(0x64),+,NAK,,,
1.45619225,I2C,Setup,Write,to,['208',(0xD0)],+,ACK
1.4564085,I2C,C,(0x43),+,ACK,,,
1.456661,I2C,Setup,Read,to,['209',(0xD1)],+,ACK
1.4568775,I2C,'255',(0xFF),+,ACK,,,
1.45709375,I2C,b,(0x62),+,ACK,,,
1.45731,I2C,'254',(0xFE),+,ACK,,,
1.45752625,I2C,'205',(0xCD),+,ACK,,,
1.45774275,I2C,'255',(0xFF),+,ACK,,,
1.457959,I2C,e,(0x65),+,NAK,,,
1.4583375,I2C,Setup,Write,to,['208',(0xD0)],+,ACK
1.45855375,I2C,C,(0x43),+,ACK,,,
1.458806,I2C,Setup,Read,to,['209',(0xD1)],+,ACK
1.45902225,I2C,'255',(0xFF),+,ACK,,,
1.4592385,I2C,N,(0x4E),+,ACK,,,
1.45945475,I2C,'254',(0xFE),+,ACK,,,
1.459671,I2C,'241',(0xF1),+,ACK,,,
1.4598875,I2C,'255',(0xFF),+,ACK,,,
1.46010375,I2C,x,(0x78),+,NAK,,,
1.46048225,I2C,Setup,Write,to,['208',(0xD0)],+,ACK
1.4606985,I2C,C,(0x43),+,ACK,,,
1.46095075,I2C,Setup,Read,to,['209',(0xD1)],+,ACK
1.461167,I2C,'255',(0xFF),+,ACK,,,
1.46138325,I2C,'131',(0x83),+,ACK,,,
1.46159975,I2C,'254',(0xFE),+,ACK,,,
1.461816,I2C,'213',(0xD5),+,ACK,,,
1.46203225,I2C,'255',(0xFF),+,ACK,,,
1.4622485,I2C,c,(0x63),+,NAK,,,
1.46262675,I2C,Setup,Write,to,['208',(0xD0)],+,ACK
1.462843,I2C,C,(0x43),+,ACK,,,
1.4630955,I2C,Setup,Read,to,['209',(0xD1)],+,ACK
1.46331175,I2C,'255',(0xFF),+,ACK,,,
1.46352775,I2C,d,(0x64),+,ACK,,,
1.463744,I2C,'254',(0xFE),+,ACK,,,
1.4639605,I2C,'254',(0xFE),+,ACK,,,
1.46417675,I2C,'255',(0xFF),+,ACK,,,
1.46439275,I2C,u,(0x75),+,NAK,,,
1.46477125,I2C,Setup,Write,to,['208',(0xD0)],+,ACK
1.4649875,I2C,C,(0x43),+,ACK,,,
1.46524,I2C,Setup,Read,to,['209',(0xD1)],+,ACK
1.46545625,I2C,'255',(0xFF),+,ACK,,,
1.46567225,I2C,^,(0x5E),+,ACK,,,
1.4658885,I2C,'254',(0xFE),+,ACK,,,
1.46610475,I2C,'231',(0xE7),+,ACK,,,
1.466321,I2C,'255',(0xFF),+,ACK,,,
1.46653725,I2C,X,(0x58),+,NAK,,,
1.46691575,I2C,Setup,Write,to,['208',(0xD0)],+,ACK
1.467132,I2C,C,(0x43),+,ACK,,,
1.4673845,I2C,Setup,Read,to,['209',(0xD1)],+,ACK
1.46760075,I2C,'255',(0xFF),+,ACK,,,
1.467817,I2C,p,(0x70),+,ACK,,,
1.468033,I2C,'254',(0xFE),+,ACK,,,
1.4682495,I2C,'232',(0xE8),+,ACK,,,
1.4684655,I2C,'255',(0xFF),+,ACK,,,
1.46868175,I2C,j,(0x6A),+,NAK,,,
1.46906025,I2C,Setup,Write,to,['208',(0xD0)],+,ACK
1.4692765,I2C,C,(0x43),+,ACK,,,
1.469529,I2C,Setup,Read,to,['209',(0xD1)],+,ACK
1.46974525,I2C,'255',(0xFF),+,ACK,,,
1.4699615,I2C,f,(0x66),+,ACK,,,
1.47017775,I2C,'254',(0xFE),+,ACK,,,
1.470394,I2C,'242',(0xF2),+,ACK,,,
1.4706105,I2C,'255',(0xFF),+,ACK,,,
1.47082675,I2C,'128',(0x80),+,NAK,,,
1.471205,I2C,Setup,Write,to,['208',(0xD0)],+,ACK
1.47142125,I2C,C,(0x43),+,ACK,,,
1.47167375,I2C,Setup,Read,to,['209',(0xD1)],+,ACK
1.47189,I2C,'255',(0xFF),+,ACK,,,
1.472106,I2C,'131',(0x83),+,ACK,,,
1.47232225,I2C,'254',(0xFE),+,ACK,,,
1.4725385,I2C,'248',(0xF8),+,ACK,,,
1.47275475,I2C,'255',(0xFF),+,ACK,,,
1.472971,I2C,j,(0x6A),+,NAK,,,
1.4733495,I2C,Setup,Write,to,['208',(0xD0)],+,ACK
1.47356575,I2C,C,(0x43),+,ACK,,,
1.473818,I2C,Setup,Read,to,['209',(0xD1)],+,ACK
1.474034,I2C,'255',(0xFF),+,ACK,,,
1.47425025,I2C,'133',(0x85),+,ACK,,,
1.47446675,I2C,'254',(0xFE),+,ACK,,,
1.47468275,I2C,'225',(0xE1),+,ACK,,,
1.47489925,I2C,'255',(0xFF),+,ACK,,,
1.4751155,I2C,n,(0x6E),+,NAK,,,
1.475494,I2C,Setup,Write,to,['208',(0xD0)],+,ACK
1.47571025,I2C,C,(0x43),+,ACK,,,
1.4759625,I2C,Setup,Read,to,['209',(0xD1)],+,ACK
1.47617875,I2C,'255',(0xFF),+,ACK,,,
1.47639525,I2C,\,(0x5C),+,ACK,,,
1.4766115,I2C,'254',(0xFE),+,ACK,,,
1.47682775,I2C,'195',(0xC3),+,ACK,,,
1.477044,I2C,'255',(0xFF),+,ACK,,,
1.47726025,I2C,g,(0x67),+,NAK,,,
1.47763875,I2C,Setup,Write,to,['208',(0xD0)],+,ACK
1.477855,I2C,C,(0x43),+,ACK,,,
1.47810725,I2C,Setup,Read,to,['209',(0xD1)],+,ACK
1.4783235,I2C,'255',(0xFF),+,ACK,,,
1.47853975,I2C,'134',(0x86),+,ACK,,,
1.478756,I2C,'254',(0xFE),+,ACK,,,
1.47897225,I2C,'238',(0xEE),+,ACK,,,
1.4791885,I2C,'255',(0xFF),+,ACK,,,
1.47940475,I2C,\,(0x5C),+,NAK,,,
1.47978325,I2C,Setup,Write,to,['208',(0xD0)],+,ACK
1.4799995,I2C,C,(0x43),+,ACK,,,
1.48025175,I2C,Setup,Read,to,['209',(0xD1)],+,ACK
1.480468,I2C,'255',(0xFF),+,ACK,,,
1.4806845,I2C,h,(0x68),+,ACK,,,
1.48090075,I2C,'254',(0xFE),+,ACK,,,
1.481117,I2C,'224',(0xE0),+,ACK,,,
1.48133325,I2C,'255',(0xFF),+,ACK,,,
1.4815495,I2C,],(0x5D),+,NAK,,,
1.481928,I2C,Setup,Write,to,['208',(0xD0)],+,ACK
1.48214425,I2C,C,(0x43),+,ACK,,,
1.4823965,I2C,Setup,Read,to,['209',(0xD1)],+,ACK
1.48261275,I2C,'255',(0xFF),+,ACK,,,
1.482829,I2C,'148',(0x94),+,ACK,,,
1.48304525,I2C,'254',(0xFE),+,ACK,,,
1.4832615,I2C,'231',(0xE7),+,ACK,,,
1.48347775,I2C,'255',(0xFF),+,ACK,,,
1.483694,I2C,i,(0x69),+,NAK,,,
1.4840725,I2C,Setup,Write,to,['208',(0xD0)],+,ACK
1.48428875,I2C,C,(0x43),+,ACK,,,
1.484541,I2C,Setup,Read,to,['209',(0xD1)],+,ACK
1.48475725,I2C,'255',(0xFF),+,ACK,,,
1.4849735,I2C,y,(0x79),+,ACK,,,
1.48518975,I2C,'254',(0xFE),+,ACK,,,
1.48540575,I2C,'212',(0xD4),+,ACK,,,
1.485622,I2C,'255',(0xFF),+,ACK,,,
1.48583825,I2C,i,(0x69),+,NAK,,,
1.48621675,I2C,Setup,Write,to,['208',(0xD0)],+,ACK
1.486433,I2C,C,(0x43),+,ACK,,,
1.48668525,I2C,Setup,Read,to,['209',(0xD1)],+,ACK
1.4869015,I2C,'255',(0xFF),+,ACK,,,
1.48711775,I2C,n,(0x6E),+,ACK,,,
1.487334,I2C,'254',(0xFE),+,ACK,,,
1.48755025,I2C,'243',(0xF3),+,ACK,,,
1.4877665,I2C,'255',(0xFF),+,ACK,,,
1.48798275,I2C,j,(0x6A),+,NAK,,,
1.48836125,I2C,Setup,Write,to,['208',(0xD0)],+,ACK
1.4885775,I2C,C,(0x43),+,ACK,,,
1.48882975,I2C,Setup,Read,to,['209',(0xD1)],+,ACK
1.489046,I2C,'255',(0xFF),+,ACK,,,
1.48926225,I2C,c,(0x63),+,ACK,,,
1.4894785,I2C,'254',(0xFE),+,ACK,,,
1.48969475,I2C,'226',(0xE2),+,ACK,,,
1.489911,I2C,'255',(0xFF),+,ACK,,,
1.49012725,I2C,e,(0x65),+,NAK,,,
1.49050575,I2C,Setup,Write,to,['208',(0xD0)],+,ACK
1.490722,I2C,C,(0x43),+,ACK,,,
1.49097425,I2C,Setup,Read,to,['209',(0xD1)],+,ACK
1.4911905,I2C,'255',(0xFF),+,ACK,,,
1.49140675,I2C,d,(0x64),+,ACK,,,
1.491623,I2C,'254',(0xFE),+,ACK,,,
1.49183925,I2C,'219',(0xDB),+,ACK,,,
1.4920555,I2C,'255',(0xFF),+,ACK,,,
1.49227175,I2C,g,(0x67),+,NAK,,,
1.49265025,I2C,Setup,Write,to,['208',(0xD0)],+,ACK
1.4928665,I2C,C,(0x43),+,ACK,,,
1.49311875,I2C,Setup,Read,to,['209',(0xD1)],+,ACK
1.493335,I2C,'255',(0xFF),+,ACK,,,
1.49355125,I2C,'133',(0x85),+,ACK,,,
1.4937675,I2C,'254',(0xFE),+,ACK,,,
1.49398375,I2C,'235',(0xEB),+,ACK,,,
1.4942,I2C,'255',(0xFF),+,ACK,,,
1.49441625,I2C,X,(0x58),+,NAK,,,
1.4947945,I2C,Setup,Write,to,['208',(0xD0)],+,ACK
1.49501075,I2C,C,(0x43),+,ACK,,,
1.49526325,I2C,Setup,Read,to,['209',(0xD1)],+,ACK
1.4954795,I2C,'255',(0xFF),+,ACK,,,
1.49569575,I2C,],(0x5D),+,ACK,,,
1.495912,I2C,'254',(0xFE),+,ACK,,,
1.49612825,I2C,'219',(0xDB),+,ACK,,,
1.4963445,I2C,'255',(0xFF),+,ACK,,,
1.49656075,I2C,o,(0x6F),+,NAK,,,
1.49693925,I2C,Setup,Write,to,['208',(0xD0)],+,ACK
1.4971555,I2C,C,(0x43),+,ACK,,,
1.497408,I2C,Setup,Read,to,['209',(0xD1)],+,ACK
1.497624,I2C,'255',(0xFF),+,ACK,,,
1.49784025,I2C,c,(0x63),+,ACK,,,
1.4980565,I2C,'254',(0xFE),+,ACK,,,
1.498273,I2C,'244',(0xF4),+,ACK,,,
1.49848925,I2C,'255',(0xFF),+,ACK,,,
1.4987055,I2C,Z,(0x5A),+,NAK,,,
1.499084,I2C,Setup,Write,to,['208',(0xD0)],+,ACK
1.49930025,I2C,C,(0x43),+,ACK,,,
1.4995525,I2C,Setup,Read,to,['209',(0xD1)],+,ACK
1.49976875,I2C,'255',(0xFF),+,ACK,,,
1.499985,I2C,s,(0x73),+,ACK,,,
1.50020125,I2C,'254',(0xFE),+,ACK,,,
1.5004175,I2C,'221',(0xDD),+,ACK,,,
1.50063375,I2C,'255',(0xFF),+,ACK,,,
1.50085,I2C,^,(0x5E),+,NAK,,,
1.5012285,I2C,Setup,Write,to,['208',(0xD0)],+,ACK
1.501445,I2C,C,(0x43),+,ACK,,,
1.50169725,I2C,Setup,Read,to,['209',(0xD1)],+,ACK
1.5019135,I2C,'255',(0xFF),+,ACK,,,
1.50212975,I2C,o,(0x6F),+,ACK,,,
1.50234575,I2C,'254',(0xFE),+,ACK,,,
1.50256225,I2C,'246',(0xF6),+,ACK,,,
1.5027785,I2C,'255',(0xFF),+,ACK,,,
1.50299475,I2C,d,(0x64),+,NAK,,,
1.503373,I2C,Setup,Write,to,['208',(0xD0)],+,ACK
1.5035895,I2C,C,(0x43),+,ACK,,,
1.50384175,I2C,Setup,Read,to,['209',(0xD1)],+,ACK
1.504058,I2C,'255',(0xFF),+,ACK,,,
1.50427425,I2C,y,(0x79),+,ACK,,,
1.5044905,I2C,'254',(0xFE),+,ACK,,,
1.50470675,I2C,'230',(0xE6),+,ACK,,,
1.504923,I2C,'255',(0xFF),+,ACK,,,
1.50513925,I2C,[,(0x5B),+,NAK,,,
1.50551775,I2C,Setup,Write,to,['208',(0xD0)],+,ACK
1.505734,I2C,C,(0x43),+,ACK,,,
1.50598625,I2C,Setup,Read,to,['209',(0xD1)],+,ACK
1.5062025,I2C,'255',(0xFF),+,ACK,,,
1.50641875,I2C,'135',(0x87),+,ACK,,,
1.506635,I2C,'254',(0xFE),+,ACK,,,
1.50685125,I2C,'237',(0xED),+,ACK,,,
1.5070675,I2C,'255',(0xFF),+,ACK,,,
1.50728375,I2C,r,(0x72),+,NAK,,,
1.50766225,I2C,Setup,Write,to,['208',(0xD0)],+,ACK
1.5078785,I2C,C,(0x43),+,ACK,,,
1.50813075,I2C,Setup,Read,to,['209',(0xD1)],+,ACK
1.508347,I2C,'255',(0xFF),+,ACK,,,
1.50856325,I2C,v,(0x76),+,ACK,,,
1.5087795,I2C,'254',(0xFE),+,ACK,,,
1.50899575,I2C,'219',(0xDB),+,ACK,,,
1.509212,I2C,'255',(0xFF),+,ACK,,,
1.50942825,I2C,T,(0x54),+,NAK,,,
1.50980675,I2C,Setup,Write,to,['208',(0xD0)],+,ACK
1.510023,I2C,C,(0x43),+,ACK,,,
1.51027525,I2C,Setup,Read,to,['209',(0xD1)],+,ACK
1.5104915,I2C,'255',(0xFF),+,ACK,,,
1.51070775,I2C,w,(0x77),+,ACK,,,
1.510924,I2C,'254',(0xFE),+,ACK,,,
1.51114025,I2C,'240',(0xF0),+,ACK,,,
1.5113565,I2C,'255',(0xFF),+,ACK,,,
1.51157275,I2C,m,(0x6D),+,NAK,,,
1.51195125,I2C,Setup,Write,to,['208',(0xD0)],+,ACK
1.5121675,I2C,C,(0x43),+,ACK,,,
1.51241975,I2C,Setup,Read,to,['209',(0xD1)],+,ACK
1.512636,I2C,'255',(0xFF),+,ACK,,,
1.51285225,I2C,h,(0x68),+,ACK,,,
1.5130685,I2C,'254',(0xFE),+,ACK,,,
1.51328475,I2C,'249',(0xF9),+,ACK,,,
1.513501,I2C,'255',(0xFF),+,ACK,,,
1.51371725,I2C,Z,(0x5A),+,NAK,,,
1.51409575,I2C,Setup,Write,to,['208',(0xD0)],+,ACK
1.514312,I2C,C,(0x43),+,ACK,,,
1.51456425,I2C,Setup,Read,to,['209',(0xD1)],+,ACK
1.5147805,I2C,'255',(0xFF),+,ACK,,,
1.51499675,I2C,n,(0x6E),+,ACK,,,
1.515213,I2C,'254',(0xFE),+,ACK,,,
1.51542925,I2C,'193',(0xC1),+,ACK,,,
1.5156455,I2C,'255',(0xFF),+,ACK,,,
1.51586175,I2C,n,(0x6E),+,NAK,,,
1.51624025,I2C,Setup,Write,to,['208',(0xD0)],+,ACK
1.51645675,I2C,C,(0x43),+,ACK,,,
1.516709,I2C,Setup,Read,to,['209',(0xD1)],+,ACK
1.51692525,I2C,'255',(0xFF),+,ACK,,,
1.5171415,I2C,u,(0x75),+,ACK,,,
1.51735775,I2C,'255',(0xFF),+,ACK,,,
1.517574,I2C,'0',(0x00),+,ACK,,,
1.51779025,I2C,'255',(0xFF),+,ACK,,,
1.51800675,I2C,Z,(0x5A),+,NAK,,,
1.51838525,I2C,Setup,Write,to,['208',(0xD0)],+,ACK
1.5186015,I2C,C,(0x43),+,ACK,,,
1.51885375,I2C,Setup,Read,to,['209',(0xD1)],+,ACK
1.51907,I2C,'255',(0xFF),+,ACK,,,
1.51928625,I2C,e,(0x65),+,ACK,,,
1.5195025,I2C,'254',(0xFE),+,ACK,,,
1.51971875,I2C,'240',(0xF0),+,ACK,,,
1.51993525,I2C,'255',(0xFF),+,ACK,,,
1.5201515,I2C,l,(0x6C),+,NAK,,,
1.52053025,I2C,Setup,Write,to,['208',(0xD0)],+,ACK
1.5207465,I2C,C,(0x43),+,ACK,,,
1.520999,I2C,Setup,Read,to,['209',(0xD1)],+,ACK
1.52121525,I2C,'255',(0xFF),+,ACK,,,
1.5214315,I2C,x,(0x78),+,ACK,,,
1.52164775,I2C,'254',(0xFE),+,ACK,,,
1.52186425,I2C,'247',(0xF7),+,ACK,,,
1.5220805,I2C,'255',(0xFF),+,ACK,,,
1.52229675,I2C,u,(0x75),+,NAK,,,
1.52267525,I2C,Setup,Write,to,['208',(0xD0)],+,ACK
1.5228915,I2C,C,(0x43),+,ACK,,,
1.52314375,I2C,Setup,Read,to,['209',(0xD1)],+,ACK
1.52336,I2C,'255',(0xFF),+,ACK,,,
1.52357625,I2C,},(0x7D),+,ACK,,,
1.5237925,I2C,'254',(0xFE),+,ACK,,,
1.52400875,I2C,'219',(0xDB),+,ACK,,,
1.524225,I2C,'255',(0xFF),+,ACK,,,
1.52444125,I2C,_,(0x5F),+,NAK,,,
1.52481975,I2C,Setup,Write,to,['208',(0xD0)],+,ACK
1.525036,I2C,C,(0x43),+,ACK,,,
1.52528825,I2C,Setup,Read,to,['209',(0xD1)],+,ACK
1.5255045,I2C,'255',(0xFF),+,ACK,,,
1.52572075,I2C,t,(0x74),+,ACK,,,
1.525937,I2C,'254',(0xFE),+,ACK,,,
1.52615325,I2C,'236',(0xEC),+,ACK,,,
1.5263695,I2C,'255',(0xFF),+,ACK,,,
1.52658575,I2C,i,(0x69),+,NAK,,,
1.526964,I2C,Setup,Write,to,['208',(0xD0)],+,ACK
1.52718025,I2C,C,(0x43),+,ACK,,,
1.52743275,I2C,Setup,Read,to,['209',(0xD1)],+,ACK
1.527649,I2C,'255',(0xFF),+,ACK,,,
1.52786525,I2C,h,(0x68),+,ACK,,,
1.52808125,I2C,'254',(0xFE),+,ACK,,,
1.5282975,I2C,'221',(0xDD),+,ACK,,,
1.528514,I2C,'255',(0xFF),+,ACK,,,
1.52873025,I2C,e,(0x65),+,NAK,,,
1.5291085,I2C,Setup,Write,to,['208',(0xD0)],+,ACK
1.52932475,I2C,C,(0x43),+,ACK,,,
1.52957725,I2C,Setup,Read,to,['209',(0xD1)],+,ACK
1.5297935,I2C,'255',(0xFF),+,ACK,,,
1.53000975,I2C,x,(0x78),+,ACK,,,
1.530226,I2C,'254',(0xFE),+,ACK,,,
1.53044225,I2C,'219',(0xDB),+,ACK,,,
1.5306585,I2C,'255',(0xFF),+,ACK,,,
1.53087475,I2C,l,(0x6C),+,NAK,,,
1.53125325,I2C,Setup,Write,to,['208',(0xD0)],+,ACK
1.5314695,I2C,C,(0x43),+,ACK,,,
1.53172175,I2C,Setup,Read,to,['209',(0xD1)],+,ACK
1.531938,I2C,'255',(0xFF),+,ACK,,,
1.53215425,I2C,z,(0x7A),+,ACK,,,
1.5323705,I2C,'254',(0xFE),+,ACK,,,
1.532587,I2C,'252',(0xFC),+,ACK,,,
1.53280325,I2C,'255',(0xFF),+,ACK,,,
1.5330195,I2C,o,(0x6F),+,NAK,,,
1.533398,I2C,Setup,Write,to,['208',(0xD0)],+,ACK
1.53361425,I2C,C,(0x43),+,ACK,,,
1.53386675,I2C,Setup,Read,to,['209',(0xD1)],+,ACK
1.534083,I2C,'255',(0xFF),+,ACK,,,
1.53429925,I2C,u,(0x75),+,ACK,,,
1.5345155,I2C,'254',(0xFE),+,ACK,,,
1.534732,I2C,'219',(0xDB),+,ACK,,,
1.53494825,I2C,'255',(0xFF),+,ACK,,,
1.5351645,I2C,V,(0x56),+,NAK,,,
1.535543,I2C,Setup,Write,to,['208',(0xD0)],+,ACK
1.5357595,I2C,C,(0x43),+,ACK,,,
1.53601175,I2C,Setup,Read,to,['209',(0xD1)],+,ACK
1.536228,I2C,'255',(0xFF),+,ACK,,,
1.53644425,I2C,{,(0x7B),+,ACK,,,
1.5366605,I2C,'254',(0xFE),+,ACK,,,
1.53687675,I2C,'227',(0xE3),+,ACK,,,
1.537093,I2C,'255',(0xFF),+,ACK,,,
1.5373095,I2C,t,(0x74),+,NAK,,,
1.537688,I2C,Setup,Write,to,['208',(0xD0)],+,ACK
1.53790425,I2C,C,(0x43),+,ACK,,,
1.5381565,I2C,Setup,Read,to,['209',(0xD1)],+,ACK
1.53837275,I2C,'255',(0xFF),+,ACK,,,
1.538589,I2C,s,(0x73),+,ACK,,,
1.5388055,I2C,'255',(0xFF),+,ACK,,,
1.53902175,I2C,'7',(0x07),+,ACK,,,
1.539238,I2C,'255',(0xFF),+,ACK,,,
1.53945425,I2C,'129',(0x81),+,NAK,,,
1.53983275,I2C,Setup,Write,to,['208',(0xD0)],+,ACK
1.540049,I2C,C,(0x43),+,ACK,,,
1.54030125,I2C,Setup,Read,to,['209',(0xD1)],+,ACK
1.5405175,I2C,'255',(0xFF),+,ACK,,,
1.54073375,I2C,'127',(0x7F),+,ACK,,,
1.54095025,I2C,'254',(0xFE),+,ACK,,,
1.5411665,I2C,'233',(0xE9),+,ACK,,,
1.54138275,I2C,'255',(0xFF),+,ACK,,,
1.541599,I2C,],(0x5D),+,NAK,,,
1.5419775,I2C,Setup,Write,to,['208',(0xD0)],+,ACK
1.54219375,I2C,C,(0x43),+,ACK,,,
1.542446,I2C,Setup,Read,to,['209',(0xD1)],+,ACK
1.54266225,I2C,'255',(0xFF),+,ACK,,,
1.5428785,I2C,Q,(0x51),+,ACK,,,
1.543095,I2C,'254',(0xFE),+,ACK,,,
1.54331125,I2C,'222',(0xDE),+,ACK,,,
1.5435275,I2C,'255',(0xFF),+,ACK,,,
1.54374375,I2C,\,(0x5C),+,NAK,,,
1.54412225,I2C,Setup,Write,to,['208',(0xD0)],+,ACK
1.5443385,I2C,C,(0x43),+,ACK,,,
1.54459075,I2C,Setup,Read,to,['209',(0xD1)],+,ACK
1.544807,I2C,'255',(0xFF),+,ACK,,,
1.54502325,I2C,'140',(0x8C),+,ACK,,,
1.54523975,I2C,'254',(0xFE),+,ACK,,,
1.54545575,I2C,'204',(0xCC),+,ACK,,,
1.545672,I2C,'255',(0xFF),+,ACK,,,
1.54588825,I2C,N,(0x4E),+,NAK,,,
1.546267,I2C,Setup,Write,to,['208',(0xD0)],+,ACK
1.54648325,I2C,C,(0x43),+,ACK,,,
1.5467355,I2C,Setup,Read,to,['209',(0xD1)],+,ACK
1.54695175,I2C,'255',(0xFF),+,ACK,,,
1.54716825,I2C,u,(0x75),+,ACK,,,
1.5473845,I2C,'254',(0xFE),+,ACK,,,
1.54760075,I2C,'237',(0xED),+,ACK,,,
1.547817,I2C,'255',(0xFF),+,ACK,,,
1.5480335,I2C,h,(0x68),+,NAK,,,
1.54841175,I2C,Setup,Write,to,['208',(0xD0)],+,ACK
1.548628,I2C,C,(0x43),+,ACK,,,
1.5488805,I2C,Setup,Read,to,['209',(0xD1)],+,ACK
1.5490965,I2C,'255',(0xFF),+,ACK,,,
1.549313,I2C,r,(0x72),+,ACK,,,
1.54952925,I2C,'254',(0xFE),+,ACK,,,
1.5497455,I2C,'230',(0xE6),+,ACK,,,
1.54996175,I2C,'255',(0xFF),+,ACK,,,
1.55017825,I2C,Q,(0x51),+,NAK,,,
1.55055675,I2C,Setup,Write,to,['208',(0xD0)],+,ACK
1.550773,I2C,C,(0x43),+,ACK,,,
1.55102525,I2C,Setup,Read,to,['209',(0xD1)],+,ACK
1.5512415,I2C,'255',(0xFF),+,ACK,,,
1.551458,I2C,f,(0x66),+,ACK,,,
1.55167425,I2C,'254',(0xFE),+,ACK,,,
1.5518905,I2C,'223',(0xDF),+,ACK,,,
1.55210675,I2C,'255',(0xFF),+,ACK,,,
1.552323,I2C,j,(0x6A),+,NAK,,,
1.5527015,I2C,Setup,Write,to,['208',(0xD0)],+,ACK
1.55291775,I2C,C,(0x43),+,ACK,,,
1.55317,I2C,Setup,Read,to,['209',(0xD1)],+,ACK
1.55338625,I2C,'255',(0xFF),+,ACK,,,
1.5536025,I2C,k,(0x6B),+,ACK,,,
1.55381875,I2C,'254',(0xFE),+,ACK,,,
1.554035,I2C,'254',(0xFE),+,ACK,,,
1.55425125,I2C,'255',(0xFF),+,ACK,,,
1.5544675,I2C,^,(0x5E),+,NAK,,,
1.554846,I2C,Setup,Write,to,['208',(0xD0)],+,ACK
1.55506225,I2C,C,(0x43),+,ACK,,,
1.55531475,I2C,Setup,Read,to,['209',(0xD1)],+,ACK
1.555531,I2C,'255',(0xFF),+,ACK,,,
1.55574725,I2C,a,(0x61),+,ACK,,,
1.5559635,I2C,'254',(0xFE),+,ACK,,,
1.55617975,I2C,'227',(0xE3),+,ACK,,,
1.55639625,I2C,'255',(0xFF),+,ACK,,,
1.5566125,I2C,[,(0x5B),+,NAK,,,
1.556991,I2C,Setup,Write,to,['208',(0xD0)],+,ACK
1.55720725,I2C,C,(0x43),+,ACK,,,
1.5574595,I2C,Setup,Read,to,['209',(0xD1)],+,ACK
1.55767575,I2C,'255',(0xFF),+,ACK,,,
1.557892,I2C,v,(0x76),+,ACK,,,
1.55810825,I2C,'254',(0xFE),+,ACK,,,
1.5583245,I2C,'225',(0xE1),+,ACK,,,
1.55854075,I2C,'255',(0xFF),+,ACK,,,
1.558757,I2C,s,(0x73),+,NAK,,,
1.5591355,I2C,Setup,Write,to,['208',(0xD0)],+,ACK
1.55935175,I2C,C,(0x43),+,ACK,,,
1.559604,I2C,Setup,Read,to,['209',(0xD1)],+,ACK
1.5598205,I2C,'255',(0xFF),+,ACK,,,
1.56003675,I2C,i,(0x69),+,ACK,,,
1.560253,I2C,'254',(0xFE),+,ACK,,,
1.56046925,I2C,'228',(0xE4),+,ACK,,,
1.56068575,I2C,'255',(0xFF),+,ACK,,,
1.560902,I2C,U,(0x55),+,NAK,,,
1.56128075,I2C,Setup,Write,to,['208',(0xD0)],+,ACK
1.561497,I2C,C,(0x43),+,ACK,,,
1.5617495,I2C,Setup,Read,to,['209',(0xD1)],+,ACK
1.561966,I2C,'255',(0xFF),+,ACK,,,
1.56218225,I2C,'129',(0x81),+,ACK,,,
1.5623985,I2C,'254',(0xFE),+,ACK,,,
1.56261475,I2C,'240',(0xF0),+,ACK,,,
1.56283125,I2C,'255',(0xFF),+,ACK,,,
1.5630475,I2C,^,(0x5E),+,NAK,,,
1.563426,I2C,Setup,Write,to,['208',(0xD0)],+,ACK
1.56364225,I2C,C,(0x43),+,ACK,,,
1.56389475,I2C,Setup,Read,to,['209',(0xD1)],+,ACK
1.56411075,I2C,'255',(0xFF),+,ACK,,,
1.564327,I2C,j,(0x6A),+,ACK,,,
1.56454325,I2C,'254',(0xFE),+,ACK,,,
1.56475975,I2C,'213',(0xD5),+,ACK,,,
1.564976,I2C,'255',(0xFF),+,ACK,,,
1.56519225,I2C,`,(0x60),+,NAK,,,
1.56557075,I2C,Setup,Write,to,['208',(0xD0)],+,ACK
1.565787,I2C,C,(0x43),+,ACK,,,
1.56603925,I2C,Setup,Read,to,['209',(0xD1)],+,ACK
1.5662555,I2C,'255',(0xFF),+,ACK,,,
1.56647175,I2C,g,(0x67),+,ACK,,,
1.566688,I2C,'254',(0xFE),+,ACK,,,
1.5669045,I2C,'222',(0xDE),+,ACK,,,
1.56712075,I2C,'255',(0xFF),+,ACK,,,
1.567337,I2C,g,(0x67),+,NAK,,,
1.5677155,I2C,Setup,Write,to,['208',(0xD0)],+,ACK
1.567932,I2C,C,(0x43),+,ACK,,,
1.56818425,I2C,Setup,Read,to,['209',(0xD1)],+,ACK
1.5684005,I2C,'255',(0xFF),+,ACK,,,
1.56861675,I2C,'143',(0x8F),+,ACK,,,
1.568833,I2C,'254',(0xFE),+,ACK,,,
1.56904925,I2C,'235',(0xEB),+,ACK,,,
1.5692655,I2C,'255',(0xFF),+,ACK,,,
1.56948175,I2C,p,(0x70),+,NAK,,,
1.56986,I2C,Setup,Write,to,['208',(0xD0)],+,ACK
1.5700765,I2C,C,(0x43),+,ACK,,,
1.57032875,I2C,Setup,Read,to,['209',(0xD1)],+,ACK
1.570545,I2C,'255',(0xFF),+,ACK,,,
1.57076125,I2C,n,(0x6E),+,ACK,,,
1.5709775,I2C,'254',(0xFE),+,ACK,,,
1.57119375,I2C,'241',(0xF1),+,ACK,,,
1.57141,I2C,'255',(0xFF),+,ACK,,,
1.57162625,I2C,b,(0x62),+,NAK,,,
1.57200475,I2C,Setup,Write,to,['208',(0xD0)],+,ACK
1.572221,I2C,C,(0x43),+,ACK,,,
1.57247325,I2C,Setup,Read,to,['209',(0xD1)],+,ACK
1.5726895,I2C,'255',(0xFF),+,ACK,,,
1.572906,I2C,l,(0x6C),+,ACK,,,
1.57312225,I2C,'254',(0xFE),+,ACK,,,
1.5733385,I2C,'238',(0xEE),+,ACK,,,
1.57355475,I2C,'255',(0xFF),+,ACK,,,
1.573771,I2C,`,(0x60),+,NAK,,,
1.5741495,I2C,Setup,Write,to,['208',(0xD0)],+,ACK
1.57436575,I2C,C,(0x43),+,ACK,,,
1.574618,I2C,Setup,Read,to,['209',(0xD1)],+,ACK
1.57483425,I2C,'255',(0xFF),+,ACK,,,
1.5750505,I2C,'140',(0x8C),+,ACK,,,
1.57526675,I2C,'254',(0xFE),+,ACK,,,
1.575483,I2C,'239',(0xEF),+,ACK,,,
1.57569925,I2C,'255',(0xFF),+,ACK,,,
1.5759155,I2C,p,(0x70),+,NAK,,,
1.576294,I2C,Setup,Write,to,['208',(0xD0)],+,ACK
1.57651025,I2C,C,(0x43),+,ACK,,,
1.5767625,I2C,Setup,Read,to,['209',(0xD1)],+,ACK
1.576979,I2C,'255',(0xFF),+,ACK,,,
1.57719525,I2C,'127',(0x7F),+,ACK,,,
1.5774115,I2C,'254',(0xFE),+,ACK,,,
1.57762775,I2C,'228',(0xE4),+,ACK,,,
1.577844,I2C,'255',(0xFF),+,ACK,,,
1.57806025,I2C,o,(0x6F),+,NAK,,,
1.578439,I2C,Setup,Write,to,['208',(0xD0)],+,ACK
1.57865525,I2C,C,(0x43),+,ACK,,,
1.5789075,I2C,Setup,Read,to,['209',(0xD1)],+,ACK
1.57912375,I2C,'255',(0xFF),+,ACK,,,
1.57934,I2C,e,(0x65),+,ACK,,,
1.57955625,I2C,'254',(0xFE),+,ACK,,,
1.5797725,I2C,'211',(0xD3),+,ACK,,,
1.57998875,I2C,'255',(0xFF),+,ACK,,,
1.580205,I2C,l,(0x6C),+,NAK,,,
1.5805835,I2C,Setup,Write,to,['208',(0xD0)],+,ACK
1.58079975,I2C,C,(0x43),+,ACK,,,
1.58105225,I2C,Setup,Read,to,['209',(0xD1)],+,ACK
1.5812685,I2C,'255',(0xFF),+,ACK,,,
1.58148475,I2C,v,(0x76),+,ACK,,,
1.581701,I2C,'254',(0xFE),+,ACK,,,
1.58191725,I2C,'202',(0xCA),+,ACK,,,
1.5821335,I2C,'255',(0xFF),+,ACK,,,
1.58234975,I2C,P,(0x50),+,NAK,,,
1.58272825,I2C,Setup,Write,to,['208',(0xD0)],+,ACK
1.5829445,I2C,C,(0x43),+,ACK,,,
1.58319675,I2C,Setup,Read,to,['209',(0xD1)],+,ACK
1.58341325,I2C,'255',(0xFF),+,ACK,,,
1.5836295,I2C,w,(0x77),+,ACK,,,
1.58384575,I2C,'254',(0xFE),+,ACK,,,
1.584062,I2C,'219',(0xDB),+,ACK,,,
1.5842785,I2C,'255',(0xFF),+,ACK,,,
1.58449475,I2C,i,(0x69),+,NAK,,,
1.58487325,I2C,Setup,Write,to,['208',(0xD0)],+,ACK
1.5850895,I2C,C,(0x43),+,ACK,,,
1.58534175,I2C,Setup,Read,to,['209',(0xD1)],+,ACK
1.585558,I2C,'255',(0xFF),+,ACK,,,
1.58577425,I2C,e,(0x65),+,ACK,,,
1.5859905,I2C,'254',(0xFE),+,ACK,,,
1.586207,I2C,'249',(0xF9),+,ACK,,,
1.58642325,I2C,'255',(0xFF),+,ACK,,,
1.5866395,I2C,j,(0x6A),+,NAK,,,
1.587018,I2C,Setup,Write,to,['208',(0xD0)],+,ACK
1.58723425,I2C,C,(0x43),+,ACK,,,
1.5874865,I2C,Setup,Read,to,['209',(0xD1)],+,ACK
1.58770275,I2C,'255',(0xFF),+,ACK,,,
1.58791925,I2C,x,(0x78),+,ACK,,,
1.5881355,I2C,'255',(0xFF),+,ACK,,,
1.58835175,I2C,\n,(0x0A),+,ACK,,,
1.588568,I2C,'255',(0xFF),+,ACK,,,
1.58878425,I2C,t,(0x74),+,NAK,,,
1.58916275,I2C,Setup,Write,to,['208',(0xD0)],+,ACK
1.589379,I2C,C,(0x43),+,ACK,,,
1.5896315,I2C,Setup,Read,to,['209',(0xD1)],+,ACK
1.58984775,I2C,'255',(0xFF),+,ACK,,,
1.590064,I2C,'130',(0x82),+,ACK,,,
1.59028025,I2C,'254',(0xFE),+,ACK,,,
1.5904965,I2C,'227',(0xE3),+,ACK,,,
1.590713,I2C,'255',(0xFF),+,ACK,,,
1.59092925,I2C,],(0x5D),+,NAK,,,
1.59130775,I2C,Setup,Write,to,['208',(0xD0)],+,ACK
1.591524,I2C,C,(0x43),+,ACK,,,
1.59177625,I2C,Setup,Read,to,['209',(0xD1)],+,ACK
1.5919925,I2C,'255',(0xFF),+,ACK,,,
1.59220875,I2C,k,(0x6B),+,ACK,,,
1.592425,I2C,'254',(0xFE),+,ACK,,,
1.59264125,I2C,'212',(0xD4),+,ACK,,,
1.59285775,I2C,'255',(0xFF),+,ACK,,,
1.593074,I2C,c,(0x63),+,NAK,,,
1.59345225,I2C,Setup,Write,to,['208',(0xD0)],+,ACK
1.5936685,I2C,C,(0x43),+,ACK,,,
1.59392075,I2C,Setup,Read,to,['209',(0xD1)],+,ACK
1.594137,I2C,'255',(0xFF),+,ACK,,,
1.59435325,I2C,r,(0x72),+,ACK,,,
1.59456975,I2C,'254',(0xFE),+,ACK,,,
1.594786,I2C,'223',(0xDF),+,ACK,,,
1.59500225,I2C,'255',(0xFF),+,ACK,,,
1.5952185,I2C,e,(0x65),+,NAK,,,
1.595597,I2C,Setup,Write,to,['208',(0xD0)],+,ACK
1.59581325,I2C,C,(0x43),+,ACK,,,
1.59606575,I2C,Setup,Read,to,['209',(0xD1)],+,ACK
1.596282,I2C,'255',(0xFF),+,ACK,,,
1.59649825,I2C,o,(0x6F),+,ACK,,,
1.59671475,I2C,'254',(0xFE),+,ACK,,,
1.596931,I2C,'240',(0xF0),+,ACK,,,
1.59714725,I2C,'255',(0xFF),+,ACK,,,
1.5973635,I2C,k,(0x6B),+,NAK,,,
1.597742,I2C,Setup,Write,to,['208',(0xD0)],+,ACK
1.5979585,I2C,C,(0x43),+,ACK,,,
1.59821075,I2C,Setup,Read,to,['209',(0xD1)],+,ACK
1.598427,I2C,'255',(0xFF),+,ACK,,,
1.59864325,I2C,o,(0x6F),+,ACK,,,
1.59885975,I2C,'254',(0xFE),+,ACK,,,
1.599076,I2C,'225',(0xE1),+,ACK,,,
1.5992925,I2C,'255',(0xFF),+,ACK,,,
1.59950875,I2C,h,(0x68),+,NAK,,,
1.59988725,I2C,Setup,Write,to,['208',(0xD0)],+,ACK
1.6001035,I2C,C,(0x43),+,ACK,,,
1.60035575,I2C,Setup,Read,to,['209',(0xD1)],+,ACK
1.600572,I2C,'255',(0xFF),+,ACK,,,
1.60078825,I2C,m,(0x6D),+,ACK,,,
1.6010045,I2C,'254',(0xFE),+,ACK,,,
1.60122075,I2C,'213',(0xD5),+,ACK,,,
1.60143725,I2C,'255',(0xFF),+,ACK,,,
1.6016535,I2C,U,(0x55),+,NAK,,,
1.60203175,I2C,Setup,Write,to,['208',(0xD0)],+,ACK
1.60224825,I2C,C,(0x43),+,ACK,,,
1.6025005,I2C,Setup,Read,to,['209',(0xD1)],+,ACK
1.60271675,I2C,'255',(0xFF),+,ACK,,,
1.60293325,I2C,j,(0x6A),+,ACK,,,
1.6031495,I2C,'254',(0xFE),+,ACK,,,
1.60336575,I2C,'241',(0xF1),+,ACK,,,
1.603582,I2C,'255',(0xFF),+,ACK,,,
1.6037985,I2C,m,(0x6D),+,NAK,,,
1.604177,I2C,Setup,Write,to,['208',(0xD0)],+,ACK
1.60439325,I2C,C,(0x43),+,ACK,,,
1.60464575,I2C,Setup,Read,to,['209',(0xD1)],+,ACK
1.604862,I2C,'255',(0xFF),+,ACK,,,
1.60507825,I2C,[,(0x5B),+,ACK,,,
1.6052945,I2C,'254',(0xFE),+,ACK,,,
1.60551075,I2C,'240',(0xF0),+,ACK,,,
1.605727,I2C,'255',(0xFF),+,ACK,,,
1.60594325,I2C,v,(0x76),+,NAK,,,
1.60632175,I2C,Setup,Write,to,['208',(0xD0)],+,ACK
1.606538,I2C,C,(0x43),+,ACK,,,
1.60679025,I2C,Setup,Read,to,['209',(0xD1)],+,ACK
1.6070065,I2C,'255',(0xFF),+,ACK,,,
1.60722275,I2C,l,(0x6C),+,ACK,,,
1.607439,I2C,'254',(0xFE),+,ACK,,,
1.60765525,I2C,'254',(0xFE),+,ACK,,,
1.6078715,I2C,'255',(0xFF),+,ACK,,,
1.60808775,I2C,j,(0x6A),+,NAK,,,
1.60846625,I2C,Setup,Write,to,['208',(0xD0)],+,ACK
1.6086825,I2C,C,(0x43),+,ACK,,,
1.60893475,I2C,Setup,Read,to,['209',(0xD1)],+,ACK
1.609151,I2C,'255',(0xFF),+,ACK,,,
1.60936725,I2C,j,(0x6A),+,ACK,,,
1.6095835,I2C,'254',(0xFE),+,ACK,,,
1.60979975,I2C,'221',(0xDD),+,ACK,,,
1.610016,I2C,'255',(0xFF),+,ACK,,,
1.61023225,I2C,s,(0x73),+,NAK,,,
1.61061075,I2C,Setup,Write,to,['208',(0xD0)],+,ACK
1.610827,I2C,C,(0x43),+,ACK,,,
1.61107925,I2C,Setup,Read,to,['209',(0xD1)],+,ACK
1.61129575,I2C,'255',(0xFF),+,ACK,,,
1.611512,I2C,i,(0x69),+,ACK,,,
1.61172825,I2C,'254',(0xFE),+,ACK,,,
1.6119445,I2C,'225',(0xE1),+,ACK,,,
1.61216075,I2C,'255',(0xFF),+,ACK,,,
1.612377,I2C,b,(0x62),+,NAK,,,
1.6127555,I2C,Setup,Write,to,['208',(0xD0)],+,ACK
1.61297175,I2C,C,(0x43),+,ACK,,,
1.613224,I2C,Setup,Read,to,['209',(0xD1)],+,ACK
1.61344025,I2C,'255',(0xFF),+,ACK,,,
1.6136565,I2C,w,(0x77),+,ACK,,,
1.613873,I2C,'254',(0xFE),+,ACK,,,
1.61408925,I2C,'230',(0xE6),+,ACK,,,
1.6143055,I2C,'255',(0xFF),+,ACK,,,
1.61452175,I2C,[,(0x5B),+,NAK,,,
1.61490025,I2C,Setup,Write,to,['208',(0xD0)],+,ACK
1.61511625,I2C,C,(0x43),+,ACK,,,
1.61536875,I2C,Setup,Read,to,['209',(0xD1)],+,ACK
1.615585,I2C,'255',(0xFF),+,ACK,,,
1.61580125,I2C,f,(0x66),+,ACK,,,
1.6160175,I2C,'254',(0xFE),+,ACK,,,
1.61623375,I2C,'218',(0xDA),+,ACK,,,
1.61645,I2C,'255',(0xFF),+,ACK,,,
1.61666625,I2C,b,(0x62),+,NAK,,,
1.61704475,I2C,Setup,Write,to,['208',(0xD0)],+,ACK
1.617261,I2C,C,(0x43),+,ACK,,,
1.61751325,I2C,Setup,Read,to,['209',(0xD1)],+,ACK
1.6177295,I2C,'255',(0xFF),+,ACK,,,
1.61794575,I2C,'131',(0x83),+,ACK,,,
1.618162,I2C,'254',(0xFE),+,ACK,,,
1.61837825,I2C,'230',(0xE6),+,ACK,,,
1.6185945,I2C,'255',(0xFF),+,ACK,,,
1.61881075,I2C,c,(0x63),+,NAK,,,
1.61918925,I2C,Setup,Write,to,['208',(0xD0)],+,ACK
1.6194055,I2C,C,(0x43),+,ACK,,,
1.61965775,I2C,Setup,Read,to,['209',(0xD1)],+,ACK
1.619874,I2C,'255',(0xFF),+,ACK,,,
1.62009025,I2C,n,(0x6E),+,ACK,,,
1.6203065,I2C,'254',(0xFE),+,ACK,,,
1.62052275,I2C,'237',(0xED),+,ACK,,,
1.620739,I2C,'255',(0xFF),+,ACK,,,
1.6209555,I2C,_,(0x5F),+,NAK,,,
1.62133375,I2C,Setup,Write,to,['208',(0xD0)],+,ACK
1.62155,I2C,C,(0x43),+,ACK,,,
1.62180225,I2C,Setup,Read,to,['209',(0xD1)],+,ACK
1.6220185,I2C,'255',(0xFF),+,ACK,,,
1.62223475,I2C,s,(0x73),+,ACK,,,
1.622451,I2C,'254',(0xFE),+,ACK,,,
1.622667,I2C,'227',(0xE3),+,ACK,,,
1.62288325,I2C,'255',(0xFF),+,ACK,,,
1.6230995,I2C,X,(0x58),+,NAK,,,
1.62347775,I2C,Setup,Write,to,['208',(0xD0)],+,ACK
1.623694,I2C,C,(0x43),+,ACK,,,
1.62394625,I2C,Setup,Read,to,['209',(0xD1)],+,ACK
1.6241625,I2C,'255',(0xFF),+,ACK,,,
1.62437875,I2C,d,(0x64),+,ACK,,,
1.624595,I2C,'254',(0xFE),+,ACK,,,
1.62481125,I2C,'235',(0xEB),+,ACK,,,
1.6250275,I2C,'255',(0xFF),+,ACK,,,
1.6252435,I2C,Z,(0x5A),+,NAK,,,
1.625622,I2C,Setup,Write,to,['208',(0xD0)],+,ACK
1.62583825,I2C,C,(0x43),+,ACK,,,
1.6260905,I2C,Setup,Read,to,['209',(0xD1)],+,ACK
1.626307,I2C,'255',(0xFF),+,ACK,,,
1.626523,I2C,b,(0x62),+,ACK,,,
1.62673925,I2C,'254',(0xFE),+,ACK,,,
1.6269555,I2C,'248',(0xF8),+,ACK,,,
1.627172,I2C,'255',(0xFF),+,ACK,,,
1.62738825,I2C,k,(0x6B),+,NAK,,,
1.6277665,I2C,Setup,Write,to,['208',(0xD0)],+,ACK
1.62798275,I2C,C,(0x43),+,ACK,,,
1.628235,I2C,Setup,Read,to,['209',(0xD1)],+,ACK
1.6284515,I2C,'255',(0xFF),+,ACK,,,
1.62866775,I2C,u,(0x75),+,ACK,,,
1.628884,I2C,'254',(0xFE),+,ACK,,,
1.62910025,I2C,'221',(0xDD),+,ACK,,,
1.6293165,I2C,'255',(0xFF),+,ACK,,,
1.62953275,I2C,_,(0x5F),+,NAK,,,
1.62991125,I2C,Setup,Write,to,['208',(0xD0)],+,ACK
1.6301275,I2C,C,(0x43),+,ACK,,,
1.63037975,I2C,Setup,Read,to,['209',(0xD1)],+,ACK
1.630596,I2C,'255',(0xFF),+,ACK,,,
1.63081225,I2C,t,(0x74),+,ACK,,,
1.6310285,I2C,'254',(0xFE),+,ACK,,,
1.63124475,I2C,'237',(0xED),+,ACK,,,
1.631461,I2C,'255',(0xFF),+,ACK,,,
1.63167725,I2C,o,(0x6F),+,NAK,,,
1.63205575,I2C,Setup,Write,to,['208',(0xD0)],+,ACK
1.632272,I2C,C,(0x43),+,ACK,,,
1.63252425,I2C,Setup,Read,to,['209',(0xD1)],+,ACK
1.6327405,I2C,'255',(0xFF),+,ACK,,,
1.63295675,I2C,s,(0x73),+,ACK,,,
1.633173,I2C,'254',(0xFE),+,ACK,,,
1.63338925,I2C,'235',(0xEB),+,ACK,,,
1.6336055,I2C,'255',(0xFF),+,ACK,,,
1.63382175,I2C,`,(0x60),+,NAK,,,
1.63420025,I2C,Setup,Write,to,['208',(0xD0)],+,ACK
1.6344165,I2C,C,(0x43),+,ACK,,,
1.634669,I2C,Setup,Read,to,['209',(0xD1)],+,ACK
1.63488525,I2C,'255',(0xFF),+,ACK,,,
1.6351015,I2C,p,(0x70),+,ACK,,,
1.6353175,I2C,'254',(0xFE),+,ACK,,,
1.635534,I2C,'202',(0xCA),+,ACK,,,
1.63575025,I2C,'255',(0xFF),+,ACK,,,
1.6359665,I2C,c,(0x63),+,NAK,,,
1.636345,I2C,Setup,Write,to,['208',(0xD0)],+,ACK
1.63656125,I2C,C,(0x43),+,ACK,,,
1.6368135,I2C,Setup,Read,to,['209',(0xD1)],+,ACK
1.63702975,I2C,'255',(0xFF),+,ACK,,,
1.637246,I2C,'131',(0x83),+,ACK,,,
1.637462,I2C,'255',(0xFF),+,ACK,,,
1.6376785,I2C,'0',(0x00),+,ACK,,,
1.63789475,I2C,'255',(0xFF),+,ACK,,,
1.63811075,I2C,],(0x5D),+,NAK,,,
1.63848925,I2C,Setup,Write,to,['208',(0xD0)],+,ACK
1.6387055,I2C,C,(0x43),+,ACK,,,
1.63895775,I2C,Setup,Read,to,['209',(0xD1)],+,ACK
1.639174,I2C,'255',(0xFF),+,ACK,,,
1.63939025,I2C,'136',(0x88),+,ACK,,,
1.6396065,I2C,'254',(0xFE),+,ACK,,,
1.639823,I2C,'223',(0xDF),+,ACK,,,
1.640039,I2C,'255',(0xFF),+,ACK,,,
1.64025525,I2C,i,(0x69),+,NAK,,,
1.64063375,I2C,Setup,Write,to,['208',(0xD0)],+,ACK
1.64085,I2C,C,(0x43),+,ACK,,,
1.6411025,I2C,Setup,Read,to,['209',(0xD1)],+,ACK
1.64131875,I2C,'255',(0xFF),+,ACK,,,
1.641535,I2C,^,(0x5E),+,ACK,,,
1.6417515,I2C,'254',(0xFE),+,ACK,,,
1.64196775,I2C,'255',(0xFF),+,ACK,,,
1.642184,I2C,'255',(0xFF),+,ACK,,,
1.64240025,I2C,e,(0x65),+,NAK,,,
1.64277875,I2C,Setup,Write,to,['208',(0xD0)],+,ACK
1.642995,I2C,C,(0x43),+,ACK,,,
1.6432475,I2C,Setup,Read,to,['209',(0xD1)],+,ACK
1.64346375,I2C,'255',(0xFF),+,ACK,,,
1.64368,I2C,q,(0x71),+,ACK,,,
1.64389625,I2C,'254',(0xFE),+,ACK,,,
1.6441125,I2C,'236',(0xEC),+,ACK,,,
1.64432875,I2C,'255',(0xFF),+,ACK,,,
1.644545,I2C,^,(0x5E),+,NAK,,,
1.64492375,I2C,Setup,Write,to,['208',(0xD0)],+,ACK
1.64514,I2C,C,(0x43),+,ACK,,,
1.64539225,I2C,Setup,Read,to,['209',(0xD1)],+,ACK
1.6456085,I2C,'255',(0xFF),+,ACK,,,
1.64582475,I2C,},(0x7D),+,ACK,,,
1.646041,I2C,'254',(0xFE),+,ACK,,,
1.64625725,I2C,'219',(0xDB),+,ACK,,,
1.6464735,I2C,'255',(0xFF),+,ACK,,,
1.64668975,I2C,^,(0x5E),+,NAK,,,
1.6470685,I2C,Setup,Write,to,['208',(0xD0)],+,ACK
1.64728475,I2C,C,(0x43),+,ACK,,,
1.647537,I2C,Setup,Read,to,['209',(0xD1)],+,ACK
1.64775325,I2C,'255',(0xFF),+,ACK,,,
1.6479695,I2C,m,(0x6D),+,ACK,,,
1.64818575,I2C,'254',(0xFE),+,ACK,,,
1.648402,I2C,'219',(0xDB),+,ACK,,,
1.64861825,I2C,'255',(0xFF),+,ACK,,,
1.6488345,I2C,x,(0x78),+,NAK,,,
1.64921325,I2C,Setup,Write,to,['208',(0xD0)],+,ACK
1.6494295,I2C,C,(0x43),+,ACK,,,
1.64968175,I2C,Setup,Read,to,['209',(0xD1)],+,ACK
1.649898,I2C,'255',(0xFF),+,ACK,,,
1.65011425,I2C,},(0x7D),+,ACK,,,
1.6503305,I2C,'254',(0xFE),+,ACK,,,
1.65054675,I2C,'229',(0xE5),+,ACK,,,
1.650763,I2C,'255',(0xFF),+,ACK,,,
1.6509795,I2C,g,(0x67),+,NAK,,,
1.651358,I2C,Setup,Write,to,['208',(0xD0)],+,ACK
1.65157425,I2C,C,(0x43),+,ACK,,,
1.65182675,I2C,Setup,Read,to,['209',(0xD1)],+,ACK
1.652043,I2C,'255',(0xFF),+,ACK,,,
1.65225925,I2C,f,(0x66),+,ACK,,,
1.6524755,I2C,'254',(0xFE),+,ACK,,,
1.65269175,I2C,'219',(0xDB),+,ACK,,,
1.652908,I2C,'255',(0xFF),+,ACK,,,
1.65312425,I2C,o,(0x6F),+,NAK,,,
1.65350275,I2C,Setup,Write,to,['208',(0xD0)],+,ACK
1.653719,I2C,C,(0x43),+,ACK,,,
1.65397125,I2C,Setup,Read,to,['209',(0xD1)],+,ACK
1.6541875,I2C,'255',(0xFF),+,ACK,,,
1.654404,I2C,d,(0x64),+,ACK,,,
1.65462,I2C,'254',(0xFE),+,ACK,,,
1.65483625,I2C,'243',(0xF3),+,ACK,,,
1.6550525,I2C,'255',(0xFF),+,ACK,,,
1.65526875,I2C,`,(0x60),+,NAK,,,
1.65564725,I2C,Setup,Write,to,['208',(0xD0)],+,ACK
1.6558635,I2C,C,(0x43),+,ACK,,,
1.65611575,I2C,Setup,Read,to,['209',(0xD1)],+,ACK
1.656332,I2C,'255',(0xFF),+,ACK,,,
1.6565485,I2C,h,(0x68),+,ACK,,,
1.65676475,I2C,'255',(0xFF),+,ACK,,,
1.656981,I2C,'1',(0x01),+,ACK,,,
1.65719725,I2C,'255',(0xFF),+,ACK,,,
1.6574135,I2C,`,(0x60),+,NAK,,,
1.657792,I2C,Setup,Write,to,['208',(0xD0)],+,ACK
1.6580085,I2C,C,(0x43),+,ACK,,,
1.65826075,I2C,Setup,Read,to,['209',(0xD1)],+,ACK
1.658477,I2C,'255',(0xFF),+,ACK,,,
1.65869325,I2C,s,(0x73),+,ACK,,,
1.6589095,I2C,'254',(0xFE),+,ACK,,,
1.65912575,I2C,'221',(0xDD),+,ACK,,,
1.65934225,I2C,'255',(0xFF),+,ACK,,,
1.6595585,I2C,b,(0x62),+,NAK,,,
1.659937,I2C,Setup,Write,to,['208',(0xD0)],+,ACK
1.66015325,I2C,C,(0x43),+,ACK,,,
1.66040575,I2C,Setup,Read,to,['209',(0xD1)],+,ACK
1.660622,I2C,'255',(0xFF),+,ACK,,,
1.66083825,I2C,Z,(0x5A),+,ACK,,,
1.66105475,I2C,'254',(0xFE),+,ACK,,,
1.66127075,I2C,'223',(0xDF),+,ACK,,,
1.66148725,I2C,'255',(0xFF),+,ACK,,,
1.6617035,I2C,r,(0x72),+,NAK,,,
1.662082,I2C,Setup,Write,to,['208',(0xD0)],+,ACK
1.66229825,I2C,C,(0x43),+,ACK,,,
1.6625505,I2C,Setup,Read,to,['209',(0xD1)],+,ACK
1.66276675,I2C,'255',(0xFF),+,ACK,,,
1.662983,I2C,'128',(0x80),+,ACK,,,
1.66319925,I2C,'254',(0xFE),+,ACK,,,
1.6634155,I2C,'244',(0xF4),+,ACK,,,
1.663632,I2C,'255',(0xFF),+,ACK,,,
1.66384825,I2C,\,(0x5C),+,NAK,,,
1.66422675,I2C,Setup,Write,to,['208',(0xD0)],+,ACK
1.664443,I2C,C,(0x43),+,ACK,,,
1.66469525,I2C,Setup,Read,to,['209',(0xD1)],+,ACK
1.6649115,I2C,'255',(0xFF),+,ACK,,,
1.66512775,I2C,`,(0x60),+,ACK,,,
1.665344,I2C,'254',(0xFE),+,ACK,,,
1.66556025,I2C,'221',(0xDD),+,ACK,,,
1.6657765,I2C,'255',(0xFF),+,ACK,,,
1.66599275,I2C,j,(0x6A),+,NAK,,,
1.66637125,I2C,Setup,Write,to,['208',(0xD0)],+,ACK
1.6665875,I2C,C,(0x43),+,ACK,,,
1.66683975,I2C,Setup,Read,to,['209',(0xD1)],+,ACK
1.66705625,I2C,'255',(0xFF),+,ACK,,,
1.6672725,I2C,'128',(0x80),+,ACK,,,
1.66748875,I2C,'254',(0xFE),+,ACK,,,
1.66770525,I2C,'211',(0xD3),+,ACK,,,
1.6679215,I2C,'255',(0xFF),+,ACK,,,
1.66813775,I2C,R,(0x52),+,NAK,,,
1.66851625,I2C,Setup,Write,to,['208',(0xD0)],+,ACK
1.6687325,I2C,C,(0x43),+,ACK,,,
1.66898475,I2C,Setup,Read,to,['209',(0xD1)],+,ACK
1.669201,I2C,'255',(0xFF),+,ACK,,,
1.66941725,I2C,},(0x7D),+,ACK,,,
1.6696335,I2C,'254',(0xFE),+,ACK,,,
1.66985,I2C,'233',(0xE9),+,ACK,,,
1.67006625,I2C,'255',(0xFF),+,ACK,,,
1.6702825,I2C,[,(0x5B),+,NAK,,,
1.67066125,I2C,Setup,Write,to,['208',(0xD0)],+,ACK
1.67087775,I2C,C,(0x43),+,ACK,,,
1.67113,I2C,Setup,Read,to,['209',(0xD1)],+,ACK
1.67134625,I2C,'255',(0xFF),+,ACK,,,
1.67156275,I2C,_,(0x5F),+,ACK,,,
1.671779,I2C,'254',(0xFE),+,ACK,,,
1.67199525,I2C,'239',(0xEF),+,ACK,,,
1.6722115,I2C,'255',(0xFF),+,ACK,,,
1.67242775,I2C,c,(0x63),+,NAK,,,
1.67280625,I2C,Setup,Write,to,['208',(0xD0)],+,ACK
1.67302275,I2C,C,(0x43),+,ACK,,,
1.673275,I2C,Setup,Read,to,['209',(0xD1)],+,ACK
1.67349125,I2C,'255',(0xFF),+,ACK,,,
1.6737075,I2C,m,(0x6D),+,ACK,,,
1.67392375,I2C,'254',(0xFE),+,ACK,,,
1.67414,I2C,'251',(0xFB),+,ACK,,,
1.67435625,I2C,'255',(0xFF),+,ACK,,,
1.6745725,I2C,a,(0x61),+,NAK,,,
1.674951,I2C,Setup,Write,to,['208',(0xD0)],+,ACK
1.67516725,I2C,C,(0x43),+,ACK,,,
1.67541975,I2C,Setup,Read,to,['209',(0xD1)],+,ACK
1.675636,I2C,'255',(0xFF),+,ACK,,,
1.67585225,I2C,'128',(0x80),+,ACK,,,
1.6760685,I2C,'254',(0xFE),+,ACK,,,
1.67628475,I2C,'253',(0xFD),+,ACK,,,
1.676501,I2C,'255',(0xFF),+,ACK,,,
1.67671725,I2C,\,(0x5C),+,NAK,,,
1.67709575,I2C,Setup,Write,to,['208',(0xD0)],+,ACK
1.677312,I2C,C,(0x43),+,ACK,,,
1.67756425,I2C,Setup,Read,to,['209',(0xD1)],+,ACK
1.6777805,I2C,'255',(0xFF),+,ACK,,,
1.67799675,I2C,x,(0x78),+,ACK,,,
1.678213,I2C,'254',(0xFE),+,ACK,,,
1.67842925,I2C,'233',(0xE9),+,ACK,,,
1.6786455,I2C,'255',(0xFF),+,ACK,,,
1.67886175,I2C,h,(0x68),+,NAK,,,
1.67924025,I2C,Setup,Write,to,['208',(0xD0)],+,ACK
1.6794565,I2C,C,(0x43),+,ACK,,,
1.679709,I2C,Setup,Read,to,['209',(0xD1)],+,ACK
1.67992525,I2C,'255',(0xFF),+,ACK,,,
1.6801415,I2C,'147',(0x93),+,ACK,,,
1.680358,I2C,'254',(0xFE),+,ACK,,,
1.68057425,I2C,'223',(0xDF),+,ACK,,,
1.68079025,I2C,'255',(0xFF),+,ACK,,,
1.6810065,I2C,c,(0x63),+,NAK,,,
1.681385,I2C,Setup,Write,to,['208',(0xD0)],+,ACK
1.68160125,I2C,C,(0x43),+,ACK,,,
1.68185375,I2C,Setup,Read,to,['209',(0xD1)],+,ACK
1.68206975,I2C,'255',(0xFF),+,ACK,,,
1.682286,I2C,j,(0x6A),+,ACK,,,
1.6825025,I2C,'254',(0xFE),+,ACK,,,
1.68271875,I2C,'239',(0xEF),+,ACK,,,
1.682935,I2C,'255',(0xFF),+,ACK,,,
1.68315125,I2C,Y,(0x59),+,NAK,,,
1.68352975,I2C,Setup,Write,to,['208',(0xD0)],+,ACK
1.683746,I2C,C,(0x43),+,ACK,,,
1.68399825,I2C,Setup,Read,to,['209',(0xD1)],+,ACK
1.6842145,I2C,'255',(0xFF),+,ACK,,,
1.68443075,I2C,n,(0x6E),+,ACK,,,
1.684647,I2C,'254',(0xFE),+,ACK,,,
1.68486325,I2C,'221',(0xDD),+,ACK,,,
1.6850795,I2C,'255',(0xFF),+,ACK,,,
1.685296,I2C,S,(0x53),+,NAK,,,
1.68567425,I2C,Setup,Write,to,['208',(0xD0)],+,ACK
1.6858905,I2C,C,(0x43),+,ACK,,,
1.68614275,I2C,Setup,Read,to,['209',(0xD1)],+,ACK
1.686359,I2C,'255',(0xFF),+,ACK,,,
1.6865755,I2C,s,(0x73),+,ACK,,,
1.68679175,I2C,'254',(0xFE),+,ACK,,,
1.687008,I2C,'252',(0xFC),+,ACK,,,
1.68722425,I2C,'255',(0xFF),+,ACK,,,
1.6874405,I2C,V,(0x56),+,NAK,,,
1.687819,I2C,Setup,Write,to,['208',(0xD0)],+,ACK
1.68803525,I2C,C,(0x43),+,ACK,,,
1.6882875,I2C,Setup,Read,to,['209',(0xD1)],+,ACK
1.68850375,I2C,'255',(0xFF),+,ACK,,,
1.68872,I2C,'154',(0x9A),+,ACK,,,
1.68893625,I2C,'254',(0xFE),+,ACK,,,
1.6891525,I2C,'203',(0xCB),+,ACK,,,
1.68936875,I2C,'255',(0xFF),+,ACK,,,
1.689585,I2C,I,(0x49),+,NAK,,,
1.6899635,I2C,Setup,Write,to,['208',(0xD0)],+,ACK
1.69017975,I2C,C,(0x43),+,ACK,,,
1.69043225,I2C,Setup,Read,to,['209',(0xD1)],+,ACK
1.6906485,I2C,'255',(0xFF),+,ACK,,,
1.69086475,I2C,z,(0x7A),+,ACK,,,
1.691081,I2C,'254',(0xFE),+,ACK,,,
1.69129725,I2C,'232',(0xE8),+,ACK,,,
1.6915135,I2C,'255',(0xFF),+,ACK,,,
1.69172975,I2C,\,(0x5C),+,NAK,,,
1.69210825,I2C,Setup,Write,to,['208',(0xD0)],+,ACK
1.6923245,I2C,C,(0x43),+,ACK,,,
1.692577,I2C,Setup,Read,to,['209',(0xD1)],+,ACK
1.69279325,I2C,'255',(0xFF),+,ACK,,,
1.6930095,I2C,g,(0x67),+,ACK,,,
1.69322575,I2C,'254',(0xFE),+,ACK,,,
1.693442,I2C,'235',(0xEB),+,ACK,,,
1.69365825,I2C,'255',(0xFF),+,ACK,,,
1.6938745,I2C,P,(0x50),+,NAK,,,
1.694253,I2C,Setup,Write,to,['208',(0xD0)],+,ACK
1.69446925,I2C,C,(0x43),+,ACK,,,
1.6947215,I2C,Setup,Read,to,['209',(0xD1)],+,ACK
1.694938,I2C,'255',(0xFF),+,ACK,,,
1.69515425,I2C,g,(0x67),+,ACK,,,
1.69537025,I2C,'254',(0xFE),+,ACK,,,
1.6955865,I2C,'235',(0xEB),+,ACK,,,
1.695803,I2C,'255',(0xFF),+,ACK,,,
1.69601925,I2C,o,(0x6F),+,NAK,,,
1.69639775,I2C,Setup,Write,to,['208',(0xD0)],+,ACK
1.696614,I2C,C,(0x43),+,ACK,,,
1.69686625,I2C,Setup,Read,to,['209',(0xD1)],+,ACK
1.6970825,I2C,'255',(0xFF),+,ACK,,,
1.69729875,I2C,u,(0x75),+,ACK,,,
1.697515,I2C,'255',(0xFF),+,ACK,,,
1.69773125,I2C,\n,(0x0A),+,ACK,,,
1.69794775,I2C,'255',(0xFF),+,ACK,,,
1.698164,I2C,|,(0x7C),+,NAK,,,
1.6985425,I2C,Setup,Write,to,['208',(0xD0)],+,ACK
1.69875875,I2C,C,(0x43),+,ACK,,,
1.699011,I2C,Setup,Read,to,['209',(0xD1)],+,ACK
1.6992275,I2C,'255',(0xFF),+,ACK,,,
1.69944375,I2C,q,(0x71),+,ACK,,,
1.69966,I2C,'254',(0xFE),+,ACK,,,
1.69987625,I2C,'179',(0xB3),+,ACK,,,
1.7000925,I2C,'255',(0xFF),+,ACK,,,
1.70030875,I2C,e,(0x65),+,NAK,,,
1.700687,I2C,Setup,Write,to,['208',(0xD0)],+,ACK
1.70090325,I2C,C,(0x43),+,ACK,,,
1.70115575,I2C,Setup,Read,to,['209',(0xD1)],+,ACK
1.701372,I2C,'255',(0xFF),+,ACK,,,
1.701588,I2C,'146',(0x92),+,ACK,,,
1.70180425,I2C,'254',(0xFE),+,ACK,,,
1.7020205,I2C,'218',(0xDA),+,ACK,,,
1.70223675,I2C,'255',(0xFF),+,ACK,,,
1.702453,I2C,\,(0x5C),+,NAK,,,
1.7028315,I2C,Setup,Write,to,['208',(0xD0)],+,ACK
1.7030475,I2C,C,(0x43),+,ACK,,,
1.7033,I2C,Setup,Read,to,['209',(0xD1)],+,ACK
1.70351625,I2C,'255',(0xFF),+,ACK,,,
1.7037325,I2C,`,(0x60),+,ACK,,,
1.70394875,I2C,'254',(0xFE),+,ACK,,,
1.704165,I2C,'221',(0xDD),+,ACK,,,
1.70438125,I2C,'255',(0xFF),+,ACK,,,
1.7045975,I2C,k,(0x6B),+,NAK,,,
1.70497575,I2C,Setup,Write,to,['208',(0xD0)],+,ACK
1.70519225,I2C,C,(0x43),+,ACK,,,
1.7054445,I2C,Setup,Read,to,['209',(0xD1)],+,ACK
1.70566075,I2C,'255',(0xFF),+,ACK,,,
1.705877,I2C,`,(0x60),+,ACK,,,
1.70609325,I2C,'254',(0xFE),+,ACK,,,
1.7063095,I2C,'248',(0xF8),+,ACK,,,
1.70652575,I2C,'255',(0xFF),+,ACK,,,
1.706742,I2C,g,(0x67),+,NAK,,,
1.70712025,I2C,Setup,Write,to,['208',(0xD0)],+,ACK
1.70733675,I2C,C,(0x43),+,ACK,,,
1.707589,I2C,Setup,Read,to,['209',(0xD1)],+,ACK
1.70780525,I2C,'255',(0xFF),+,ACK,,,
1.70802175,I2C,{,(0x7B),+,ACK,,,
1.708238,I2C,'254',(0xFE),+,ACK,,,
1.70845425,I2C,'247',(0xF7),+,ACK,,,
1.7086705,I2C,'255',(0xFF),+,ACK,,,
1.70888675,I2C,f,(0x66),+,NAK,,,
1.70926525,I2C,Setup,Write,to,['208',(0xD0)],+,ACK
1.7094815,I2C,C,(0x43),+,ACK,,,
1.70973375,I2C,Setup,Read,to,['209',(0xD1)],+,ACK
1.70995,I2C,'255',(0xFF),+,ACK,,,
1.71016625,I2C,|,(0x7C),+,ACK,,,
1.7103825,I2C,'254',(0xFE),+,ACK,,,
1.71059875,I2C,'251',(0xFB),+,ACK,,,
1.710815,I2C,'255',(0xFF),+,ACK,,,
1.71103125,I2C,{,(0x7B),+,NAK,,,
1.71140975,I2C,Setup,Write,to,['208',(0xD0)],+,ACK
1.711626,I2C,C,(0x43),+,ACK,,,
1.71187825,I2C,Setup,Read,to,['209',(0xD1)],+,ACK
1.7120945,I2C,'255',(0xFF),+,ACK,,,
1.71231075,I2C,_,(0x5F),+,ACK,,,
1.71252725,I2C,'254',(0xFE),+,ACK,,,
1.7127435,I2C,'243',(0xF3),+,ACK,,,
1.71295975,I2C,'255',(0xFF),+,ACK,,,
1.713176,I2C,l,(0x6C),+,NAK,,,
1.71355475,I2C,Setup,Write,to,['208',(0xD0)],+,ACK
1.71377075,I2C,C,(0x43),+,ACK,,,
1.71402325,I2C,Setup,Read,to,['209',(0xD1)],+,ACK
1.7142395,I2C,'255',(0xFF),+,ACK,,,
1.7144555,I2C,'141',(0x8D),+,ACK,,,
1.714672,I2C,'254',(0xFE),+,ACK,,,
1.71488825,I2C,'247',(0xF7),+,ACK,,,
1.7151045,I2C,'255',(0xFF),+,ACK,,,
1.7153205,I2C,n,(0x6E),+,NAK,,,
1.715699,I2C,Setup,Write,to,['208',(0xD0)],+,ACK
1.71591525,I2C,C,(0x43),+,ACK,,,
1.7161675,I2C,Setup,Read,to,['209',(0xD1)],+,ACK
1.71638375,I2C,'255',(0xFF),+,ACK,,,
1.7166,I2C,s,(0x73),+,ACK,,,
1.71681625,I2C,'254',(0xFE),+,ACK,,,
1.7170325,I2C,'204',(0xCC),+,ACK,,,
1.71724875,I2C,'255',(0xFF),+,ACK,,,
1.717465,I2C,w,(0x77),+,NAK,,,
1.7178435,I2C,Setup,Write,to,['208',(0xD0)],+,ACK
1.71805975,I2C,C,(0x43),+,ACK,,,
1.718312,I2C,Setup,Read,to,['209',(0xD1)],+,ACK
1.71852825,I2C,'255',(0xFF),+,ACK,,,
1.71874475,I2C,e,(0x65),+,ACK,,,
1.71896075,I2C,'254',(0xFE),+,ACK,,,
1.719177,I2C,'248',(0xF8),+,ACK,,,
1.71939325,I2C,'255',(0xFF),+,ACK,,,
1.71960975,I2C,n,(0x6E),+,NAK,,,
1.71998825,I2C,Setup,Write,to,['208',(0xD0)],+,ACK
1.7202045,I2C,C,(0x43),+,ACK,,,
1.72045675,I2C,Setup,Read,to,['209',(0xD1)],+,ACK
1.720673,I2C,'255',(0xFF),+,ACK,,,
1.72088925,I2C,'138',(0x8A),+,ACK,,,
1.7211055,I2C,'254',(0xFE),+,ACK,,,
1.72132175,I2C,'232',(0xE8),+,ACK,,,
1.721538,I2C,'255',(0xFF),+,ACK,,,
1.72175425,I2C,`,(0x60),+,NAK,,,
1.72213275,I2C,Setup,Write,to,['208',(0xD0)],+,ACK
1.72234875,I2C,C,(0x43),+,ACK,,,
1.72260125,I2C,Setup,Read,to,['209',(0xD1)],+,ACK
1.7228175,I2C,'255',(0xFF),+,ACK,,,
1.72303375,I2C,_,(0x5F),+,ACK,,,
1.72325,I2C,'254',(0xFE),+,ACK,,,
1.72346625,I2C,'222',(0xDE),+,ACK,,,
1.7236825,I2C,'255',(0xFF),+,ACK,,,
1.72389875,I2C,i,(0x69),+,NAK,,,
1.72427725,I2C,Setup,Write,to,['208',(0xD0)],+,ACK
1.7244935,I2C,C,(0x43),+,ACK,,,
1.72474575,I2C,Setup,Read,to,['209',(0xD1)],+,ACK
1.724962,I2C,'255',(0xFF),+,ACK,,,
1.72517825,I2C,x,(0x78),+,ACK,,,
1.7253945,I2C,'254',(0xFE),+,ACK,,,
1.72561075,I2C,'214',(0xD6),+,ACK,,,
1.725827,I2C,'255',(0xFF),+,ACK,,,
1.72604325,I2C,f,(0x66),+,NAK,,,
1.72642175,I2C,Setup,Write,to,['208',(0xD0)],+,ACK
1.726638,I2C,C,(0x43),+,ACK,,,
1.7268905,I2C,Setup,Read,to,['209',(0xD1)],+,ACK
1.72710675,I2C,'255',(0xFF),+,ACK,,,
1.727323,I2C,w,(0x77),+,ACK,,,
1.72753925,I2C,'254',(0xFE),+,ACK,,,
1.7277555,I2C,'251',(0xFB),+,ACK,,,
1.72797175,I2C,'255',(0xFF),+,ACK,,,
1.728188,I2C,a,(0x61),+,NAK,,,
1.7285665,I2C,Setup,Write,to,['208',(0xD0)],+,ACK
1.72878275,I2C,C,(0x43),+,ACK,,,
1.72903525,I2C,Setup,Read,to,['209',(0xD1)],+,ACK
1.7292515,I2C,'255',(0xFF),+,ACK,,,
1.72946775,I2C,'127',(0x7F),+,ACK,,,
1.729684,I2C,'254',(0xFE),+,ACK,,,
1.72990025,I2C,'233',(0xE9),+,ACK,,,
1.73011675,I2C,'255',(0xFF),+,ACK,,,
1.730333,I2C,R,(0x52),+,NAK,,,
1.7307115,I2C,Setup,Write,to,['208',(0xD0)],+,ACK
1.73092775,I2C,C,(0x43),+,ACK,,,
1.73118,I2C,Setup,Read,to,['209',(0xD1)],+,ACK
1.7313965,I2C,'255',(0xFF),+,ACK,,,
1.73161275,I2C,l,(0x6C),+,ACK,,,
1.731829,I2C,'254',(0xFE),+,ACK,,,
1.73204525,I2C,'214',(0xD6),+,ACK,,,
1.7322615,I2C,'255',(0xFF),+,ACK,,,
1.73247775,I2C,{,(0x7B),+,NAK,,,
1.732856,I2C,Setup,Write,to,['208',(0xD0)],+,ACK
1.73307225,I2C,C,(0x43),+,ACK,,,
1.7333245,I2C,Setup,Read,to,['209',(0xD1)],+,ACK
1.733541,I2C,'255',(0xFF),+,ACK,,,
1.73375725,I2C,X,(0x58),+,ACK,,,
1.73397325,I2C,'254',(0xFE),+,ACK,,,
1.7341895,I2C,'208',(0xD0),+,ACK,,,
1.734406,I2C,'255',(0xFF),+,ACK,,,
1.734622,I2C,g,(0x67),+,NAK,,,
1.7350005,I2C,Setup,Write,to,['208',(0xD0)],+,ACK
1.73521675,I2C,C,(0x43),+,ACK,,,
1.73546925,I2C,Setup,Read,to,['209',(0xD1)],+,ACK
1.7356855,I2C,'255',(0xFF),+,ACK,,,
1.73590175,I2C,},(0x7D),+,ACK,,,
1.73611775,I2C,'254',(0xFE),+,ACK,,,
1.73633425,I2C,'238',(0xEE),+,ACK,,,
1.7365505,I2C,'255',(0xFF),+,ACK,,,
1.73676675,I2C,N,(0x4E),+,NAK,,,
1.73714525,I2C,Setup,Write,to,['208',(0xD0)],+,ACK
1.7373615,I2C,C,(0x43),+,ACK,,,
1.73761375,I2C,Setup,Read,to,['209',(0xD1)],+,ACK
1.73783,I2C,'255',(0xFF),+,ACK,,,
1.73804625,I2C,p,(0x70),+,ACK,,,
1.7382625,I2C,'254',(0xFE),+,ACK,,,
1.73847875,I2C,'214',(0xD6),+,ACK,,,
1.738695,I2C,'255',(0xFF),+,ACK,,,
1.73891125,I2C,b,(0x62),+,NAK,,,
1.7392895,I2C,Setup,Write,to,['208',(0xD0)],+,ACK
1.739506,I2C,C,(0x43),+,ACK,,,
1.73975825,I2C,Setup,Read,to,['209',(0xD1)],+,ACK
1.7399745,I2C,'255',(0xFF),+,ACK,,,
1.7401905,I2C,'141',(0x8D),+,ACK,,,
1.74040675,I2C,'254',(0xFE),+,ACK,,,
1.74062325,I2C,'241',(0xF1),+,ACK,,,
1.74083925,I2C,'255',(0xFF),+,ACK,,,
1.7410555,I2C,\,(0x5C),+,NAK,,,
1.741434,I2C,Setup,Write,to,['208',(0xD0)],+,ACK
1.74165025,I2C,C,(0x43),+,ACK,,,
1.7419025,I2C,Setup,Read,to,['209',(0xD1)],+,ACK
1.74211875,I2C,'255',(0xFF),+,ACK,,,
1.74233475,I2C,p,(0x70),+,ACK,,,
1.742551,I2C,'254',(0xFE),+,ACK,,,
1.74276725,I2C,'253',(0xFD),+,ACK,,,
1.7429835,I2C,'255',(0xFF),+,ACK,,,
1.74319975,I2C,e,(0x65),+,NAK,,,
1.74357825,I2C,Setup,Write,to,['208',(0xD0)],+,ACK
1.7437945,I2C,C,(0x43),+,ACK,,,
1.74404675,I2C,Setup,Read,to,['209',(0xD1)],+,ACK
1.744263,I2C,'255',(0xFF),+,ACK,,,
1.744479,I2C,f,(0x66),+,ACK,,,
1.74469525,I2C,'255',(0xFF),+,ACK,,,
1.7449115,I2C,'7',(0x07),+,ACK,,,
1.74512775,I2C,'255',(0xFF),+,ACK,,,
1.745344,I2C,_,(0x5F),+,NAK,,,
1.7457225,I2C,Setup,Write,to,['208',(0xD0)],+,ACK
1.74593875,I2C,C,(0x43),+,ACK,,,
1.746191,I2C,Setup,Read,to,['209',(0xD1)],+,ACK
1.746407,I2C,'255',(0xFF),+,ACK,,,
1.74662325,I2C,'141',(0x8D),+,ACK,,,
1.74683975,I2C,'254',(0xFE),+,ACK,,,
1.747056,I2C,'233',(0xE9),+,ACK,,,
1.74727225,I2C,'255',(0xFF),+,ACK,,,
1.74748825,I2C,j,(0x6A),+,NAK,,,
1.74786675,I2C,Setup,Write,to,['208',(0xD0)],+,ACK
1.748083,I2C,C,(0x43),+,ACK,,,
1.74833525,I2C,Setup,Read,to,['209',(0xD1)],+,ACK
1.7485515,I2C,'255',(0xFF),+,ACK,,,
1.74876775,I2C,p,(0x70),+,ACK,,,
1.748984,I2C,'254',(0xFE),+,ACK,,,
1.74920025,I2C,'216',(0xD8),+,ACK,,,
1.7494165,I2C,'255',(0xFF),+,ACK,,,
1.74963275,I2C,t,(0x74),+,NAK,,,
1.7500115,I2C,Setup,Write,to,['208',(0xD0)],+,ACK
1.75022775,I2C,C,(0x43),+,ACK,,,
1.75048,I2C,Setup,Read,to,['209',(0xD1)],+,ACK
1.75069625,I2C,'255',(0xFF),+,ACK,,,
1.7509125,I2C,'131',(0x83),+,ACK,,,
1.751129,I2C,'254',(0xFE),+,ACK,,,
1.751345,I2C,'239',(0xEF),+,ACK,,,
1.75156125,I2C,'255',(0xFF),+,ACK,,,
1.7517775,I2C,[,(0x5B),+,NAK,,,
1.75215625,I2C,Setup,Write,to,['208',(0xD0)],+,ACK
1.75237225,I2C,C,(0x43),+,ACK,,,
1.75262475,I2C,Setup,Read,to,['209',(0xD1)],+,ACK
1.75284075,I2C,'255',(0xFF),+,ACK,,,
1.75305725,I2C,q,(0x71),+,ACK,,,
1.7532735,I2C,'254',(0xFE),+,ACK,,,
1.7534895,I2C,'230',(0xE6),+,ACK,,,
1.75370575,I2C,'255',(0xFF),+,ACK,,,
1.75392225,I2C,g,(0x67),+,NAK,,,
1.75430075,I2C,Setup,Write,to,['208',(0xD0)],+,ACK
1.754517,I2C,C,(0x43),+,ACK,,,
1.7547695,I2C,Setup,Read,to,['209',(0xD1)],+,ACK
1.75498575,I2C,'255',(0xFF),+,ACK,,,
1.755202,I2C,|,(0x7C),+,ACK,,,
1.75541825,I2C,'254',(0xFE),+,ACK,,,
1.7556345,I2C,'231',(0xE7),+,ACK,,,
1.75585075,I2C,'255',(0xFF),+,ACK,,,
1.756067,I2C,d,(0x64),+,NAK,,,
1.7564455,I2C,Setup,Write,to,['208',(0xD0)],+,ACK
1.75666175,I2C,C,(0x43),+,ACK,,,
1.756914,I2C,Setup,Read,to,['209',(0xD1)],+,ACK
1.75713025,I2C,'255',(0xFF),+,ACK,,,
1.7573465,I2C,k,(0x6B),+,ACK,,,
1.75756275,I2C,'254',(0xFE),+,ACK,,,
1.757779,I2C,'214',(0xD6),+,ACK,,,
1.75799525,I2C,'255',(0xFF),+,ACK,,,
1.7582115,I2C,z,(0x7A),+,NAK,,,
1.75859,I2C,Setup,Write,to,['208',(0xD0)],+,ACK
1.75880625,I2C,C,(0x43),+,ACK,,,
1.7590585,I2C,Setup,Read,to,['209',(0xD1)],+,ACK
1.75927475,I2C,'255',(0xFF),+,ACK,,,
1.75949125,I2C,~,(0x7E),+,ACK,,,
1.75970725,I2C,'254',(0xFE),+,ACK,,,
1.7599235,I2C,'238',(0xEE),+,ACK,,,
1.76013975,I2C,'255',(0xFF),+,ACK,,,
1.760356,I2C,l,(0x6C),+,NAK,,,
1.7607345,I2C,Setup,Write,to,['208',(0xD0)],+,ACK
1.76095075,I2C,C,(0x43),+,ACK,,,
1.761203,I2C,Setup,Read,to,['209',(0xD1)],+,ACK
1.7614195,I2C,'255',(0xFF),+,ACK,,,
1.76163575,I2C,},(0x7D),+,ACK,,,
1.761852,I2C,'255',(0xFF),+,ACK,,,
1.76206825,I2C,'4',(0x04),+,ACK,,,
1.7622845,I2C,'255',(0xFF),+,ACK,,,
1.76250075,I2C,e,(0x65),+,NAK,,,
1.762879,I2C,Setup,Write,to,['208',(0xD0)],+,ACK
1.76309525,I2C,C,(0x43),+,ACK,,,
1.7633475,I2C,Setup,Read,to,['209',(0xD1)],+,ACK
1.76356375,I2C,'255',(0xFF),+,ACK,,,
1.76378,I2C,s,(0x73),+,ACK,,,
1.76399625,I2C,'254',(0xFE),+,ACK,,,
1.7642125,I2C,'223',(0xDF),+,ACK,,,
1.76442875,I2C,'255',(0xFF),+,ACK,,,
1.764645,I2C,t,(0x74),+,NAK,,,
1.7650235,I2C,Setup,Write,to,['208',(0xD0)],+,ACK
1.76523975,I2C,C,(0x43),+,ACK,,,
1.765492,I2C,Setup,Read,to,['209',(0xD1)],+,ACK
1.76570825,I2C,'255',(0xFF),+,ACK,,,
1.7659245,I2C,'134',(0x86),+,ACK,,,
1.76614075,I2C,'254',(0xFE),+,ACK,,,
1.766357,I2C,'241',(0xF1),+,ACK,,,
1.76657325,I2C,'255',(0xFF),+,ACK,,,
1.7667895,I2C,X,(0x58),+,NAK,,,
1.76716775,I2C,Setup,Write,to,['208',(0xD0)],+,ACK
1.767384,I2C,C,(0x43),+,ACK,,,
1.76763625,I2C,Setup,Read,to,['209',(0xD1)],+,ACK
1.76785275,I2C,'255',(0xFF),+,ACK,,,
1.768069,I2C,y,(0x79),+,ACK,,,
1.76828525,I2C,'254',(0xFE),+,ACK,,,
1.7685015,I2C,'232',(0xE8),+,ACK,,,
1.76871775,I2C,'255',(0xFF),+,ACK,,,
1.768934,I2C,t,(0x74),+,NAK,,,
1.7693125,I2C,Setup,Write,to,['208',(0xD0)],+,ACK
1.7695285,I2C,C,(0x43),+,ACK,,,
1.769781,I2C,Setup,Read,to,['209',(0xD1)],+,ACK
1.76999725,I2C,'255',(0xFF),+,ACK,,,
1.7702135,I2C,Y,(0x59),+,ACK,,,
1.77042975,I2C,'254',(0xFE),+,ACK,,,
1.770646,I2C,'229',(0xE5),+,ACK,,,
1.77086225,I2C,'255',(0xFF),+,ACK,,,
1.7710785,I2C,b,(0x62),+,NAK,,,
1.771457,I2C,Setup,Write,to,['208',(0xD0)],+,ACK
1.77167325,I2C,C,(0x43),+,ACK,,,
1.77192575,I2C,Setup,Read,to,['209',(0xD1)],+,ACK
1.772142,I2C,'255',(0xFF),+,ACK,,,
1.77235825,I2C,h,(0x68),+,ACK,,,
1.7725745,I2C,'254',(0xFE),+,ACK,,,
1.772791,I2C,'244',(0xF4),+,ACK,,,
1.77300725,I2C,'255',(0xFF),+,ACK,,,
1.7732235,I2C,z,(0x7A),+,NAK,,,
1.773602,I2C,Setup,Write,to,['208',(0xD0)],+,ACK
1.77381825,I2C,C,(0x43),+,ACK,,,
1.7740705,I2C,Setup,Read,to,['209',(0xD1)],+,ACK
1.77428675,I2C,'255',(0xFF),+,ACK,,,
1.774503,I2C,'130',(0x82),+,ACK,,,
1.77471925,I2C,'254',(0xFE),+,ACK,,,
1.7749355,I2C,'217',(0xD9),+,ACK,,,
1.77515175,I2C,'255',(0xFF),+,ACK,,,
1.775368,I2C,n,(0x6E),+,NAK,,,
1.77574625,I2C,Setup,Write,to,['208',(0xD0)],+,ACK
1.7759625,I2C,C,(0x43),+,ACK,,,
1.77621475,I2C,Setup,Read,to,['209',(0xD1)],+,ACK
1.776431,I2C,'255',(0xFF),+,ACK,,,
1.77664725,I2C,y,(0x79),+,ACK,,,
1.7768635,I2C,'254',(0xFE),+,ACK,,,
1.77707975,I2C,'218',(0xDA),+,ACK,,,
1.777296,I2C,'255',(0xFF),+,ACK,,,
1.77751225,I2C,v,(0x76),+,NAK,,,
1.7778905,I2C,Setup,Write,to,['208',(0xD0)],+,ACK
1.778107,I2C,C,(0x43),+,ACK,,,
1.77835925,I2C,Setup,Read,to,['209',(0xD1)],+,ACK
1.7785755,I2C,'255',(0xFF),+,ACK,,,
1.7787915,I2C,o,(0x6F),+,ACK,,,
1.779008,I2C,'254',(0xFE),+,ACK,,,
1.779224,I2C,'210',(0xD2),+,ACK,,,
1.77944025,I2C,'255',(0xFF),+,ACK,,,
1.7796565,I2C,d,(0x64),+,NAK,,,
1.780035,I2C,Setup,Write,to,['208',(0xD0)],+,ACK
1.78025125,I2C,C,(0x43),+,ACK,,,
1.7805035,I2C,Setup,Read,to,['209',(0xD1)],+,ACK
1.78071975,I2C,'255',(0xFF),+,ACK,,,
1.780936,I2C,'129',(0x81),+,ACK,,,
1.78115225,I2C,'254',(0xFE),+,ACK,,,
1.7813685,I2C,'251',(0xFB),+,ACK,,,
1.78158475,I2C,'255',(0xFF),+,ACK,,,
1.781801,I2C,d,(0x64),+,NAK,,,
1.7821795,I2C,Setup,Write,to,['208',(0xD0)],+,ACK
1.78239575,I2C,C,(0x43),+,ACK,,,
1.782648,I2C,Setup,Read,to,['209',(0xD1)],+,ACK
1.78286425,I2C,'255',(0xFF),+,ACK,,,
1.7830805,I2C,t,(0x74),+,ACK,,,
1.78329675,I2C,'254',(0xFE),+,ACK,,,
1.783513,I2C,'224',(0xE0),+,ACK,,,
1.78372925,I2C,'255',(0xFF),+,ACK,,,
1.78394525,I2C,j,(0x6A),+,NAK,,,
1.784324,I2C,Setup,Write,to,['208',(0xD0)],+,ACK
1.78454025,I2C,C,(0x43),+,ACK,,,
1.7847925,I2C,Setup,Read,to,['209',(0xD1)],+,ACK
1.78500875,I2C,'255',(0xFF),+,ACK,,,
1.78522475,I2C,y,(0x79),+,ACK,,,
1.78544125,I2C,'254',(0xFE),+,ACK,,,
1.7856575,I2C,'243',(0xF3),+,ACK,,,
1.78587375,I2C,'255',(0xFF),+,ACK,,,
1.78609,I2C,f,(0x66),+,NAK,,,
1.7864685,I2C,Setup,Write,to,['208',(0xD0)],+,ACK
1.78668475,I2C,C,(0x43),+,ACK,,,
1.786937,I2C,Setup,Read,to,['209',(0xD1)],+,ACK
1.7871535,I2C,'255',(0xFF),+,ACK,,,
1.78736975,I2C,t,(0x74),+,ACK,,,
1.787586,I2C,'254',(0xFE),+,ACK,,,
1.78780225,I2C,'228',(0xE4),+,ACK,,,
1.7880185,I2C,'255',(0xFF),+,ACK,,,
1.78823475,I2C,R,(0x52),+,NAK,,,
1.78861325,I2C,Setup,Write,to,['208',(0xD0)],+,ACK
1.7888295,I2C,C,(0x43),+,ACK,,,
1.78908175,I2C,Setup,Read,to,['209',(0xD1)],+,ACK
1.789298,I2C,'255',(0xFF),+,ACK,,,
1.78951425,I2C,'127',(0x7F),+,ACK,,,
1.7897305,I2C,'254',(0xFE),+,ACK,,,
1.78994675,I2C,'204',(0xCC),+,ACK,,,
1.790163,I2C,'255',(0xFF),+,ACK,,,
1.79037925,I2C,R,(0x52),+,NAK,,,
1.79075775,I2C,Setup,Write,to,['208',(0xD0)],+,ACK
1.790974,I2C,C,(0x43),+,ACK,,,
1.79122625,I2C,Setup,Read,to,['209',(0xD1)],+,ACK
1.7914425,I2C,'255',(0xFF),+,ACK,,,
1.791659,I2C,p,(0x70),+,ACK,,,
1.79187525,I2C,'254',(0xFE),+,ACK,,,
1.7920915,I2C,'231',(0xE7),+,ACK,,,
1.79230775,I2C,'255',(0xFF),+,ACK,,,
1.792524,I2C,r,(0x72),+,NAK,,,
1.7929025,I2C,Setup,Write,to,['208',(0xD0)],+,ACK
1.79311875,I2C,C,(0x43),+,ACK,,,
1.79337125,I2C,Setup,Read,to,['209',(0xD1)],+,ACK
1.7935875,I2C,'255',(0xFF),+,ACK,,,
1.79380375,I2C,q,(0x71),+,ACK,,,
1.79402,I2C,'255',(0xFF),+,ACK,,,
1.79423625,I2C,'4',(0x04),+,ACK,,,
1.7944525,I2C,'255',(0xFF),+,ACK,,,
1.79466875,I2C,Q,(0x51),+,NAK,,,
1.79504725,I2C,Setup,Write,to,['208',(0xD0)],+,ACK
1.7952635,I2C,C,(0x43),+,ACK,,,
1.79551575,I2C,Setup,Read,to,['209',(0xD1)],+,ACK
1.795732,I2C,'255',(0xFF),+,ACK,,,
1.79594825,I2C,c,(0x63),+,ACK,,,
1.7961645,I2C,'255',(0xFF),+,ACK,,,
1.79638075,I2C,'24',(0x18),+,ACK,,,
1.796597,I2C,'255',(0xFF),+,ACK,,,
1.79681325,I2C,f,(0x66),+,NAK,,,
1.79719175,I2C,Setup,Write,to,['208',(0xD0)],+,ACK
1.797408,I2C,C,(0x43),+,ACK,,,
1.79766025,I2C,Setup,Read,to,['209',(0xD1)],+,ACK
1.7978765,I2C,'255',(0xFF),+,ACK,,,
1.79809275,I2C,e,(0x65),+,ACK,,,
1.798309,I2C,'254',(0xFE),+,ACK,,,
1.79852525,I2C,'248',(0xF8),+,ACK,,,
1.7987415,I2C,'255',(0xFF),+,ACK,,,
1.79895775,I2C,M,(0x4D),+,NAK,,,
1.79933625,I2C,Setup,Write,to,['208',(0xD0)],+,ACK
1.7995525,I2C,C,(0x43),+,ACK,,,
1.79980475,I2C,Setup,Read,to,['209',(0xD1)],+,ACK
1.80002125,I2C,'255',(0xFF),+,ACK,,,
1.8002375,I2C,'131',(0x83),+,ACK,,,
1.8004535,I2C,'254',(0xFE),+,ACK,,,
1.80066975,I2C,'208',(0xD0),+,ACK,,,
1.80088625,I2C,'255',(0xFF),+,ACK,,,
1.8011025,I2C,g,(0x67),+,NAK,,,
1.801481,I2C,Setup,Write,to,['208',(0xD0)],+,ACK
1.80169725,I2C,C,(0x43),+,ACK,,,
1.8019495,I2C,Setup,Read,to,['209',(0xD1)],+,ACK
1.80216575,I2C,'255',(0xFF),+,ACK,,,
1.802382,I2C,~,(0x7E),+,ACK,,,
1.80259825,I2C,'254',(0xFE),+,ACK,,,
1.8028145,I2C,'229',(0xE5),+,ACK,,,
1.80303075,I2C,'255',(0xFF),+,ACK,,,
1.803247,I2C,e,(0x65),+,NAK,,,
1.8036255,I2C,Setup,Write,to,['208',(0xD0)],+,ACK
1.80384175,I2C,C,(0x43),+,ACK,,,
1.804094,I2C,Setup,Read,to,['209',(0xD1)],+,ACK
1.80431025,I2C,'255',(0xFF),+,ACK,,,
1.8045265,I2C,l,(0x6C),+,ACK,,,
1.80474275,I2C,'254',(0xFE),+,ACK,,,
1.804959,I2C,'208',(0xD0),+,ACK,,,
1.80517525,I2C,'255',(0xFF),+,ACK,,,
1.8053915,I2C,Z,(0x5A),+,NAK,,,
1.80576975,I2C,Setup,Write,to,['208',(0xD0)],+,ACK
1.805986,I2C,C,(0x43),+,ACK,,,
1.8062385,I2C,Setup,Read,to,['209',(0xD1)],+,ACK
1.80645475,I2C,'255',(0xFF),+,ACK,,,
1.806671,I2C,'132',(0x84),+,ACK,,,
1.80688725,I2C,'254',(0xFE),+,ACK,,,
1.80710375,I2C,'228',(0xE4),+,ACK,,,
1.80732,I2C,'255',(0xFF),+,ACK,,,
1.80753625,I2C,f,(0x66),+,NAK,,,
1.80791475,I2C,Setup,Write,to,['208',(0xD0)],+,ACK
1.80813125,I2C,C,(0x43),+,ACK,,,
1.8083835,I2C,Setup,Read,to,['209',(0xD1)],+,ACK
1.80859975,I2C,'255',(0xFF),+,ACK,,,
1.808816,I2C,Q,(0x51),+,ACK,,,
1.80903225,I2C,'254',(0xFE),+,ACK,,,
1.80924875,I2C,'242',(0xF2),+,ACK,,,
1.809465,I2C,'255',(0xFF),+,ACK,,,
1.80968125,I2C,g,(0x67),+,NAK,,,
1.81005975,I2C,Setup,Write,to,['208',(0xD0)],+,ACK
1.810276,I2C,C,(0x43),+,ACK,,,
1.81052825,I2C,Setup,Read,to,['209',(0xD1)],+,ACK
1.8107445,I2C,'255',(0xFF),+,ACK,,,
1.8109605,I2C,x,(0x78),+,ACK,,,
1.81117675,I2C,'254',(0xFE),+,ACK,,,
1.811393,I2C,'232',(0xE8),+,ACK,,,
1.81160925,I2C,'255',(0xFF),+,ACK,,,
1.8118255,I2C,U,(0x55),+,NAK,,,
1.812204,I2C,Setup,Write,to,['208',(0xD0)],+,ACK
1.81242025,I2C,C,(0x43),+,ACK,,,
1.8126725,I2C,Setup,Read,to,['209',(0xD1)],+,ACK
1.81288875,I2C,'255',(0xFF),+,ACK,,,
1.813105,I2C,'127',(0x7F),+,ACK,,,
1.81332125,I2C,'254',(0xFE),+,ACK,,,
1.8135375,I2C,'246',(0xF6),+,ACK,,,
1.81375375,I2C,'255',(0xFF),+,ACK,,,
1.81397,I2C,c,(0x63),+,NAK,,,
1.8143485,I2C,Setup,Write,to,['208',(0xD0)],+,ACK
1.81456475,I2C,C,(0x43),+,ACK,,,
1.814817,I2C,Setup,Read,to,['209',(0xD1)],+,ACK
1.81503325,I2C,'255',(0xFF),+,ACK,,,
1.8152495,I2C,L,(0x4C),+,ACK,,,
1.815466,I2C,'254',(0xFE),+,ACK,,,
1.81568225,I2C,'215',(0xD7),+,ACK,,,
1.8158985,I2C,'255',(0xFF),+,ACK,,,
1.8161145,I2C,S,(0x53),+,NAK,,,
1.81649325,I2C,Setup,Write,to,['208',(0xD0)],+,ACK
1.8167095,I2C,C,(0x43),+,ACK,,,
1.81696175,I2C,Setup,Read,to,['209',(0xD1)],+,ACK
1.817178,I2C,'255',(0xFF),+,ACK,,,
1.817394,I2C,i,(0x69),+,ACK,,,
1.8176105,I2C,'255',(0xFF),+,ACK,,,
1.81782675,I2C,\t,(0x09),+,ACK,,,
1.818043,I2C,'255',(0xFF),+,ACK,,,
1.81825925,I2C,k,(0x6B),+,NAK,,,
1.81863775,I2C,Setup,Write,to,['208',(0xD0)],+,ACK
1.818854,I2C,C,(0x43),+,ACK,,,
1.81910625,I2C,Setup,Read,to,['209',(0xD1)],+,ACK
1.8193225,I2C,'255',(0xFF),+,ACK,,,
1.81953875,I2C,i,(0x69),+,ACK,,,
1.819755,I2C,'254',(0xFE),+,ACK,,,
1.81997125,I2C,'220',(0xDC),+,ACK,,,
1.8201875,I2C,'255',(0xFF),+,ACK,,,
1.82040375,I2C,w,(0x77),+,NAK,,,
1.82078225,I2C,Setup,Write,to,['208',(0xD0)],+,ACK
1.8209985,I2C,C,(0x43),+,ACK,,,
1.82125075,I2C,Setup,Read,to,['209',(0xD1)],+,ACK
1.821467,I2C,'255',(0xFF),+,ACK,,,
1.82168325,I2C,s,(0x73),+,ACK,,,
1.8218995,I2C,'254',(0xFE),+,ACK,,,
1.82211575,I2C,'240',(0xF0),+,ACK,,,
1.822332,I2C,'255',(0xFF),+,ACK,,,
1.8225485,I2C,Y,(0x59),+,NAK,,,
1.822927,I2C,Setup,Write,to,['208',(0xD0)],+,ACK
1.82314325,I2C,C,(0x43),+,ACK,,,
1.8233955,I2C,Setup,Read,to,['209',(0xD1)],+,ACK
1.82361175,I2C,'255',(0xFF),+,ACK,,,
1.823828,I2C,f,(0x66),+,ACK,,,
1.82404425,I2C,'254',(0xFE),+,ACK,,,
1.8242605,I2C,'238',(0xEE),+,ACK,,,
1.82447675,I2C,'255',(0xFF),+,ACK,,,
1.824693,I2C,d,(0x64),+,NAK,,,
1.8250715,I2C,Setup,Write,to,['208',(0xD0)],+,ACK
1.82528775,I2C,C,(0x43),+,ACK,,,
1.82554,I2C,Setup,Read,to,['209',(0xD1)],+,ACK
1.82575625,I2C,'255',(0xFF),+,ACK,,,
1.8259725,I2C,f,(0x66),+,ACK,,,
1.82618875,I2C,'254',(0xFE),+,ACK,,,
1.826405,I2C,'200',(0xC8),+,ACK,,,
1.82662125,I2C,'255',(0xFF),+,ACK,,,
1.8268375,I2C,],(0x5D),+,NAK,,,
1.827216,I2C,Setup,Write,to,['208',(0xD0)],+,ACK
1.82743225,I2C,C,(0x43),+,ACK,,,
1.8276845,I2C,Setup,Read,to,['209',(0xD1)],+,ACK
1.82790075,I2C,'255',(0xFF),+,ACK,,,
1.828117,I2C,f,(0x66),+,ACK,,,
1.82833325,I2C,'254',(0xFE),+,ACK,,,
1.8285495,I2C,'240',(0xF0),+,ACK,,,
1.82876575,I2C,'255',(0xFF),+,ACK,,,
1.828982,I2C,l,(0x6C),+,NAK,,,
1.8293605,I2C,Setup,Write,to,['208',(0xD0)],+,ACK
1.82957675,I2C,C,(0x43),+,ACK,,,
1.829829,I2C,Setup,Read,to,['209',(0xD1)],+,ACK
1.83004525,I2C,'255',(0xFF),+,ACK,,,
1.8302615,I2C,u,(0x75),+,ACK,,,
1.83047775,I2C,'255',(0xFF),+,ACK,,,
1.830694,I2C,\r,(0x0D),+,ACK,,,
1.83091025,I2C,'255',(0xFF),+,ACK,,,
1.8311265,I2C,R,(0x52),+,NAK,,,
1.831505,I2C,Setup,Write,to,['208',(0xD0)],+,ACK
1.831721,I2C,C,(0x43),+,ACK,,,
1.8319735,I2C,Setup,Read,to,['209',(0xD1)],+,ACK
1.83218975,I2C,'255',(0xFF),+,ACK,,,
1.83240575,I2C,h,(0x68),+,ACK,,,
1.832622,I2C,'254',(0xFE),+,ACK,,,
1.83283825,I2C,'216',(0xD8),+,ACK,,,
1.83305475,I2C,'255',(0xFF),+,ACK,,,
1.833271,I2C,d,(0x64),+,NAK,,,
1.83364925,I2C,Setup,Write,to,['208',(0xD0)],+,ACK
1.8338655,I2C,C,(0x43),+,ACK,,,
1.83411775,I2C,Setup,Read,to,['209',(0xD1)],+,ACK
1.834334,I2C,'255',(0xFF),+,ACK,,,
1.83455025,I2C,'139',(0x8B),+,ACK,,,
1.83476625,I2C,'254',(0xFE),+,ACK,,,
1.8349825,I2C,'226',(0xE2),+,ACK,,,
1.835199,I2C,'255',(0xFF),+,ACK,,,
1.835415,I2C,p,(0x70),+,NAK,,,
1.8357935,I2C,Setup,Write,to,['208',(0xD0)],+,ACK
1.83600975,I2C,C,(0x43),+,ACK,,,
1.836262,I2C,Setup,Read,to,['209',(0xD1)],+,ACK
1.8364785,I2C,'255',(0xFF),+,ACK,,,
1.83669475,I2C,q,(0x71),+,ACK,,,
1.836911,I2C,'254',(0xFE),+,ACK,,,
1.83712725,I2C,'246',(0xF6),+,ACK,,,
1.8373435,I2C,'255',(0xFF),+,ACK,,,
1.83755975,I2C,h,(0x68),+,NAK,,,
1.837938,I2C,Setup,Write,to,['208',(0xD0)],+,ACK
1.83815425,I2C,C,(0x43),+,ACK,,,
1.83840675,I2C,Setup,Read,to,['209',(0xD1)],+,ACK
1.838623,I2C,'255',(0xFF),+,ACK,,,
1.838839,I2C,r,(0x72),+,ACK,,,
1.83905525,I2C,'254',(0xFE),+,ACK,,,
1.8392715,I2C,'225',(0xE1),+,ACK,,,
1.83948775,I2C,'255',(0xFF),+,ACK,,,
1.839704,I2C,q,(0x71),+,NAK,,,
1.8400825,I2C,Setup,Write,to,['208',(0xD0)],+,ACK
1.84029875,I2C,C,(0x43),+,ACK,,,
1.840551,I2C,Setup,Read,to,['209',(0xD1)],+,ACK
1.84076725,I2C,'255',(0xFF),+,ACK,,,
1.8409835,I2C,`,(0x60),+,ACK,,,
1.84119975,I2C,'254',(0xFE),+,ACK,,,
1.841416,I2C,'204',(0xCC),+,ACK,,,
1.84163225,I2C,'255',(0xFF),+,ACK,,,
1.8418485,I2C,O,(0x4F),+,NAK,,,
1.84222675,I2C,Setup,Write,to,['208',(0xD0)],+,ACK
1.84244325,I2C,C,(0x43),+,ACK,,,
1.8426955,I2C,Setup,Read,to,['209',(0xD1)],+,ACK
1.8429115,I2C,'255',(0xFF),+,ACK,,,
1.84312775,I2C,z,(0x7A),+,ACK,,,
1.843344,I2C,'254',(0xFE),+,ACK,,,
1.84356025,I2C,'240',(0xF0),+,ACK,,,
1.8437765,I2C,'255',(0xFF),+,ACK,,,
1.84399275,I2C,l,(0x6C),+,NAK,,,
1.844371,I2C,Setup,Write,to,['208',(0xD0)],+,ACK
1.8445875,I2C,C,(0x43),+,ACK,,,
1.84483975,I2C,Setup,Read,to,['209',(0xD1)],+,ACK
1.84505575,I2C,'255',(0xFF),+,ACK,,,
1.845272,I2C,},(0x7D),+,ACK,,,
1.84548825,I2C,'254',(0xFE),+,ACK,,,
1.8457045,I2C,'206',(0xCE),+,ACK,,,
1.84592075,I2C,'255',(0xFF),+,ACK,,,
1.846137,I2C,c,(0x63),+,NAK,,,
1.84651525,I2C,Setup,Write,to,['208',(0xD0)],+,ACK
1.84673175,I2C,C,(0x43),+,ACK,,,
1.846984,I2C,Setup,Read,to,['209',(0xD1)],+,ACK
1.84720025,I2C,'255',(0xFF),+,ACK,,,
1.8474165,I2C,'133',(0x85),+,ACK,,,
1.84763275,I2C,'254',(0xFE),+,ACK,,,
1.847849,I2C,'224',(0xE0),+,ACK,,,
1.84806525,I2C,'255',(0xFF),+,ACK,,,
1.8482815,I2C,O,(0x4F),+,NAK,,,
1.84865975,I2C,Setup,Write,to,['208',(0xD0)],+,ACK
1.848876,I2C,C,(0x43),+,ACK,,,
1.84912825,I2C,Setup,Read,to,['209',(0xD1)],+,ACK
1.8493445,I2C,'255',(0xFF),+,ACK,,,
1.84956075,I2C,a,(0x61),+,ACK,,,
1.84977725,I2C,'254',(0xFE),+,ACK,,,
1.8499935,I2C,'245',(0xF5),+,ACK,,,
1.8502095,I2C,'255',(0xFF),+,ACK,,,
1.85042575,I2C,a,(0x61),+,NAK,,,
1.85080425,I2C,Setup,Write,to,['208',(0xD0)],+,ACK
1.8510205,I2C,C,(0x43),+,ACK,,,
1.85127275,I2C,Setup,Read,to,['209',(0xD1)],+,ACK
1.851489,I2C,'255',(0xFF),+,ACK,,,
1.85170525,I2C,t,(0x74),+,ACK,,,
1.85192175,I2C,'254',(0xFE),+,ACK,,,
1.852138,I2C,'234',(0xEA),+,ACK,,,
1.85235425,I2C,'255',(0xFF),+,ACK,,,
1.85257025,I2C,[,(0x5B),+,NAK,,,
1.85294875,I2C,Setup,Write,to,['208',(0xD0)],+,ACK
1.853165,I2C,C,(0x43),+,ACK,,,
1.85341725,I2C,Setup,Read,to,['209',(0xD1)],+,ACK
1.8536335,I2C,'255',(0xFF),+,ACK,,,
1.85384975,I2C,w,(0x77),+,ACK,,,
1.85406625,I2C,'254',(0xFE),+,ACK,,,
1.8542825,I2C,'229',(0xE5),+,ACK,,,
1.85449875,I2C,'255',(0xFF),+,ACK,,,
1.854715,I2C,I,(0x49),+,NAK,,,
1.8550935,I2C,Setup,Write,to,['208',(0xD0)],+,ACK
1.8553095,I2C,C,(0x43),+,ACK,,,
1.85556175,I2C,Setup,Read,to,['209',(0xD1)],+,ACK
1.855778,I2C,'255',(0xFF),+,ACK,,,
1.85599425,I2C,[,(0x5B),+,ACK,,,
1.8562105,I2C,'254',(0xFE),+,ACK,,,
1.85642675,I2C,'255',(0xFF),+,ACK,,,
1.856643,I2C,'255',(0xFF),+,ACK,,,
1.85685925,I2C,V,(0x56),+,NAK,,,
1.85723775,I2C,Setup,Write,to,['208',(0xD0)],+,ACK
1.857454,I2C,C,(0x43),+,ACK,,,
1.85770625,I2C,Setup,Read,to,['209',(0xD1)],+,ACK
1.8579225,I2C,'255',(0xFF),+,ACK,,,
1.85813875,I2C,'155',(0x9B),+,ACK,,,
1.858355,I2C,'254',(0xFE),+,ACK,,,
1.85857125,I2C,'230',(0xE6),+,ACK,,,
1.8587875,I2C,'255',(0xFF),+,ACK,,,
1.85900375,I2C,\,(0x5C),+,NAK,,,
1.85938225,I2C,Setup,Write,to,['208',(0xD0)],+,ACK
1.85959825,I2C,C,(0x43),+,ACK,,,
1.8598505,I2C,Setup,Read,to,['209',(0xD1)],+,ACK
1.86006675,I2C,'255',(0xFF),+,ACK,,,
1.860283,I2C,t,(0x74),+,ACK,,,
1.86049925,I2C,'254',(0xFE),+,ACK,,,
1.8607155,I2C,'247',(0xF7),+,ACK,,,
1.86093175,I2C,'255',(0xFF),+,ACK,,,
1.86114825,I2C,[,(0x5B),+,NAK,,,
1.8615265,I2C,Setup,Write,to,['208',(0xD0)],+,ACK
1.86174275,I2C,C,(0x43),+,ACK,,,
1.861995,I2C,Setup,Read,to,['209',(0xD1)],+,ACK
1.86221125,I2C,'255',(0xFF),+,ACK,,,
1.86242775,I2C,'130',(0x82),+,ACK,,,
1.86264375,I2C,'254',(0xFE),+,ACK,,,
1.86286,I2C,'240',(0xF0),+,ACK,,,
1.86307625,I2C,'255',(0xFF),+,ACK,,,
1.86329275,I2C,h,(0x68),+,NAK,,,
1.863671,I2C,Setup,Write,to,['208',(0xD0)],+,ACK
1.86388725,I2C,C,(0x43),+,ACK,,,
1.8641395,I2C,Setup,Read,to,['209',(0xD1)],+,ACK
1.86435575,I2C,'255',(0xFF),+,ACK,,,
1.864572,I2C,b,(0x62),+,ACK,,,
1.86478825,I2C,'254',(0xFE),+,ACK,,,
1.8650045,I2C,'222',(0xDE),+,ACK,,,
1.86522075,I2C,'255',(0xFF),+,ACK,,,
1.865437,I2C,V,(0x56),+,NAK,,,
1.8658155,I2C,Setup,Write,to,['208',(0xD0)],+,ACK
1.86603175,I2C,C,(0x43),+,ACK,,,
1.866284,I2C,Setup,Read,to,['209',(0xD1)],+,ACK
1.86650025,I2C,'255',(0xFF),+,ACK,,,
1.8667165,I2C,'128',(0x80),+,ACK,,,
1.86693275,I2C,'254',(0xFE),+,ACK,,,
1.867149,I2C,'241',(0xF1),+,ACK,,,
1.86736525,I2C,'255',(0xFF),+,ACK,,,
1.8675815,I2C,N,(0x4E),+,NAK,,,
1.86795975,I2C,Setup,Write,to,['208',(0xD0)],+,ACK
1.868176,I2C,C,(0x43),+,ACK,,,
1.86842825,I2C,Setup,Read,to,['209',(0xD1)],+,ACK
1.8686445,I2C,'255',(0xFF),+,ACK,,,
1.86886075,I2C,F,(0x46),+,ACK,,,
1.869077,I2C,'254',(0xFE),+,ACK,,,
1.86929325,I2C,'226',(0xE2),+,ACK,,,
1.8695095,I2C,'255',(0xFF),+,ACK,,,
1.86972575,I2C,o,(0x6F),+,NAK,,,
1.87010425,I2C,Setup,Write,to,['208',(0xD0)],+,ACK
1.87032075,I2C,C,(0x43),+,ACK,,,
1.870573,I2C,Setup,Read,to,['209',(0xD1)],+,ACK
1.87078925,I2C,'255',(0xFF),+,ACK,,,
1.8710055,I2C,g,(0x67),+,ACK,,,
1.87122175,I2C,'254',(0xFE),+,ACK,,,
1.871438,I2C,'223',(0xDF),+,ACK,,,
1.8716545,I2C,'255',(0xFF),+,ACK,,,
1.87187075,I2C,o,(0x6F),+,NAK,,,
1.87224925,I2C,Setup,Write,to,['208',(0xD0)],+,ACK
1.87246525,I2C,C,(0x43),+,ACK,,,
1.87271775,I2C,Setup,Read,to,['209',(0xD1)],+,ACK
1.872934,I2C,'255',(0xFF),+,ACK,,,
1.87315025,I2C,g,(0x67),+,ACK,,,
1.8733665,I2C,'254',(0xFE),+,ACK,,,
1.87358275,I2C,'243',(0xF3),+,ACK,,,
1.873799,I2C,'255',(0xFF),+,ACK,,,
1.87401525,I2C,c,(0x63),+,NAK,,,
1.8743935,I2C,Setup,Write,to,['208',(0xD0)],+,ACK
1.87460975,I2C,C,(0x43),+,ACK,,,
1.874862,I2C,Setup,Read,to,['209',(0xD1)],+,ACK
1.87507825,I2C,'255',(0xFF),+,ACK,,,
1.8752945,I2C,t,(0x74),+,ACK,,,
1.87551075,I2C,'254',(0xFE),+,ACK,,,
1.87572725,I2C,'243',(0xF3),+,ACK,,,
1.8759435,I2C,'255',(0xFF),+,ACK,,,
1.87615975,I2C,g,(0x67),+,NAK,,,
1.876538,I2C,Setup,Write,to,['208',(0xD0)],+,ACK
1.8767545,I2C,C,(0x43),+,ACK,,,
1.87700675,I2C,Setup,Read,to,['209',(0xD1)],+,ACK
1.877223,I2C,'255',(0xFF),+,ACK,,,
1.87743925,I2C,c,(0x63),+,ACK,,,
1.8776555,I2C,'254',(0xFE),+,ACK,,,
1.87787175,I2C,'240',(0xF0),+,ACK,,,
1.878088,I2C,'255',(0xFF),+,ACK,,,
1.878304,I2C,f,(0x66),+,NAK,,,
1.8786825,I2C,Setup,Write,to,['208',(0xD0)],+,ACK
1.87889875,I2C,C,(0x43),+,ACK,,,
1.87915125,I2C,Setup,Read,to,['209',(0xD1)],+,ACK
1.8793675,I2C,'255',(0xFF),+,ACK,,,
1.8795835,I2C,z,(0x7A),+,ACK,,,
1.87979975,I2C,'254',(0xFE),+,ACK,,,
1.88001625,I2C,'219',(0xDB),+,ACK,,,
1.8802325,I2C,'255',(0xFF),+,ACK,,,
1.88044875,I2C,e,(0x65),+,NAK,,,
1.880827,I2C,Setup,Write,to,['208',(0xD0)],+,ACK
1.8810435,I2C,C,(0x43),+,ACK,,,
1.88129575,I2C,Setup,Read,to,['209',(0xD1)],+,ACK
1.881512,I2C,'255',(0xFF),+,ACK,,,
1.881728,I2C,u,(0x75),+,ACK,,,
1.8819445,I2C,'255',(0xFF),+,ACK,,,
1.88216075,I2C,'0',(0x00),+,ACK,,,
1.882377,I2C,'255',(0xFF),+,ACK,,,
1.88259325,I2C,R,(0x52),+,NAK,,,
1.8829715,I2C,Setup,Write,to,['208',(0xD0)],+,ACK
1.883188,I2C,C,(0x43),+,ACK,,,
1.88344025,I2C,Setup,Read,to,['209',(0xD1)],+,ACK
1.8836565,I2C,'255',(0xFF),+,ACK,,,
1.88387275,I2C,s,(0x73),+,ACK,,,
1.88408925,I2C,'254',(0xFE),+,ACK,,,
1.8843055,I2C,'228',(0xE4),+,ACK,,,
1.88452175,I2C,'255',(0xFF),+,ACK,,,
1.884738,I2C,s,(0x73),+,NAK,,,
1.8851165,I2C,Setup,Write,to,['208',(0xD0)],+,ACK
1.88533275,I2C,C,(0x43),+,ACK,,,
1.88558525,I2C,Setup,Read,to,['209',(0xD1)],+,ACK
1.8858015,I2C,'255',(0xFF),+,ACK,,,
1.88601775,I2C,~,(0x7E),+,ACK,,,
1.886234,I2C,'254',(0xFE),+,ACK,,,
1.88645025,I2C,'240',(0xF0),+,ACK,,,
1.8866665,I2C,'255',(0xFF),+,ACK,,,
1.88688275,I2C,g,(0x67),+,NAK,,,
1.88726125,I2C,Setup,Write,to,['208',(0xD0)],+,ACK
1.8874775,I2C,C,(0x43),+,ACK,,,
1.88772975,I2C,Setup,Read,to,['209',(0xD1)],+,ACK
1.887946,I2C,'255',(0xFF),+,ACK,,,
1.888162,I2C,j,(0x6A),+,ACK,,,
1.8883785,I2C,'254',(0xFE),+,ACK,,,
1.8885945,I2C,'240',(0xF0),+,ACK,,,
1.88881075,I2C,'255',(0xFF),+,ACK,,,
1.889027,I2C,i,(0x69),+,NAK,,,
1.8894055,I2C,Setup,Write,to,['208',(0xD0)],+,ACK
1.88962175,I2C,C,(0x43),+,ACK,,,
1.889874,I2C,Setup,Read,to,['209',(0xD1)],+,ACK
1.89009025,I2C,'255',(0xFF),+,ACK,,,
1.89030675,I2C,'128',(0x80),+,ACK,,,
1.890523,I2C,'254',(0xFE),+,ACK,,,
1.89073925,I2C,'196',(0xC4),+,ACK,,,
1.8909555,I2C,'255',(0xFF),+,ACK,,,
1.89117175,I2C,^,(0x5E),+,NAK,,,
1.89155,I2C,Setup,Write,to,['208',(0xD0)],+,ACK
1.89176625,I2C,C,(0x43),+,ACK,,,
1.8920185,I2C,Setup,Read,to,['209',(0xD1)],+,ACK
1.89223475,I2C,'255',(0xFF),+,ACK,,,
1.892451,I2C,s,(0x73),+,ACK,,,
1.89266725,I2C,'254',(0xFE),+,ACK,,,
1.8928835,I2C,'196',(0xC4),+,ACK,,,
1.89309975,I2C,'255',(0xFF),+,ACK,,,
1.893316,I2C,n,(0x6E),+,NAK,,,
1.8936945,I2C,Setup,Write,to,['208',(0xD0)],+,ACK
1.89391075,I2C,C,(0x43),+,ACK,,,
1.894163,I2C,Setup,Read,to,['209',(0xD1)],+,ACK
1.89437925,I2C,'255',(0xFF),+,ACK,,,
1.8945955,I2C,`,(0x60),+,ACK,,,
1.89481175,I2C,'254',(0xFE),+,ACK,,,
1.895028,I2C,'231',(0xE7),+,ACK,,,
1.89524425,I2C,'255',(0xFF),+,ACK,,,
1.8954605,I2C,z,(0x7A),+,NAK,,,
1.895839,I2C,Setup,Write,to,['208',(0xD0)],+,ACK
1.896055,I2C,C,(0x43),+,ACK,,,
1.8963075,I2C,Setup,Read,to,['209',(0xD1)],+,ACK
1.8965235,I2C,'255',(0xFF),+,ACK,,,
1.89674,I2C,U,(0x55),+,ACK,,,
1.89695625,I2C,'255',(0xFF),+,ACK,,,
1.89717225,I2C,'3',(0x03),+,ACK,,,
1.8973885,I2C,'255',(0xFF),+,ACK,,,
1.897605,I2C,k,(0x6B),+,NAK,,,
1.89798325,I2C,Setup,Write,to,['208',(0xD0)],+,ACK
1.8981995,I2C,C,(0x43),+,ACK,,,
1.898452,I2C,Setup,Read,to,['209',(0xD1)],+,ACK
1.89866825,I2C,'255',(0xFF),+,ACK,,,
1.8988845,I2C,n,(0x6E),+,ACK,,,
1.89910075,I2C,'254',(0xFE),+,ACK,,,
1.899317,I2C,'205',(0xCD),+,ACK,,,
1.89953325,I2C,'255',(0xFF),+,ACK,,,
1.8997495,I2C,Z,(0x5A),+,NAK,,,
1.900128,I2C,Setup,Write,to,['208',(0xD0)],+,ACK
1.90034425,I2C,C,(0x43),+,ACK,,,
1.9005965,I2C,Setup,Read,to,['209',(0xD1)],+,ACK
1.90081275,I2C,'255',(0xFF),+,ACK,,,
1.901029,I2C,'127',(0x7F),+,ACK,,,
1.90124525,I2C,'254',(0xFE),+,ACK,,,
1.9014615,I2C,'248',(0xF8),+,ACK,,,
1.90167775,I2C,'255',(0xFF),+,ACK,,,
1.901894,I2C,i,(0x69),+,NAK,,,
1.9022725,I2C,Setup,Write,to,['208',(0xD0)],+,ACK
1.90248875,I2C,C,(0x43),+,ACK,,,
1.902741,I2C,Setup,Read,to,['209',(0xD1)],+,ACK
1.90295725,I2C,'255',(0xFF),+,ACK,,,
1.9031735,I2C,w,(0x77),+,ACK,,,
1.90338975,I2C,'254',(0xFE),+,ACK,,,
1.90360575,I2C,'228',(0xE4),+,ACK,,,
1.90382225,I2C,'255',(0xFF),+,ACK,,,
1.90403825,I2C,U,(0x55),+,NAK,,,
1.90441675,I2C,Setup,Write,to,['208',(0xD0)],+,ACK
1.904633,I2C,C,(0x43),+,ACK,,,
1.90488525,I2C,Setup,Read,to,['209',(0xD1)],+,ACK
1.9051015,I2C,'255',(0xFF),+,ACK,,,
1.90531775,I2C,g,(0x67),+,ACK,,,
1.905534,I2C,'254',(0xFE),+,ACK,,,
1.90575025,I2C,'219',(0xDB),+,ACK,,,
1.9059665,I2C,'255',(0xFF),+,ACK,,,
1.90618275,I2C,h,(0x68),+,NAK,,,
1.906561,I2C,Setup,Write,to,['208',(0xD0)],+,ACK
1.90677725,I2C,C,(0x43),+,ACK,,,
1.90702975,I2C,Setup,Read,to,['209',(0xD1)],+,ACK
1.90724575,I2C,'255',(0xFF),+,ACK,,,
1.907462,I2C,m,(0x6D),+,ACK,,,
1.90767825,I2C,'254',(0xFE),+,ACK,,,
1.9078945,I2C,'244',(0xF4),+,ACK,,,
1.90811075,I2C,'255',(0xFF),+,ACK,,,
1.908327,I2C,`,(0x60),+,NAK,,,
1.9087055,I2C,Setup,Write,to,['208',(0xD0)],+,ACK
1.9089215,I2C,C,(0x43),+,ACK,,,
1.909174,I2C,Setup,Read,to,['209',(0xD1)],+,ACK
1.90939,I2C,'255',(0xFF),+,ACK,,,
1.90960625,I2C,t,(0x74),+,ACK,,,
1.9098225,I2C,'254',(0xFE),+,ACK,,,
1.91003875,I2C,'223',(0xDF),+,ACK,,,
1.910255,I2C,'255',(0xFF),+,ACK,,,
1.91047125,I2C,n,(0x6E),+,NAK,,,
1.91084975,I2C,Setup,Write,to,['208',(0xD0)],+,ACK
1.911066,I2C,C,(0x43),+,ACK,,,
1.91131825,I2C,Setup,Read,to,['209',(0xD1)],+,ACK
1.9115345,I2C,'255',(0xFF),+,ACK,,,
1.91175075,I2C,k,(0x6B),+,ACK,,,
1.91196725,I2C,'254',(0xFE),+,ACK,,,
1.9121835,I2C,'239',(0xEF),+,ACK,,,
1.91239975,I2C,'255',(0xFF),+,ACK,,,
1.91261575,I2C,M,(0x4D),+,NAK,,,
1.91299425,I2C,Setup,Write,to,['208',(0xD0)],+,ACK
1.9132105,I2C,C,(0x43),+,ACK,,,
1.913463,I2C,Setup,Read,to,['209',(0xD1)],+,ACK
1.91367925,I2C,'255',(0xFF),+,ACK,,,
1.91389525,I2C,n,(0x6E),+,ACK,,,
1.9141115,I2C,'254',(0xFE),+,ACK,,,
1.91432775,I2C,'206',(0xCE),+,ACK,,,
1.914544,I2C,'255',(0xFF),+,ACK,,,
1.91476025,I2C,T,(0x54),+,NAK,,,
1.91513875,I2C,Setup,Write,to,['208',(0xD0)],+,ACK
1.915355,I2C,C,(0x43),+,ACK,,,
1.91560725,I2C,Setup,Read,to,['209',(0xD1)],+,ACK
1.9158235,I2C,'255',(0xFF),+,ACK,,,
1.91603975,I2C,'134',(0x86),+,ACK,,,
1.916256,I2C,'254',(0xFE),+,ACK,,,
1.91647225,I2C,'239',(0xEF),+,ACK,,,
1.9166885,I2C,'255',(0xFF),+,ACK,,,
1.9169045,I2C,h,(0x68),+,NAK,,,
1.917283,I2C,Setup,Write,to,['208',(0xD0)],+,ACK
1.91749925,I2C,C,(0x43),+,ACK,,,
1.9177515,I2C,Setup,Read,to,['209',(0xD1)],+,ACK
1.91796775,I2C,'255',(0xFF),+,ACK,,,
1.918184,I2C,a,(0x61),+,ACK,,,
1.91840025,I2C,'254',(0xFE),+,ACK,,,
1.9186165,I2C,'253',(0xFD),+,ACK,,,
1.91883275,I2C,'255',(0xFF),+,ACK,,,
1.91904875,I2C,f,(0x66),+,NAK,,,
1.91942725,I2C,Setup,Write,to,['208',(0xD0)],+,ACK
1.9196435,I2C,C,(0x43),+,ACK,,,
1.91989575,I2C,Setup,Read,to,['209',(0xD1)],+,ACK
1.920112,I2C,'255',(0xFF),+,ACK,,,
1.92032825,I2C,j,(0x6A),+,ACK,,,
1.9205445,I2C,'255',(0xFF),+,ACK,,,
1.92076075,I2C,\n,(0x0A),+,ACK,,,
1.920977,I2C,'255',(0xFF),+,ACK,,,
1.92119325,I2C,P,(0x50),+,NAK,,,
1.92157175,I2C,Setup,Write,to,['208',(0xD0)],+,ACK
1.921788,I2C,C,(0x43),+,ACK,,,
1.92204025,I2C,Setup,Read,to,['209',(0xD1)],+,ACK
1.9222565,I2C,'255',(0xFF),+,ACK,,,
1.92247275,I2C,h,(0x68),+,ACK,,,
1.92268925,I2C,'254',(0xFE),+,ACK,,,
1.9229055,I2C,'209',(0xD1),+,ACK,,,
1.9231215,I2C,'255',(0xFF),+,ACK,,,
1.92333775,I2C,a,(0x61),+,NAK,,,
1.92371625,I2C,Setup,Write,to,['208',(0xD0)],+,ACK
1.9239325,I2C,C,(0x43),+,ACK,,,
1.92418475,I2C,Setup,Read,to,['209',(0xD1)],+,ACK
1.924401,I2C,'255',(0xFF),+,ACK,,,
1.92461725,I2C,|,(0x7C),+,ACK,,,
1.9248335,I2C,'254',(0xFE),+,ACK,,,
1.92504975,I2C,'188',(0xBC),+,ACK,,,
1.925266,I2C,'255',(0xFF),+,ACK,,,
1.92548225,I2C,e,(0x65),+,NAK,,,
1.9258605,I2C,Setup,Write,to,['208',(0xD0)],+,ACK
1.92607675,I2C,C,(0x43),+,ACK,,,
1.926329,I2C,Setup,Read,to,['209',(0xD1)],+,ACK
1.92654525,I2C,'255',(0xFF),+,ACK,,,
1.9267615,I2C,t,(0x74),+,ACK,,,
1.92697775,I2C,'254',(0xFE),+,ACK,,,
1.927194,I2C,'233',(0xE9),+,ACK,,,
1.92741,I2C,'255',(0xFF),+,ACK,,,
1.9276265,I2C,V,(0x56),+,NAK,,,
1.92800475,I2C,Setup,Write,to,['208',(0xD0)],+,ACK
1.928221,I2C,C,(0x43),+,ACK,,,
1.92847325,I2C,Setup,Read,to,['209',(0xD1)],+,ACK
1.9286895,I2C,'255',(0xFF),+,ACK,,,
1.92890575,I2C,|,(0x7C),+,ACK,,,
1.929122,I2C,'254',(0xFE),+,ACK,,,
1.92933825,I2C,'233',(0xE9),+,ACK,,,
1.9295545,I2C,'255',(0xFF),+,ACK,,,
1.929771,I2C,e,(0x65),+,NAK,,,
1.9301495,I2C,Setup,Write,to,['208',(0xD0)],+,ACK
1.93036575,I2C,C,(0x43),+,ACK,,,
1.930618,I2C,Setup,Read,to,['209',(0xD1)],+,ACK
1.93083425,I2C,'255',(0xFF),+,ACK,,,
1.93105075,I2C,'135',(0x87),+,ACK,,,
1.931267,I2C,'254',(0xFE),+,ACK,,,
1.93148325,I2C,'225',(0xE1),+,ACK,,,
1.9316995,I2C,'255',(0xFF),+,ACK,,,
1.93191575,I2C,g,(0x67),+,NAK,,,
1.93229425,I2C,Setup,Write,to,['208',(0xD0)],+,ACK
1.9325105,I2C,C,(0x43),+,ACK,,,
1.932763,I2C,Setup,Read,to,['209',(0xD1)],+,ACK
1.93297925,I2C,'255',(0xFF),+,ACK,,,
1.9331955,I2C,'137',(0x89),+,ACK,,,
1.93341175,I2C,'254',(0xFE),+,ACK,,,
1.933628,I2C,'233',(0xE9),+,ACK,,,
1.9338445,I2C,'255',(0xFF),+,ACK,,,
1.9340605,I2C,\,(0x5C),+,NAK,,,
1.934439,I2C,Setup,Write,to,['208',(0xD0)],+,ACK
1.93465525,I2C,C,(0x43),+,ACK,,,
1.9349075,I2C,Setup,Read,to,['209',(0xD1)],+,ACK
1.93512375,I2C,'255',(0xFF),+,ACK,,,
1.93534,I2C,{,(0x7B),+,ACK,,,
1.93555625,I2C,'254',(0xFE),+,ACK,,,
1.9357725,I2C,'223',(0xDF),+,ACK,,,
1.93598875,I2C,'255',(0xFF),+,ACK,,,
1.936205,I2C,Y,(0x59),+,NAK,,,
1.9365835,I2C,Setup,Write,to,['208',(0xD0)],+,ACK
1.93679975,I2C,C,(0x43),+,ACK,,,
1.937052,I2C,Setup,Read,to,['209',(0xD1)],+,ACK
1.93726825,I2C,'255',(0xFF),+,ACK,,,
1.9374845,I2C,n,(0x6E),+,ACK,,,
1.93770075,I2C,'255',(0xFF),+,ACK,,,
1.937917,I2C,'0',(0x00),+,ACK,,,
1.93813325,I2C,'255',(0xFF),+,ACK,,,
1.9383495,I2C,u,(0x75),+,NAK,,,
1.938728,I2C,Setup,Write,to,['208',(0xD0)],+,ACK
1.93894425,I2C,C,(0x43),+,ACK,,,
1.9391965,I2C,Setup,Read,to,['209',(0xD1)],+,ACK
1.93941275,I2C,'255',(0xFF),+,ACK,,,
1.939629,I2C,m,(0x6D),+,ACK,,,
1.93984525,I2C,'254',(0xFE),+,ACK,,,
1.9400615,I2C,'246',(0xF6),+,ACK,,,
1.94027775,I2C,'255',(0xFF),+,ACK,,,
1.940494,I2C,'130',(0x82),+,NAK,,,
1.9408725,I2C,Setup,Write,to,['208',(0xD0)],+,ACK
1.9410885,I2C,C,(0x43),+,ACK,,,
1.941341,I2C,Setup,Read,to,['209',(0xD1)],+,ACK
1.941557,I2C,'255',(0xFF),+,ACK,,,
1.94177325,I2C,{,(0x7B),+,ACK,,,
1.9419895,I2C,'254',(0xFE),+,ACK,,,
1.942206,I2C,'221',(0xDD),+,ACK,,,
1.94242225,I2C,'255',(0xFF),+,ACK,,,
1.9426385,I2C,\,(0x5C),+,NAK,,,
1.94301675,I2C,Setup,Write,to,['208',(0xD0)],+,ACK
1.943233,I2C,C,(0x43),+,ACK,,,
1.9434855,I2C,Setup,Read,to,['209',(0xD1)],+,ACK
1.94370175,I2C,'255',(0xFF),+,ACK,,,
1.943918,I2C,e,(0x65),+,ACK,,,
1.94413425,I2C,'254',(0xFE),+,ACK,,,
1.9443505,I2C,'204',(0xCC),+,ACK,,,
1.94456675,I2C,'255',(0xFF),+,ACK,,,
1.944783,I2C,l,(0x6C),+,NAK,,,
1.94516125,I2C,Setup,Write,to,['208',(0xD0)],+,ACK
1.9453775,I2C,C,(0x43),+,ACK,,,
1.94563,I2C,Setup,Read,to,['209',(0xD1)],+,ACK
1.945846,I2C,'255',(0xFF),+,ACK,,,
1.94606225,I2C,r,(0x72),+,ACK,,,
1.9462785,I2C,'254',(0xFE),+,ACK,,,
1.94649475,I2C,'215',(0xD7),+,ACK,,,
1.946711,I2C,'255',(0xFF),+,ACK,,,
1.94692725,I2C,l,(0x6C),+,NAK,,,
1.94730575,I2C,Setup,Write,to,['208',(0xD0)],+,ACK
1.947522,I2C,C,(0x43),+,ACK,,,
1.94777425,I2C,Setup,Read,to,['209',(0xD1)],+,ACK
1.9479905,I2C,'255',(0xFF),+,ACK,,,
1.94820675,I2C,k,(0x6B),+,ACK,,,
1.94842275,I2C,'254',(0xFE),+,ACK,,,
1.94863925,I2C,'218',(0xDA),+,ACK,,,
1.94885525,I2C,'255',(0xFF),+,ACK,,,
1.9490715,I2C,r,(0x72),+,NAK,,,
1.94945,I2C,Setup,Write,to,['208',(0xD0)],+,ACK
1.94966625,I2C,C,(0x43),+,ACK,,,
1.9499185,I2C,Setup,Read,to,['209',(0xD1)],+,ACK
1.95013475,I2C,'255',(0xFF),+,ACK,,,
1.950351,I2C,_,(0x5F),+,ACK,,,
1.95056725,I2C,'255',(0xFF),+,ACK,,,
1.9507835,I2C,'5',(0x05),+,ACK,,,
1.9509995,I2C,'255',(0xFF),+,ACK,,,
1.95121575,I2C,m,(0x6D),+,NAK,,,
1.95159425,I2C,Setup,Write,to,['208',(0xD0)],+,ACK
1.9518105,I2C,C,(0x43),+,ACK,,,
1.95206275,I2C,Setup,Read,to,['209',(0xD1)],+,ACK
1.952279,I2C,'255',(0xFF),+,ACK,,,
1.95249525,I2C,'139',(0x8B),+,ACK,,,
1.9527115,I2C,'254',(0xFE),+,ACK,,,
1.95292775,I2C,'242',(0xF2),+,ACK,,,
1.953144,I2C,'255',(0xFF),+,ACK,,,
1.95336025,I2C,X,(0x58),+,NAK,,,
1.95373875,I2C,Setup,Write,to,['208',(0xD0)],+,ACK
1.95395525,I2C,C,(0x43),+,ACK,,,
1.9542075,I2C,Setup,Read,to,['209',(0xD1)],+,ACK
1.95442375,I2C,'255',(0xFF),+,ACK,,,
1.95464,I2C,w,(0x77),+,ACK,,,
1.95485625,I2C,'254',(0xFE),+,ACK,,,
1.9550725,I2C,'229',(0xE5),+,ACK,,,
1.95528875,I2C,'255',(0xFF),+,ACK,,,
1.955505,I2C,^,(0x5E),+,NAK,,,
1.9558835,I2C,Setup,Write,to,['208',(0xD0)],+,ACK
1.95609975,I2C,C,(0x43),+,ACK,,,
1.956352,I2C,Setup,Read,to,['209',(0xD1)],+,ACK
1.95656825,I2C,'255',(0xFF),+,ACK,,,
1.9567845,I2C,'128',(0x80),+,ACK,,,
1.95700075,I2C,'254',(0xFE),+,ACK,,,
1.957217,I2C,'224',(0xE0),+,ACK,,,
1.95743325,I2C,'255',(0xFF),+,ACK,,,
1.9576495,I2C,f,(0x66),+,NAK,,,
1.958028,I2C,Setup,Write,to,['208',(0xD0)],+,ACK
1.958244,I2C,C,(0x43),+,ACK,,,
1.95849625,I2C,Setup,Read,to,['209',(0xD1)],+,ACK
1.9587125,I2C,'255',(0xFF),+,ACK,,,
1.95892875,I2C,h,(0x68),+,ACK,,,
1.959145,I2C,'254',(0xFE),+,ACK,,,
1.95936125,I2C,'204',(0xCC),+,ACK,,,
1.9595775,I2C,'255',(0xFF),+,ACK,,,
1.95979375,I2C,g,(0x67),+,NAK,,,
1.96017225,I2C,Setup,Write,to,['208',(0xD0)],+,ACK
1.9603885,I2C,C,(0x43),+,ACK,,,
1.96064075,I2C,Setup,Read,to,['209',(0xD1)],+,ACK
1.960857,I2C,'255',(0xFF),+,ACK,,,
1.96107325,I2C,x,(0x78),+,ACK,,,
1.9612895,I2C,'254',(0xFE),+,ACK,,,
1.96150575,I2C,'244',(0xF4),+,ACK,,,
1.961722,I2C,'255',(0xFF),+,ACK,,,
1.96193825,I2C,x,(0x78),+,NAK,,,
1.9623165,I2C,Setup,Write,to,['208',(0xD0)],+,ACK
1.96253275,I2C,C,(0x43),+,ACK,,,
1.962785,I2C,Setup,Read,to,['209',(0xD1)],+,ACK
1.963001,I2C,'255',(0xFF),+,ACK,,,
1.9632175,I2C,j,(0x6A),+,ACK,,,
1.9634335,I2C,'254',(0xFE),+,ACK,,,
1.96364975,I2C,'242',(0xF2),+,ACK,,,
1.963866,I2C,'255',(0xFF),+,ACK,,,
1.96408225,I2C,I,(0x49),+,NAK,,,
1.96446075,I2C,Setup,Write,to,['208',(0xD0)],+,ACK
1.964677,I2C,C,(0x43),+,ACK,,,
1.96492925,I2C,Setup,Read,to,['209',(0xD1)],+,ACK
1.9651455,I2C,'255',(0xFF),+,ACK,,,
1.96536175,I2C,h,(0x68),+,ACK,,,
1.965578,I2C,'254',(0xFE),+,ACK,,,
1.96579425,I2C,'219',(0xDB),+,ACK,,,
1.9660105,I2C,'255',(0xFF),+,ACK,,,
1.96622675,I2C,l,(0x6C),+,NAK,,,
1.966605,I2C,Setup,Write,to,['208',(0xD0)],+,ACK
1.96682125,I2C,C,(0x43),+,ACK,,,
1.9670735,I2C,Setup,Read,to,['209',(0xD1)],+,ACK
1.96729,I2C,'255',(0xFF),+,ACK,,,
1.96750625,I2C,t,(0x74),+,ACK,,,
1.9677225,I2C,'254',(0xFE),+,ACK,,,
1.96793875,I2C,'237',(0xED),+,ACK,,,
1.968155,I2C,'255',(0xFF),+,ACK,,,
1.96837125,I2C,U,(0x55),+,NAK,,,
1.96874975,I2C,Setup,Write,to,['208',(0xD0)],+,ACK
1.968966,I2C,C,(0x43),+,ACK,,,
1.96921825,I2C,Setup,Read,to,['209',(0xD1)],+,ACK
1.9694345,I2C,'255',(0xFF),+,ACK,,,
1.96965075,I2C,j,(0x6A),+,ACK,,,
1.969867,I2C,'254',(0xFE),+,ACK,,,
1.97008325,I2C,'226',(0xE2),+,ACK,,,
1.97029975,I2C,'255',(0xFF),+,ACK,,,
1.970516,I2C,e,(0x65),+,NAK,,,
1.97089425,I2C,Setup,Write,to,['208',(0xD0)],+,ACK
1.9711105,I2C,C,(0x43),+,ACK,,,
1.97136275,I2C,Setup,Read,to,['209',(0xD1)],+,ACK
1.97157925,I2C,'255',(0xFF),+,ACK,,,
1.9717955,I2C,{,(0x7B),+,ACK,,,
1.9720115,I2C,'254',(0xFE),+,ACK,,,
1.97222775,I2C,'241',(0xF1),+,ACK,,,
1.97244425,I2C,'255',(0xFF),+,ACK,,,
1.9726605,I2C,'129',(0x81),+,NAK,,,
1.97303875,I2C,Setup,Write,to,['208',(0xD0)],+,ACK
1.973255,I2C,C,(0x43),+,ACK,,,
1.9735075,I2C,Setup,Read,to,['209',(0xD1)],+,ACK
1.97372375,I2C,'255',(0xFF),+,ACK,,,
1.97394,I2C,c,(0x63),+,ACK,,,
1.97415625,I2C,'255',(0xFF),+,ACK,,,
1.9743725,I2C,'8',(0x08),+,ACK,,,
1.97458875,I2C,'255',(0xFF),+,ACK,,,
1.974805,I2C,f,(0x66),+,NAK,,,
1.9751835,I2C,Setup,Write,to,['208',(0xD0)],+,ACK
1.97539975,I2C,C,(0x43),+,ACK,,,
1.975652,I2C,Setup,Read,to,['209',(0xD1)],+,ACK
1.97586825,I2C,'255',(0xFF),+,ACK,,,
1.9760845,I2C,|,(0x7C),+,ACK,,,
1.97630075,I2C,'254',(0xFE),+,ACK,,,
1.976517,I2C,'215',(0xD7),+,ACK,,,
1.97673325,I2C,'255',(0xFF),+,ACK,,,
1.9769495,I2C,k,(0x6B),+,NAK,,,
1.977328,I2C,Setup,Write,to,['208',(0xD0)],+,ACK
1.97754425,I2C,C,(0x43),+,ACK,,,
1.97779675,I2C,Setup,Read,to,['209',(0xD1)],+,ACK
1.978013,I2C,'255',(0xFF),+,ACK,,,
1.97822925,I2C,'133',(0x85),+,ACK,,,
1.9784455,I2C,'254',(0xFE),+,ACK,,,
1.97866175,I2C,'240',(0xF0),+,ACK,,,
1.978878,I2C,'255',(0xFF),+,ACK,,,
1.97909425,I2C,X,(0x58),+,NAK,,,
1.97947275,I2C,Setup,Write,to,['208',(0xD0)],+,ACK
1.979689,I2C,C,(0x43),+,ACK,,,
1.97994125,I2C,Setup,Read,to,['209',(0xD1)],+,ACK
1.9801575,I2C,'255',(0xFF),+,ACK,,,
1.98037375,I2C,g,(0x67),+,ACK,,,
1.98059,I2C,'254',(0xFE),+,ACK,,,
1.9808065,I2C,'217',(0xD9),+,ACK,,,
1.98102275,I2C,'255',(0xFF),+,ACK,,,
1.981239,I2C,m,(0x6D),+,NAK,,,
1.9816175,I2C,Setup,Write,to,['208',(0xD0)],+,ACK
1.98183375,I2C,C,(0x43),+,ACK,,,
1.98208625,I2C,Setup,Read,to,['209',(0xD1)],+,ACK
1.9823025,I2C,'255',(0xFF),+,ACK,,,
1.98251875,I2C,'136',(0x88),+,ACK,,,
1.982735,I2C,'254',(0xFE),+,ACK,,,
1.98295125,I2C,'228',(0xE4),+,ACK,,,
1.9831675,I2C,'255',(0xFF),+,ACK,,,
1.98338375,I2C,_,(0x5F),+,NAK,,,
1.983762,I2C,Setup,Write,to,['208',(0xD0)],+,ACK
1.9839785,I2C,C,(0x43),+,ACK,,,
1.98423075,I2C,Setup,Read,to,['209',(0xD1)],+,ACK
1.984447,I2C,'255',(0xFF),+,ACK,,,
1.98466325,I2C,'130',(0x82),+,ACK,,,
1.9848795,I2C,'255',(0xFF),+,ACK,,,
1.98509575,I2C,\t,(0x09),+,ACK,,,
1.985312,I2C,'255',(0xFF),+,ACK,,,
1.9855285,I2C,i,(0x69),+,NAK,,,
1.985907,I2C,Setup,Write,to,['208',(0xD0)],+,ACK
1.98612325,I2C,C,(0x43),+,ACK,,,
1.9863755,I2C,Setup,Read,to,['209',(0xD1)],+,ACK
1.98659175,I2C,'255',(0xFF),+,ACK,,,
1.986808,I2C,s,(0x73),+,ACK,,,
1.98702425,I2C,'254',(0xFE),+,ACK,,,
1.98724075,I2C,'238',(0xEE),+,ACK,,,
1.987457,I2C,'255',(0xFF),+,ACK,,,
1.98767325,I2C,`,(0x60),+,NAK,,,
1.98805175,I2C,Setup,Write,to,['208',(0xD0)],+,ACK
1.988268,I2C,C,(0x43),+,ACK,,,
1.98852025,I2C,Setup,Read,to,['209',(0xD1)],+,ACK
1.9887365,I2C,'255',(0xFF),+,ACK,,,
1.9889525,I2C,x,(0x78),+,ACK,,,
1.989169,I2C,'254',(0xFE),+,ACK,,,
1.98938525,I2C,'244',(0xF4),+,ACK,,,
1.98960125,I2C,'255',(0xFF),+,ACK,,,
1.9898175,I2C,u,(0x75),+,NAK,,,
1.990196,I2C,Setup,Write,to,['208',(0xD0)],+,ACK
1.99041225,I2C,C,(0x43),+,ACK,,,
1.9906645,I2C,Setup,Read,to,['209',(0xD1)],+,ACK
1.99088075,I2C,'255',(0xFF),+,ACK,,,
1.991097,I2C,e,(0x65),+,ACK,,,
1.9913135,I2C,'254',(0xFE),+,ACK,,,
1.9915295,I2C,'218',(0xDA),+,ACK,,,
1.99174575,I2C,'255',(0xFF),+,ACK,,,
1.991962,I2C,q,(0x71),+,NAK,,,
1.9923405,I2C,Setup,Write,to,['208',(0xD0)],+,ACK
1.99255675,I2C,C,(0x43),+,ACK,,,
1.992809,I2C,Setup,Read,to,['209',(0xD1)],+,ACK
1.99302525,I2C,'255',(0xFF),+,ACK,,,
1.9932415,I2C,q,(0x71),+,ACK,,,
1.99345775,I2C,'254',(0xFE),+,ACK,,,
1.993674,I2C,'234',(0xEA),+,ACK,,,
1.99389025,I2C,'255',(0xFF),+,ACK,,,
1.9941065,I2C,d,(0x64),+,NAK,,,
1.994485,I2C,Setup,Write,to,['208',(0xD0)],+,ACK
1.99470125,I2C,C,(0x43),+,ACK,,,
1.9949535,I2C,Setup,Read,to,['209',(0xD1)],+,ACK
1.99516975,I2C,'255',(0xFF),+,ACK,,,
1.995386,I2C,i,(0x69),+,ACK,,,
1.99560225,I2C,'254',(0xFE),+,ACK,,,
1.9958185,I2C,'224',(0xE0),+,ACK,,,
1.99603475,I2C,'255',(0xFF),+,ACK,,,
1.996251,I2C,q,(0x71),+,NAK,,,
1.9966295,I2C,Setup,Write,to,['208',(0xD0)],+,ACK
1.99684575,I2C,C,(0x43),+,ACK,,,
1.997098,I2C,Setup,Read,to,['209',(0xD1)],+,ACK
1.99731425,I2C,'255',(0xFF),+,ACK,,,
1.99753075,I2C,'128',(0x80),+,ACK,,,
1.99774675,I2C,'254',(0xFE),+,ACK,,,
1.997963,I2C,'225',(0xE1),+,ACK,,,
1.99817925,I2C,'255',(0xFF),+,ACK,,,
1.99839575,I2C,`,(0x60),+,NAK,,,
1.99877425,I2C,Setup,Write,to,['208',(0xD0)],+,ACK
1.9989905,I2C,C,(0x43),+,ACK,,,
1.999243,I2C,Setup,Read,to,['209',(0xD1)],+,ACK
1.99945925,I2C,'255',(0xFF),+,ACK,,,
1.9996755,I2C,y,(0x79),+,ACK,,,
1.99989175,I2C,'254',(0xFE),+,ACK,,,
2.000108,I2C,'226',(0xE2),+,ACK,,,
2.00032425,I2C,'255',(0xFF),+,ACK,,,
2.0005405,I2C,h,(0x68),+,NAK,,,
2.00091925,I2C,Setup,Write,to,['208',(0xD0)],+,ACK
2.0011355,I2C,C,(0x43),+,ACK,,,
2.00138775,I2C,Setup,Read,to,['209',(0xD1)],+,ACK
2.001604,I2C,'255',(0xFF),+,ACK,,,
2.00182025,I2C,p,(0x70),+,ACK,,,
2.0020365,I2C,'254',(0xFE),+,ACK,,,
2.00225275,I2C,'226',(0xE2),+,ACK,,,
2.002469,I2C,'255',(0xFF),+,ACK,,,
2.00268525,I2C,f,(0x66),+,NAK,,,
2.00306375,I2C,Setup,Write,to,['208',(0xD0)],+,ACK
2.00328,I2C,C,(0x43),+,ACK,,,
2.00353225,I2C,Setup,Read,to,['209',(0xD1)],+,ACK
2.0037485,I2C,'255',(0xFF),+,ACK,,,
2.00396475,I2C,~,(0x7E),+,ACK,,,
2.004181,I2C,'254',(0xFE),+,ACK,,,
2.00439725,I2C,'236',(0xEC),+,ACK,,,
2.0046135,I2C,'255',(0xFF),+,ACK,,,
2.00482975,I2C,u,(0x75),+,NAK,,,
2.00520825,I2C,Setup,Write,to,['208',(0xD0)],+,ACK
2.0054245,I2C,C,(0x43),+,ACK,,,
2.00567675,I2C,Setup,Read,to,['209',(0xD1)],+,ACK
2.005893,I2C,'255',(0xFF),+,ACK,,,
2.00610925,I2C,t,(0x74),+,ACK,,,
2.0063255,I2C,'254',(0xFE),+,ACK,,,
2.00654175,I2C,'228',(0xE4),+,ACK,,,
2.006758,I2C,'255',(0xFF),+,ACK,,,
2.00697425,I2C,e,(0x65),+,NAK,,,
2.0073525,I2C,Setup,Write,to,['208',(0xD0)],+,ACK
2.00756875,I2C,C,(0x43),+,ACK,,,
2.007821,I2C,Setup,Read,to,['209',(0xD1)],+,ACK
2.00803725,I2C,'255',(0xFF),+,ACK,,,
2.0082535,I2C,v,(0x76),+,ACK,,,
2.00846975,I2C,'254',(0xFE),+,ACK,,,
2.008686,I2C,'231',(0xE7),+,ACK,,,
2.00890225,I2C,'255',(0xFF),+,ACK,,,
2.0091185,I2C,],(0x5D),+,NAK,,,
2.009497,I2C,Setup,Write,to,['208',(0xD0)],+,ACK
2.00971325,I2C,C,(0x43),+,ACK,,,
2.0099655,I2C,Setup,Read,to,['209',(0xD1)],+,ACK
2.01018175,I2C,'255',(0xFF),+,ACK,,,
2.010398,I2C,'133',(0x85),+,ACK,,,
2.0106145,I2C,'254',(0xFE),+,ACK,,,
2.01083075,I2C,'226',(0xE2),+,ACK,,,
2.011047,I2C,'255',(0xFF),+,ACK,,,
2.01126325,I2C,l,(0x6C),+,NAK,,,
2.0116415,I2C,Setup,Write,to,['208',(0xD0)],+,ACK
2.01185775,I2C,C,(0x43),+,ACK,,,
2.01211025,I2C,Setup,Read,to,['209',(0xD1)],+,ACK
2.0123265,I2C,'255',(0xFF),+,ACK,,,
2.01254275,I2C,'134',(0x86),+,ACK,,,
2.01275875,I2C,'254',(0xFE),+,ACK,,,
2.01297525,I2C,'209',(0xD1),+,ACK,,,
2.0131915,I2C,'255',(0xFF),+,ACK,,,
2.01340775,I2C,e,(0x65),+,NAK,,,
2.01378625,I2C,Setup,Write,to,['208',(0xD0)],+,ACK
2.0140025,I2C,C,(0x43),+,ACK,,,
2.01425475,I2C,Setup,Read,to,['209',(0xD1)],+,ACK
2.014471,I2C,'255',(0xFF),+,ACK,,,
2.01468725,I2C,'133',(0x85),+,ACK,,,
2.0149035,I2C,'254',(0xFE),+,ACK,,,
2.01511975,I2C,'225',(0xE1),+,ACK,,,
2.015336,I2C,'255',(0xFF),+,ACK,,,
2.01555225,I2C,h,(0x68),+,NAK,,,
2.01593075,I2C,Setup,Write,to,['208',(0xD0)],+,ACK
2.016147,I2C,C,(0x43),+,ACK,,,
2.01639925,I2C,Setup,Read,to,['209',(0xD1)],+,ACK
2.0166155,I2C,'255',(0xFF),+,ACK,,,
2.01683175,I2C,'127',(0x7F),+,ACK,,,
2.017048,I2C,'255',(0xFF),+,ACK,,,
2.01726425,I2C,'14',(0x0E),+,ACK,,,
2.0174805,I2C,'255',(0xFF),+,ACK,,,
2.01769675,I2C,Y,(0x59),+,NAK,,,
2.01807525,I2C,Setup,Write,to,['208',(0xD0)],+,ACK
2.0182915,I2C,C,(0x43),+,ACK,,,
2.01854375,I2C,Setup,Read,to,['209',(0xD1)],+,ACK
2.01876,I2C,'255',(0xFF),+,ACK,,,
2.01897625,I2C,V,(0x56),+,ACK,,,
2.01919275,I2C,'254',(0xFE),+,ACK,,,
2.019409,I2C,'239',(0xEF),+,ACK,,,
2.01962525,I2C,'255',(0xFF),+,ACK,,,
2.0198415,I2C,x,(0x78),+,NAK,,,
2.02022,I2C,Setup,Write,to,['208',(0xD0)],+,ACK
2.02043625,I2C,C,(0x43),+,ACK,,,
2.0206885,I2C,Setup,Read,to,['209',(0xD1)],+,ACK
2.02090475,I2C,'255',(0xFF),+,ACK,,,
2.021121,I2C,'139',(0x8B),+,ACK,,,
2.0213375,I2C,'254',(0xFE),+,ACK,,,
2.02155375,I2C,'236',(0xEC),+,ACK,,,
2.02177,I2C,'255',(0xFF),+,ACK,,,
2.021986,I2C,f,(0x66),+,NAK,,,
2.02236475,I2C,Setup,Write,to,['208',(0xD0)],+,ACK
2.022581,I2C,C,(0x43),+,ACK,,,
2.02283325,I2C,Setup,Read,to,['209',(0xD1)],+,ACK
2.0230495,I2C,'255',(0xFF),+,ACK,,,
2.02326575,I2C,x,(0x78),+,ACK,,,
2.02348225,I2C,'254',(0xFE),+,ACK,,,
2.0236985,I2C,'220',(0xDC),+,ACK,,,
2.0239145,I2C,'255',(0xFF),+,ACK,,,
2.02413075,I2C,j,(0x6A),+,NAK,,,
2.0245095,I2C,Setup,Write,to,['208',(0xD0)],+,ACK
2.02472575,I2C,C,(0x43),+,ACK,,,
2.024978,I2C,Setup,Read,to,['209',(0xD1)],+,ACK
2.02519425,I2C,'255',(0xFF),+,ACK,,,
2.02541075,I2C,j,(0x6A),+,ACK,,,
2.025627,I2C,'254',(0xFE),+,ACK,,,
2.02584325,I2C,'241',(0xF1),+,ACK,,,
2.0260595,I2C,'255',(0xFF),+,ACK,,,
2.02627575,I2C,^,(0x5E),+,NAK,,,
2.02665425,I2C,Setup,Write,to,['208',(0xD0)],+,ACK
2.0268705,I2C,C,(0x43),+,ACK,,,
2.02712275,I2C,Setup,Read,to,['209',(0xD1)],+,ACK
2.027339,I2C,'255',(0xFF),+,ACK,,,
2.02755525,I2C,~,(0x7E),+,ACK,,,
2.0277715,I2C,'254',(0xFE),+,ACK,,,
2.02798775,I2C,'228',(0xE4),+,ACK,,,
2.028204,I2C,'255',(0xFF),+,ACK,,,
2.02842025,I2C,d,(0x64),+,NAK,,,
2.0287985,I2C,Setup,Write,to,['208',(0xD0)],+,ACK
2.02901475,I2C,C,(0x43),+,ACK,,,
2.029267,I2C,Setup,Read,to,['209',(0xD1)],+,ACK
2.02948325,I2C,'255',(0xFF),+,ACK,,,
2.0296995,I2C,'127',(0x7F),+,ACK,,,
2.0299155,I2C,'254',(0xFE),+,ACK,,,
2.03013175,I2C,'242',(0xF2),+,ACK,,,
2.030348,I2C,'255',(0xFF),+,ACK,,,
2.03056425,I2C,i,(0x69),+,NAK,,,
2.03094275,I2C,Setup,Write,to,['208',(0xD0)],+,ACK
2.031159,I2C,C,(0x43),+,ACK,,,
2.03141125,I2C,Setup,Read,to,['209',(0xD1)],+,ACK
2.0316275,I2C,'255',(0xFF),+,ACK,,,
2.03184375,I2C,X,(0x58),+,ACK,,,
2.03206,I2C,'254',(0xFE),+,ACK,,,
2.0322765,I2C,'205',(0xCD),+,ACK,,,
2.0324925,I2C,'255',(0xFF),+,ACK,,,
2.032709,I2C,M,(0x4D),+,NAK,,,
2.03308725,I2C,Setup,Write,to,['208',(0xD0)],+,ACK
2.0333035,I2C,C,(0x43),+,ACK,,,
2.03355575,I2C,Setup,Read,to,['209',(0xD1)],+,ACK
2.033772,I2C,'255',(0xFF),+,ACK,,,
2.03398825,I2C,~,(0x7E),+,ACK,,,
2.0342045,I2C,'254',(0xFE),+,ACK,,,
2.03442075,I2C,'213',(0xD5),+,ACK,,,
2.034637,I2C,'255',(0xFF),+,ACK,,,
2.0348535,I2C,d,(0x64),+,NAK,,,
2.03523175,I2C,Setup,Write,to,['208',(0xD0)],+,ACK
2.035448,I2C,C,(0x43),+,ACK,,,
2.0357005,I2C,Setup,Read,to,['209',(0xD1)],+,ACK
2.03591675,I2C,'255',(0xFF),+,ACK,,,
2.036133,I2C,t,(0x74),+,ACK,,,
2.036349,I2C,'254',(0xFE),+,ACK,,,
2.03656525,I2C,'231',(0xE7),+,ACK,,,
2.03678175,I2C,'255',(0xFF),+,ACK,,,
2.036998,I2C,[,(0x5B),+,NAK,,,
2.0373765,I2C,Setup,Write,to,['208',(0xD0)],+,ACK
2.0375925,I2C,C,(0x43),+,ACK,,,
2.037845,I2C,Setup,Read,to,['209',(0xD1)],+,ACK
2.03806125,I2C,'255',(0xFF),+,ACK,,,
2.0382775,I2C,o,(0x6F),+,ACK,,,
2.03849375,I2C,'254',(0xFE),+,ACK,,,
2.03871,I2C,'236',(0xEC),+,ACK,,,
2.03892625,I2C,'255',(0xFF),+,ACK,,,
2.0391425,I2C,`,(0x60),+,NAK,,,
2.039521,I2C,Setup,Write,to,['208',(0xD0)],+,ACK
2.03973725,I2C,C,(0x43),+,ACK,,,
2.0399895,I2C,Setup,Read,to,['209',(0xD1)],+,ACK
2.04020575,I2C,'255',(0xFF),+,ACK,,,
2.040422,I2C,g,(0x67),+,ACK,,,
2.04063825,I2C,'255',(0xFF),+,ACK,,,
2.0408545,I2C,\n,(0x0A),+,ACK,,,
2.04107075,I2C,'255',(0xFF),+,ACK,,,
2.041287,I2C,],(0x5D),+,NAK,,,
2.0416655,I2C,Setup,Write,to,['208',(0xD0)],+,ACK
2.04188175,I2C,C,(0x43),+,ACK,,,
2.042134,I2C,Setup,Read,to,['209',(0xD1)],+,ACK
2.04235025,I2C,'255',(0xFF),+,ACK,,,
2.04256675,I2C,'147',(0x93),+,ACK,,,
2.042783,I2C,'254',(0xFE),+,ACK,,,
2.04299925,I2C,'233',(0xE9),+,ACK,,,
2.0432155,I2C,'255',(0xFF),+,ACK,,,
2.04343175,I2C,a,(0x61),+,NAK,,,
2.04381025,I2C,Setup,Write,to,['208',(0xD0)],+,ACK
2.0440265,I2C,C,(0x43),+,ACK,,,
2.04427875,I2C,Setup,Read,to,['209',(0xD1)],+,ACK
2.044495,I2C,'255',(0xFF),+,ACK,,,
2.04471125,I2C,'141',(0x8D),+,ACK,,,
2.0449275,I2C,'254',(0xFE),+,ACK,,,
2.04514375,I2C,'242',(0xF2),+,ACK,,,
2.04536,I2C,'255',(0xFF),+,ACK,,,
2.04557625,I2C,L,(0x4C),+,NAK,,,
2.04595475,I2C,Setup,Write,to,['208',(0xD0)],+,ACK
2.04617075,I2C,C,(0x43),+,ACK,,,
2.04642325,I2C,Setup,Read,to,['209',(0xD1)],+,ACK
2.0466395,I2C,'255',(0xFF),+,ACK,,,
2.04685575,I2C,l,(0x6C),+,ACK,,,
2.04707175,I2C,'254',(0xFE),+,ACK,,,
2.04728825,I2C,'208',(0xD0),+,ACK,,,
2.0475045,I2C,'255',(0xFF),+,ACK,,,
2.04772075,I2C,_,(0x5F),+,NAK,,,
2.048099,I2C,Setup,Write,to,['208',(0xD0)],+,ACK
2.04831525,I2C,C,(0x43),+,ACK,,,
2.0485675,I2C,Setup,Read,to,['209',(0xD1)],+,ACK
2.04878375,I2C,'255',(0xFF),+,ACK,,,
2.049,I2C,_,(0x5F),+,ACK,,,
2.04921625,I2C,'254',(0xFE),+,ACK,,,
2.0494325,I2C,'224',(0xE0),+,ACK,,,
2.04964875,I2C,'255',(0xFF),+,ACK,,,
2.049865,I2C,x,(0x78),+,NAK,,,
2.0502435,I2C,Setup,Write,to,['208',(0xD0)],+,ACK
2.05046,I2C,C,(0x43),+,ACK,,,
2.05071225,I2C,Setup,Read,to,['209',(0xD1)],+,ACK
2.0509285,I2C,'255',(0xFF),+,ACK,,,
2.05114475,I2C,q,(0x71),+,ACK,,,
2.051361,I2C,'254',(0xFE),+,ACK,,,
2.05157725,I2C,'225',(0xE1),+,ACK,,,
2.0517935,I2C,'255',(0xFF),+,ACK,,,
2.05200975,I2C,B,(0x42),+,NAK,,,
2.05238825,I2C,Setup,Write,to,['208',(0xD0)],+,ACK
2.0526045,I2C,C,(0x43),+,ACK,,,
2.052857,I2C,Setup,Read,to,['209',(0xD1)],+,ACK
2.053073,I2C,'255',(0xFF),+,ACK,,,
2.05328925,I2C,],(0x5D),+,ACK,,,
2.05350575,I2C,'254',(0xFE),+,ACK,,,
2.053722,I2C,'239',(0xEF),+,ACK,,,
2.053938,I2C,'255',(0xFF),+,ACK,,,
2.05415425,I2C,P,(0x50),+,NAK,,,
2.05453275,I2C,Setup,Write,to,['208',(0xD0)],+,ACK
2.054749,I2C,C,(0x43),+,ACK,,,
2.05500125,I2C,Setup,Read,to,['209',(0xD1)],+,ACK
2.0552175,I2C,'255',(0xFF),+,ACK,,,
2.05543375,I2C,t,(0x74),+,ACK,,,
2.05565,I2C,'254',(0xFE),+,ACK,,,
2.05586625,I2C,'239',(0xEF),+,ACK,,,
2.0560825,I2C,'255',(0xFF),+,ACK,,,
2.05629875,I2C,_,(0x5F),+,NAK,,,
2.05667725,I2C,Setup,Write,to,['208',(0xD0)],+,ACK
2.0568935,I2C,C,(0x43),+,ACK,,,
2.05714575,I2C,Setup,Read,to,['209',(0xD1)],+,ACK
2.057362,I2C,'255',(0xFF),+,ACK,,,
2.05757825,I2C,~,(0x7E),+,ACK,,,
2.0577945,I2C,'254',(0xFE),+,ACK,,,
2.05801075,I2C,'245',(0xF5),+,ACK,,,
2.058227,I2C,'255',(0xFF),+,ACK,,,
2.05844325,I2C,D,(0x44),+,NAK,,,
2.05882175,I2C,Setup,Write,to,['208',(0xD0)],+,ACK
2.059038,I2C,C,(0x43),+,ACK,,,
2.05929025,I2C,Setup,Read,to,['209',(0xD1)],+,ACK
2.0595065,I2C,'255',(0xFF),+,ACK,,,
2.05972275,I2C,'132',(0x84),+,ACK,,,
2.059939,I2C,'254',(0xFE),+,ACK,,,
2.06015525,I2C,'207',(0xCF),+,ACK,,,
2.0603715,I2C,'255',(0xFF),+,ACK,,,
2.06058775,I2C,c,(0x63),+,NAK,,,
2.06096625,I2C,Setup,Write,to,['208',(0xD0)],+,ACK
2.06118225,I2C,C,(0x43),+,ACK,,,
2.06143475,I2C,Setup,Read,to,['209',(0xD1)],+,ACK
2.061651,I2C,'255',(0xFF),+,ACK,,,
2.06186725,I2C,s,(0x73),+,ACK,,,
2.0620835,I2C,'255',(0xFF),+,ACK,,,
2.06229975,I2C,'3',(0x03),+,ACK,,,
2.06251575,I2C,'255',(0xFF),+,ACK,,,
2.062732,I2C,],(0x5D),+,NAK,,,
2.0631105,I2C,Setup,Write,to,['208',(0xD0)],+,ACK
2.06332675,I2C,C,(0x43),+,ACK,,,
2.063579,I2C,Setup,Read,to,['209',(0xD1)],+,ACK
2.06379525,I2C,'255',(0xFF),+,ACK,,,
2.0640115,I2C,x,(0x78),+,ACK,,,
2.06422775,I2C,'254',(0xFE),+,ACK,,,
2.064444,I2C,'241',(0xF1),+,ACK,,,
2.06466025,I2C,'255',(0xFF),+,ACK,,,
2.0648765,I2C,a,(0x61),+,NAK,,,
2.065255,I2C,Setup,Write,to,['208',(0xD0)],+,ACK
2.06547125,I2C,C,(0x43),+,ACK,,,
2.0657235,I2C,Setup,Read,to,['209',(0xD1)],+,ACK
2.06593975,I2C,'255',(0xFF),+,ACK,,,
2.066156,I2C,r,(0x72),+,ACK,,,
2.06637225,I2C,'254',(0xFE),+,ACK,,,
2.0665885,I2C,'227',(0xE3),+,ACK,,,
2.06680475,I2C,'255',(0xFF),+,ACK,,,
2.067021,I2C,U,(0x55),+,NAK,,,
2.0673995,I2C,Setup,Write,to,['208',(0xD0)],+,ACK
2.06761575,I2C,C,(0x43),+,ACK,,,
2.067868,I2C,Setup,Read,to,['209',(0xD1)],+,ACK
2.06808425,I2C,'255',(0xFF),+,ACK,,,
2.06830075,I2C,'129',(0x81),+,ACK,,,
2.068517,I2C,'254',(0xFE),+,ACK,,,
2.06873325,I2C,'204',(0xCC),+,ACK,,,
2.0689495,I2C,'255',(0xFF),+,ACK,,,
2.06916575,I2C,n,(0x6E),+,NAK,,,
2.06954425,I2C,Setup,Write,to,['208',(0xD0)],+,ACK
2.0697605,I2C,C,(0x43),+,ACK,,,
2.07001275,I2C,Setup,Read,to,['209',(0xD1)],+,ACK
2.070229,I2C,'255',(0xFF),+,ACK,,,
2.07044525,I2C,a,(0x61),+,ACK,,,
2.0706615,I2C,'254',(0xFE),+,ACK,,,
2.07087775,I2C,'231',(0xE7),+,ACK,,,
2.071094,I2C,'255',(0xFF),+,ACK,,,
2.07131025,I2C,\,(0x5C),+,NAK,,,
2.07168875,I2C,Setup,Write,to,['208',(0xD0)],+,ACK
2.071905,I2C,C,(0x43),+,ACK,,,
2.07215725,I2C,Setup,Read,to,['209',(0xD1)],+,ACK
2.07237375,I2C,'255',(0xFF),+,ACK,,,
2.07259,I2C,m,(0x6D),+,ACK,,,
2.07280625,I2C,'254',(0xFE),+,ACK,,,
2.0730225,I2C,'244',(0xF4),+,ACK,,,
2.07323875,I2C,'255',(0xFF),+,ACK,,,
2.073455,I2C,l,(0x6C),+,NAK,,,
2.0738335,I2C,Setup,Write,to,['208',(0xD0)],+,ACK
2.07404975,I2C,C,(0x43),+,ACK,,,
2.074302,I2C,Setup,Read,to,['209',(0xD1)],+,ACK
2.0745185,I2C,'255',(0xFF),+,ACK,,,
2.07473475,I2C,r,(0x72),+,ACK,,,
2.074951,I2C,'254',(0xFE),+,ACK,,,
2.0751675,I2C,'242',(0xF2),+,ACK,,,
2.07538375,I2C,'255',(0xFF),+,ACK,,,
2.0756,I2C,a,(0x61),+,NAK,,,
2.0759785,I2C,Setup,Write,to,['208',(0xD0)],+,ACK
2.07619475,I2C,C,(0x43),+,ACK,,,
2.07644725,I2C,Setup,Read,to,['209',(0xD1)],+,ACK
2.0766635,I2C,'255',(0xFF),+,ACK,,,
2.07688,I2C,'130',(0x82),+,ACK,,,
2.07709625,I2C,'254',(0xFE),+,ACK,,,
2.0773125,I2C,'239',(0xEF),+,ACK,,,
2.07752875,I2C,'255',(0xFF),+,ACK,,,
2.077745,I2C,a,(0x61),+,NAK,,,
2.0781235,I2C,Setup,Write,to,['208',(0xD0)],+,ACK
2.07833975,I2C,C,(0x43),+,ACK,,,
2.078592,I2C,Setup,Read,to,['209',(0xD1)],+,ACK
2.07880825,I2C,'255',(0xFF),+,ACK,,,
2.0790245,I2C,z,(0x7A),+,ACK,,,
2.07924075,I2C,'254',(0xFE),+,ACK,,,
2.079457,I2C,'202',(0xCA),+,ACK,,,
2.07967325,I2C,'255',(0xFF),+,ACK,,,
2.0798895,I2C,_,(0x5F),+,NAK,,,
2.080268,I2C,Setup,Write,to,['208',(0xD0)],+,ACK
2.0804845,I2C,C,(0x43),+,ACK,,,
2.08073675,I2C,Setup,Read,to,['209',(0xD1)],+,ACK
2.080953,I2C,'255',(0xFF),+,ACK,,,
2.08116925,I2C,'135',(0x87),+,ACK,,,
2.0813855,I2C,'254',(0xFE),+,ACK,,,
2.081602,I2C,'213',(0xD5),+,ACK,,,
2.08181825,I2C,'255',(0xFF),+,ACK,,,
2.0820345,I2C,s,(0x73),+,NAK,,,
2.08241275,I2C,Setup,Write,to,['208',(0xD0)],+,ACK
2.08262925,I2C,C,(0x43),+,ACK,,,
2.0828815,I2C,Setup,Read,to,['209',(0xD1)],+,ACK
2.0830975,I2C,'255',(0xFF),+,ACK,,,
2.08331375,I2C,y,(0x79),+,ACK,,,
2.08353,I2C,'254',(0xFE),+,ACK,,,
2.0837465,I2C,'217',(0xD9),+,ACK,,,
2.0839625,I2C,'255',(0xFF),+,ACK,,,
2.08417875,I2C,j,(0x6A),+,NAK,,,
2.084557,I2C,Setup,Write,to,['208',(0xD0)],+,ACK
2.08477325,I2C,C,(0x43),+,ACK,,,
2.0850255,I2C,Setup,Read,to,['209',(0xD1)],+,ACK
2.08524175,I2C,'255',(0xFF),+,ACK,,,
2.08545775,I2C,h,(0x68),+,ACK,,,
2.085674,I2C,'254',(0xFE),+,ACK,,,
2.08589025,I2C,'228',(0xE4),+,ACK,,,
2.0861065,I2C,'255',(0xFF),+,ACK,,,
2.08632275,I2C,o,(0x6F),+,NAK,,,
2.08670125,I2C,Setup,Write,to,['208',(0xD0)],+,ACK
2.0869175,I2C,C,(0x43),+,ACK,,,
2.08717,I2C,Setup,Read,to,['209',(0xD1)],+,ACK
2.08738625,I2C,'255',(0xFF),+,ACK,,,
2.0876025,I2C,},(0x7D),+,ACK,,,
2.08781875,I2C,'254',(0xFE),+,ACK,,,
2.088035,I2C,'231',(0xE7),+,ACK,,,
2.088251,I2C,'255',(0xFF),+,ACK,,,
2.08846725,I2C,U,(0x55),+,NAK,,,
2.08884575,I2C,Setup,Write,to,['208',(0xD0)],+,ACK
2.089062,I2C,C,(0x43),+,ACK,,,
2.08931425,I2C,Setup,Read,to,['209',(0xD1)],+,ACK
2.0895305,I2C,'255',(0xFF),+,ACK,,,
2.08974675,I2C,~,(0x7E),+,ACK,,,
2.089963,I2C,'254',(0xFE),+,ACK,,,
2.09017925,I2C,'245',(0xF5),+,ACK,,,
2.09039525,I2C,'255',(0xFF),+,ACK,,,
2.0906115,I2C,d,(0x64),+,NAK,,,
2.09099,I2C,Setup,Write,to,['208',(0xD0)],+,ACK
2.09120625,I2C,C,(0x43),+,ACK,,,
2.0914585,I2C,Setup,Read,to,['209',(0xD1)],+,ACK
2.09167475,I2C,'255',(0xFF),+,ACK,,,
2.091891,I2C,e,(0x65),+,ACK,,,
2.09210725,I2C,'254',(0xFE),+,ACK,,,
2.0923235,I2C,'222',(0xDE),+,ACK,,,
2.09253975,I2C,'255',(0xFF),+,ACK,,,
2.092756,I2C,`,(0x60),+,NAK,,,
2.0931345,I2C,Setup,Write,to,['208',(0xD0)],+,ACK
2.09335075,I2C,C,(0x43),+,ACK,,,
2.09360325,I2C,Setup,Read,to,['209',(0xD1)],+,ACK
2.09381925,I2C,'255',(0xFF),+,ACK,,,
2.0940355,I2C,~,(0x7E),+,ACK,,,
2.094252,I2C,'254',(0xFE),+,ACK,,,
2.09446825,I2C,'250',(0xFA),+,ACK,,,
2.0946845,I2C,'255',(0xFF),+,ACK,,,
2.09490075,I2C,Z,(0x5A),+,NAK,,,
2.09527925,I2C,Setup,Write,to,['208',(0xD0)],+,ACK
2.0954955,I2C,C,(0x43),+,ACK,,,
2.09574775,I2C,Setup,Read,to,['209',(0xD1)],+,ACK
2.095964,I2C,'255',(0xFF),+,ACK,,,
2.09618025,I2C,t,(0x74),+,ACK,,,
2.0963965,I2C,'254',(0xFE),+,ACK,,,
2.09661275,I2C,'236',(0xEC),+,ACK,,,
2.096829,I2C,'255',(0xFF),+,ACK,,,
2.09704525,I2C,k,(0x6B),+,NAK,,,
2.09742375,I2C,Setup,Write,to,['208',(0xD0)],+,ACK
2.09764,I2C,C,(0x43),+,ACK,,,
2.09789225,I2C,Setup,Read,to,['209',(0xD1)],+,ACK
2.0981085,I2C,'255',(0xFF),+,ACK,,,
2.09832475,I2C,m,(0x6D),+,ACK,,,
2.098541,I2C,'254',(0xFE),+,ACK,,,
2.09875725,I2C,'227',(0xE3),+,ACK,,,
2.0989735,I2C,'255',(0xFF),+,ACK,,,
2.09918975,I2C,[,(0x5B),+,NAK,,,
2.09956825,I2C,Setup,Write,to,['208',(0xD0)],+,ACK
2.09978425,I2C,C,(0x43),+,ACK,,,
2.1000365,I2C,Setup,Read,to,['209',(0xD1)],+,ACK
2.10025275,I2C,'255',(0xFF),+,ACK,,,
2.10046925,I2C,'137',(0x89),+,ACK,,,
2.1006855,I2C,'254',(0xFE),+,ACK,,,
2.1009015,I2C,'183',(0xB7),+,ACK,,,
2.10111775,I2C,'255',(0xFF),+,ACK,,,
2.101334,I2C,],(0x5D),+,NAK,,,
2.1017125,I2C,Setup,Write,to,['208',(0xD0)],+,ACK
2.10192875,I2C,C,(0x43),+,ACK,,,
2.102181,I2C,Setup,Read,to,['209',(0xD1)],+,ACK
2.10239725,I2C,'255',(0xFF),+,ACK,,,
2.1026135,I2C,r,(0x72),+,ACK,,,
2.10282975,I2C,'254',(0xFE),+,ACK,,,
2.10304575,I2C,'237',(0xED),+,ACK,,,
2.103262,I2C,'255',(0xFF),+,ACK,,,
2.10347825,I2C,Y,(0x59),+,NAK,,,
2.10385675,I2C,Setup,Write,to,['208',(0xD0)],+,ACK
2.104073,I2C,C,(0x43),+,ACK,,,
2.10432525,I2C,Setup,Read,to,['209',(0xD1)],+,ACK
2.1045415,I2C,'255',(0xFF),+,ACK,,,
2.10475775,I2C,`,(0x60),+,ACK,,,
2.10497375,I2C,'254',(0xFE),+,ACK,,,
2.10519,I2C,'241',(0xF1),+,ACK,,,
2.10540625,I2C,'255',(0xFF),+,ACK,,,
2.1056225,I2C,O,(0x4F),+,NAK,,,
2.106001,I2C,Setup,Write,to,['208',(0xD0)],+,ACK
2.106217,I2C,C,(0x43),+,ACK,,,
2.10646925,I2C,Setup,Read,to,['209',(0xD1)],+,ACK
2.1066855,I2C,'255',(0xFF),+,ACK,,,
2.10690175,I2C,l,(0x6C),+,ACK,,,
2.107118,I2C,'254',(0xFE),+,ACK,,,
2.107334,I2C,'239',(0xEF),+,ACK,,,
2.1075505,I2C,'255',(0xFF),+,ACK,,,
2.10776675,I2C,X,(0x58),+,NAK,,,
2.108145,I2C,Setup,Write,to,['208',(0xD0)],+,ACK
2.10836125,I2C,C,(0x43),+,ACK,,,
2.10861375,I2C,Setup,Read,to,['209',(0xD1)],+,ACK
2.10883,I2C,'255',(0xFF),+,ACK,,,
2.10904625,I2C,n,(0x6E),+,ACK,,,
2.1092625,I2C,'254',(0xFE),+,ACK,,,
2.10947875,I2C,'249',(0xF9),+,ACK,,,
2.109695,I2C,'255',(0xFF),+,ACK,,,
2.10991125,I2C,_,(0x5F),+,NAK,,,
2.1102895,I2C,Setup,Write,to,['208',(0xD0)],+,ACK
2.11050575,I2C,C,(0x43),+,ACK,,,
2.110758,I2C,Setup,Read,to,['209',(0xD1)],+,ACK
2.1109745,I2C,'255',(0xFF),+,ACK,,,
2.1111905,I2C,h,(0x68),+,ACK,,,
2.11140675,I2C,'254',(0xFE),+,ACK,,,
2.111623,I2C,'243',(0xF3),+,ACK,,,
2.11183925,I2C,'255',(0xFF),+,ACK,,,
2.1120555,I2C,b,(0x62),+,NAK,,,
2.112434,I2C,Setup,Write,to,['208',(0xD0)],+,ACK
2.11265025,I2C,C,(0x43),+,ACK,,,
2.1129025,I2C,Setup,Read,to,['209',(0xD1)],+,ACK
2.11311875,I2C,'255',(0xFF),+,ACK,,,
2.113335,I2C,z,(0x7A),+,ACK,,,
2.113551,I2C,'254',(0xFE),+,ACK,,,
2.11376725,I2C,'237',(0xED),+,ACK,,,
2.1139835,I2C,'255',(0xFF),+,ACK,,,
2.11419975,I2C,[,(0x5B),+,NAK,,,
2.114578,I2C,Setup,Write,to,['208',(0xD0)],+,ACK
2.11479425,I2C,C,(0x43),+,ACK,,,
2.1150465,I2C,Setup,Read,to,['209',(0xD1)],+,ACK
2.11526275,I2C,'255',(0xFF),+,ACK,,,
2.115479,I2C,|,(0x7C),+,ACK,,,
2.115695,I2C,'254',(0xFE),+,ACK,,,
2.1159115,I2C,'227',(0xE3),+,ACK,,,
2.1161275,I2C,'255',(0xFF),+,ACK,,,
2.11634375,I2C,j,(0x6A),+,NAK,,,
2.116722,I2C,Setup,Write,to,['208',(0xD0)],+,ACK
2.11693825,I2C,C,(0x43),+,ACK,,,
2.1171905,I2C,Setup,Read,to,['209',(0xD1)],+,ACK
2.11740675,I2C,'255',(0xFF),+,ACK,,,
2.117623,I2C,z,(0x7A),+,ACK,,,
2.11783925,I2C,'254',(0xFE),+,ACK,,,
2.11805575,I2C,'228',(0xE4),+,ACK,,,
2.11827175,I2C,'255',(0xFF),+,ACK,,,
2.118488,I2C,},(0x7D),+,NAK,,,
2.1188665,I2C,Setup,Write,to,['208',(0xD0)],+,ACK
2.11908275,I2C,C,(0x43),+,ACK,,,
2.119335,I2C,Setup,Read,to,['209',(0xD1)],+,ACK
2.11955125,I2C,'255',(0xFF),+,ACK,,,
2.1197675,I2C,d,(0x64),+,ACK,,,
2.11998375,I2C,'254',(0xFE),+,ACK,,,
2.1202,I2C,'245',(0xF5),+,ACK,,,
2.12041625,I2C,'255',(0xFF),+,ACK,,,
2.1206325,I2C,l,(0x6C),+,NAK,,,
2.121011,I2C,Setup,Write,to,['208',(0xD0)],+,ACK
2.12122725,I2C,C,(0x43),+,ACK,,,
2.1214795,I2C,Setup,Read,to,['209',(0xD1)],+,ACK
2.12169575,I2C,'255',(0xFF),+,ACK,,,
2.121912,I2C,t,(0x74),+,ACK,,,
2.12212825,I2C,'254',(0xFE),+,ACK,,,
2.1223445,I2C,'245',(0xF5),+,ACK,,,
2.12256075,I2C,'255',(0xFF),+,ACK,,,
2.122777,I2C,P,(0x50),+,NAK,,,
2.1231555,I2C,Setup,Write,to,['208',(0xD0)],+,ACK
2.12337175,I2C,C,(0x43),+,ACK,,,
2.123624,I2C,Setup,Read,to,['209',(0xD1)],+,ACK
2.12384,I2C,'255',(0xFF),+,ACK,,,
2.12405625,I2C,'139',(0x8B),+,ACK,,,
2.12427275,I2C,'254',(0xFE),+,ACK,,,
2.12448875,I2C,'219',(0xDB),+,ACK,,,
2.124705,I2C,'255',(0xFF),+,ACK,,,
2.12492125,I2C,f,(0x66),+,NAK,,,
2.1253,I2C,Setup,Write,to,['208',(0xD0)],+,ACK
2.12551625,I2C,C,(0x43),+,ACK,,,
2.1257685,I2C,Setup,Read,to,['209',(0xD1)],+,ACK
2.12598475,I2C,'255',(0xFF),+,ACK,,,
2.126201,I2C,],(0x5D),+,ACK,,,
2.12641725,I2C,'254',(0xFE),+,ACK,,,
2.1266335,I2C,'220',(0xDC),+,ACK,,,
2.12684975,I2C,'255',(0xFF),+,ACK,,,
2.12706575,I2C,t,(0x74),+,NAK,,,
2.1274445,I2C,Setup,Write,to,['208',(0xD0)],+,ACK
2.12766075,I2C,C,(0x43),+,ACK,,,
2.127913,I2C,Setup,Read,to,['209',(0xD1)],+,ACK
2.12812925,I2C,'255',(0xFF),+,ACK,,,
2.1283455,I2C,'140',(0x8C),+,ACK,,,
2.12856175,I2C,'255',(0xFF),+,ACK,,,
2.128778,I2C,'6',(0x06),+,ACK,,,
2.1289945,I2C,'255',(0xFF),+,ACK,,,
2.12921075,I2C,\,(0x5C),+,NAK,,,
2.12958925,I2C,Setup,Write,to,['208',(0xD0)],+,ACK
2.1298055,I2C,C,(0x43),+,ACK,,,
2.13005775,I2C,Setup,Read,to,['209',(0xD1)],+,ACK
2.130274,I2C,'255',(0xFF),+,ACK,,,
2.1304905,I2C,d,(0x64),+,ACK,,,
2.13070675,I2C,'254',(0xFE),+,ACK,,,
2.130923,I2C,'223',(0xDF),+,ACK,,,
2.13113925,I2C,'255',(0xFF),+,ACK,,,
2.1313555,I2C,Q,(0x51),+,NAK,,,
2.131734,I2C,Setup,Write,to,['208',(0xD0)],+,ACK
2.13195025,I2C,C,(0x43),+,ACK,,,
2.1322025,I2C,Setup,Read,to,['209',(0xD1)],+,ACK
2.13241875,I2C,'255',(0xFF),+,ACK,,,
2.132635,I2C,r,(0x72),+,ACK,,,
2.13285125,I2C,'254',(0xFE),+,ACK,,,
2.1330675,I2C,'199',(0xC7),+,ACK,,,
2.13328375,I2C,'255',(0xFF),+,ACK,,,
2.1335,I2C,t,(0x74),+,NAK,,,
2.13387825,I2C,Setup,Write,to,['208',(0xD0)],+,ACK
2.1340945,I2C,C,(0x43),+,ACK,,,
2.13434675,I2C,Setup,Read,to,['209',(0xD1)],+,ACK
2.134563,I2C,'255',(0xFF),+,ACK,,,
2.13477925,I2C,`,(0x60),+,ACK,,,
2.1349955,I2C,'254',(0xFE),+,ACK,,,
2.13521175,I2C,'216',(0xD8),+,ACK,,,
2.13542775,I2C,'255',(0xFF),+,ACK,,,
2.13564425,I2C,a,(0x61),+,NAK,,,
2.1360225,I2C,Setup,Write,to,['208',(0xD0)],+,ACK
2.13623875,I2C,C,(0x43),+,ACK,,,
2.136491,I2C,Setup,Read,to,['209',(0xD1)],+,ACK
2.13670725,I2C,'255',(0xFF),+,ACK,,,
2.1369235,I2C,'131',(0x83),+,ACK,,,
2.13713975,I2C,'254',(0xFE),+,ACK,,,
2.13735575,I2C,'220',(0xDC),+,ACK,,,
2.137572,I2C,'255',(0xFF),+,ACK,,,
2.13778825,I2C,o,(0x6F),+,NAK,,,
2.13816675,I2C,Setup,Write,to,['208',(0xD0)],+,ACK
2.138383,I2C,C,(0x43),+,ACK,,,
2.13863525,I2C,Setup,Read,to,['209',(0xD1)],+,ACK
2.1388515,I2C,'255',(0xFF),+,ACK,,,
2.13906775,I2C,y,(0x79),+,ACK,,,
2.13928375,I2C,'254',(0xFE),+,ACK,,,
2.1395,I2C,'210',(0xD2),+,ACK,,,
2.13971625,I2C,'255',(0xFF),+,ACK,,,
2.1399325,I2C,\,(0x5C),+,NAK,,,
2.140311,I2C,Setup,Write,to,['208',(0xD0)],+,ACK
2.14052725,I2C,C,(0x43),+,ACK,,,
2.14077975,I2C,Setup,Read,to,['209',(0xD1)],+,ACK
2.140996,I2C,'255',(0xFF),+,ACK,,,
2.14121225,I2C,U,(0x55),+,ACK,,,
2.1414285,I2C,'254',(0xFE),+,ACK,,,
2.1416445,I2C,'227',(0xE3),+,ACK,,,
2.141861,I2C,'255',(0xFF),+,ACK,,,
2.142077,I2C,s,(0x73),+,NAK,,,
2.1424555,I2C,Setup,Write,to,['208',(0xD0)],+,ACK
2.14267175,I2C,C,(0x43),+,ACK,,,
2.142924,I2C,Setup,Read,to,['209',(0xD1)],+,ACK
2.14314025,I2C,'255',(0xFF),+,ACK,,,
2.1433565,I2C,x,(0x78),+,ACK,,,
2.14357275,I2C,'254',(0xFE),+,ACK,,,
2.14378875,I2C,'244',(0xF4),+,ACK,,,
2.14400525,I2C,'255',(0xFF),+,ACK,,,
2.1442215,I2C,d,(0x64),+,NAK,,,
2.14459975,I2C,Setup,Write,to,['208',(0xD0)],+,ACK
2.144816,I2C,C,(0x43),+,ACK,,,
2.14506825,I2C,Setup,Read,to,['209',(0xD1)],+,ACK
2.1452845,I2C,'255',(0xFF),+,ACK,,,
2.14550075,I2C,q,(0x71),+,ACK,,,
2.145717,I2C,'254',(0xFE),+,ACK,,,
2.14593325,I2C,'243',(0xF3),+,ACK,,,
2.1461495,I2C,'255',(0xFF),+,ACK,,,
2.14636575,I2C,h,(0x68),+,NAK,,,
2.14674425,I2C,Setup,Write,to,['208',(0xD0)],+,ACK
2.1469605,I2C,C,(0x43),+,ACK,,,
2.14721275,I2C,Setup,Read,to,['209',(0xD1)],+,ACK
2.147429,I2C,'255',(0xFF),+,ACK,,,
2.14764525,I2C,q,(0x71),+,ACK,,,
2.1478615,I2C,'254',(0xFE),+,ACK,,,
2.14807775,I2C,'212',(0xD4),+,ACK,,,
2.148294,I2C,'255',(0xFF),+,ACK,,,
2.14851025,I2C,h,(0x68),+,NAK,,,
2.14888875,I2C,Setup,Write,to,['208',(0xD0)],+,ACK
2.149105,I2C,C,(0x43),+,ACK,,,
2.14935725,I2C,Setup,Read,to,['209',(0xD1)],+,ACK
2.1495735,I2C,'255',(0xFF),+,ACK,,,
2.14978975,I2C,'128',(0x80),+,ACK,,,
2.15000575,I2C,'254',(0xFE),+,ACK,,,
2.15022225,I2C,'229',(0xE5),+,ACK,,,
2.1504385,I2C,'255',(0xFF),+,ACK,,,
2.1506545,I2C,x,(0x78),+,NAK,,,
2.151033,I2C,Setup,Write,to,['208',(0xD0)],+,ACK
2.15124925,I2C,C,(0x43),+,ACK,,,
2.1515015,I2C,Setup,Read,to,['209',(0xD1)],+,ACK
2.15171775,I2C,'255',(0xFF),+,ACK,,,
2.151934,I2C,],(0x5D),+,ACK,,,
2.15215,I2C,'254',(0xFE),+,ACK,,,
2.15236625,I2C,'223',(0xDF),+,ACK,,,
2.1525825,I2C,'255',(0xFF),+,ACK,,,
2.15279875,I2C,e,(0x65),+,NAK,,,
2.15317725,I2C,Setup,Write,to,['208',(0xD0)],+,ACK
2.1533935,I2C,C,(0x43),+,ACK,,,
2.15364575,I2C,Setup,Read,to,['209',(0xD1)],+,ACK
2.15386175,I2C,'255',(0xFF),+,ACK,,,
2.154078,I2C,p,(0x70),+,ACK,,,
2.15429425,I2C,'254',(0xFE),+,ACK,,,
2.1545105,I2C,'240',(0xF0),+,ACK,,,
2.15472675,I2C,'255',(0xFF),+,ACK,,,
2.154943,I2C,P,(0x50),+,NAK,,,
2.15532125,I2C,Setup,Write,to,['208',(0xD0)],+,ACK
2.1555375,I2C,C,(0x43),+,ACK,,,
2.15578975,I2C,Setup,Read,to,['209',(0xD1)],+,ACK
2.156006,I2C,'255',(0xFF),+,ACK,,,
2.15622225,I2C,},(0x7D),+,ACK,,,
2.15643875,I2C,'254',(0xFE),+,ACK,,,
2.156655,I2C,'232',(0xE8),+,ACK,,,
2.15687125,I2C,'255',(0xFF),+,ACK,,,
2.1570875,I2C,],(0x5D),+,NAK,,,
2.15746575,I2C,Setup,Write,to,['208',(0xD0)],+,ACK
2.15768225,I2C,C,(0x43),+,ACK,,,
2.1579345,I2C,Setup,Read,to,['209',(0xD1)],+,ACK
2.15815075,I2C,'255',(0xFF),+,ACK,,,
2.158367,I2C,x,(0x78),+,ACK,,,
2.1585835,I2C,'254',(0xFE),+,ACK,,,
2.15879975,I2C,'215',(0xD7),+,ACK,,,
2.15901575,I2C,'255',(0xFF),+,ACK,,,
2.159232,I2C,h,(0x68),+,NAK,,,
2.1596105,I2C,Setup,Write,to,['208',(0xD0)],+,ACK
2.1598265,I2C,C,(0x43),+,ACK,,,
2.16007875,I2C,Setup,Read,to,['209',(0xD1)],+,ACK
2.160295,I2C,'255',(0xFF),+,ACK,,,
2.160511,I2C,u,(0x75),+,ACK,,,
2.16072725,I2C,'254',(0xFE),+,ACK,,,
2.1609435,I2C,'235',(0xEB),+,ACK,,,
2.16115975,I2C,'255',(0xFF),+,ACK,,,
2.16137575,I2C,R,(0x52),+,NAK,,,
2.16175425,I2C,Setup,Write,to,['208',(0xD0)],+,ACK
2.1619705,I2C,C,(0x43),+,ACK,,,
2.16222275,I2C,Setup,Read,to,['209',(0xD1)],+,ACK
2.162439,I2C,'255',(0xFF),+,ACK,,,
2.16265525,I2C,'147',(0x93),+,ACK,,,
2.1628715,I2C,'254',(0xFE),+,ACK,,,
2.16308775,I2C,'251',(0xFB),+,ACK,,,
2.16330375,I2C,'255',(0xFF),+,ACK,,,
2.16352,I2C,g,(0x67),+,NAK,,,
2.1638985,I2C,Setup,Write,to,['208',(0xD0)],+,ACK
2.16411475,I2C,C,(0x43),+,ACK,,,
2.164367,I2C,Setup,Read,to,['209',(0xD1)],+,ACK
2.16458325,I2C,'255',(0xFF),+,ACK,,,
2.1647995,I2C,m,(0x6D),+,ACK,,,
2.16501575,I2C,'254',(0xFE),+,ACK,,,
2.165232,I2C,'248',(0xF8),+,ACK,,,
2.165448,I2C,'255',(0xFF),+,ACK,,,
2.16566425,I2C,v,(0x76),+,NAK,,,
2.16604275,I2C,Setup,Write,to,['208',(0xD0)],+,ACK
2.166259,I2C,C,(0x43),+,ACK,,,
2.16651125,I2C,Setup,Read,to,['209',(0xD1)],+,ACK
2.16672725,I2C,'255',(0xFF),+,ACK,,,
2.1669435,I2C,f,(0x66),+,ACK,,,
2.16715975,I2C,'254',(0xFE),+,ACK,,,
2.167376,I2C,'222',(0xDE),+,ACK,,,
2.16759225,I2C,'255',(0xFF),+,ACK,,,
2.1678085,I2C,W,(0x57),+,NAK,,,
2.16818675,I2C,Setup,Write,to,['208',(0xD0)],+,ACK
2.168403,I2C,C,(0x43),+,ACK,,,
2.1686555,I2C,Setup,Read,to,['209',(0xD1)],+,ACK
2.1688715,I2C,'255',(0xFF),+,ACK,,,
2.16908775,I2C,b,(0x62),+,ACK,,,
2.169304,I2C,'254',(0xFE),+,ACK,,,
2.16952025,I2C,'210',(0xD2),+,ACK,,,
2.1697365,I2C,'255',(0xFF),+,ACK,,,
2.16995275,I2C,h,(0x68),+,NAK,,,
2.170331,I2C,Setup,Write,to,['208',(0xD0)],+,ACK
2.17054725,I2C,C,(0x43),+,ACK,,,
2.17079925,I2C,Setup,Read,to,['209',(0xD1)],+,ACK
2.1710155,I2C,'255',(0xFF),+,ACK,,,
2.17123175,I2C,v,(0x76),+,ACK,,,
2.171448,I2C,'254',(0xFE),+,ACK,,,
2.171664,I2C,'212',(0xD4),+,ACK,,,
2.17188025,I2C,'255',(0xFF),+,ACK,,,
2.1720965,I2C,V,(0x56),+,NAK,,,
2.172475,I2C,Setup,Write,to,['208',(0xD0)],+,ACK
2.172691,I2C,C,(0x43),+,ACK,,,
2.17294325,I2C,Setup,Read,to,['209',(0xD1)],+,ACK
2.1731595,I2C,'255',(0xFF),+,ACK,,,
2.17337575,I2C,h,(0x68),+,ACK,,,
2.173592,I2C,'254',(0xFE),+,ACK,,,
2.17380825,I2C,'242',(0xF2),+,ACK,,,
2.1740245,I2C,'255',(0xFF),+,ACK,,,
2.1742405,I2C,^,(0x5E),+,NAK,,,
2.174619,I2C,Setup,Write,to,['208',(0xD0)],+,ACK
2.17483525,I2C,C,(0x43),+,ACK,,,
2.1750875,I2C,Setup,Read,to,['209',(0xD1)],+,ACK
2.1753035,I2C,'255',(0xFF),+,ACK,,,
2.17551975,I2C,r,(0x72),+,ACK,,,
2.175736,I2C,'255',(0xFF),+,ACK,,,
2.17595225,I2C,'6',(0x06),+,ACK,,,
2.1761685,I2C,'255',(0xFF),+,ACK,,,
2.17638475,I2C,Y,(0x59),+,NAK,,,
2.17676325,I2C,Setup,Write,to,['208',(0xD0)],+,ACK
2.17697925,I2C,C,(0x43),+,ACK,,,
2.1772315,I2C,Setup,Read,to,['209',(0xD1)],+,ACK
2.17744775,I2C,'255',(0xFF),+,ACK,,,
2.177664,I2C,r,(0x72),+,ACK,,,
2.17788025,I2C,'254',(0xFE),+,ACK,,,
2.1780965,I2C,'238',(0xEE),+,ACK,,,
2.17831275,I2C,'255',(0xFF),+,ACK,,,
2.178529,I2C,Z,(0x5A),+,NAK,,,
2.17890725,I2C,Setup,Write,to,['208',(0xD0)],+,ACK
2.1791235,I2C,C,(0x43),+,ACK,,,
2.17937575,I2C,Setup,Read,to,['209',(0xD1)],+,ACK
2.179592,I2C,'255',(0xFF),+,ACK,,,
2.17980825,I2C,i,(0x69),+,ACK,,,
2.1800245,I2C,'254',(0xFE),+,ACK,,,
2.18024075,I2C,'224',(0xE0),+,ACK,,,
2.180457,I2C,'255',(0xFF),+,ACK,,,
2.18067325,I2C,c,(0x63),+,NAK,,,
2.1810515,I2C,Setup,Write,to,['208',(0xD0)],+,ACK
2.18126775,I2C,C,(0x43),+,ACK,,,
2.18152025,I2C,Setup,Read,to,['209',(0xD1)],+,ACK
2.1817365,I2C,'255',(0xFF),+,ACK,,,
2.1819525,I2C,|,(0x7C),+,ACK,,,
2.18216875,I2C,'254',(0xFE),+,ACK,,,
2.182385,I2C,'239',(0xEF),+,ACK,,,
2.18260125,I2C,'255',(0xFF),+,ACK,,,
2.1828175,I2C,m,(0x6D),+,NAK,,,
2.183196,I2C,Setup,Write,to,['208',(0xD0)],+,ACK
2.183412,I2C,C,(0x43),+,ACK,,,
2.1836645,I2C,Setup,Read,to,['209',(0xD1)],+,ACK
2.18388075,I2C,'255',(0xFF),+,ACK,,,
2.18409675,I2C,v,(0x76),+,ACK,,,
2.184313,I2C,'255',(0xFF),+,ACK,,,
2.1845295,I2C,'1',(0x01),+,ACK,,,
2.18474575,I2C,'255',(0xFF),+,ACK,,,
2.18496175,I2C,{,(0x7B),+,NAK,,,
2.18534025,I2C,Setup,Write,to,['208',(0xD0)],+,ACK
2.1855565,I2C,C,(0x43),+,ACK,,,
2.18580875,I2C,Setup,Read,to,['209',(0xD1)],+,ACK
2.186025,I2C,'255',(0xFF),+,ACK,,,
2.186241,I2C,e,(0x65),+,ACK,,,
2.18645725,I2C,'254',(0xFE),+,ACK,,,
2.1866735,I2C,'222',(0xDE),+,ACK,,,
2.18688975,I2C,'255',(0xFF),+,ACK,,,
2.187106,I2C,X,(0x58),+,NAK,,,
2.18748425,I2C,Setup,Write,to,['208',(0xD0)],+,ACK
2.18770075,I2C,C,(0x43),+,ACK,,,
2.187953,I2C,Setup,Read,to,['209',(0xD1)],+,ACK
2.18816925,I2C,'255',(0xFF),+,ACK,,,
2.18838525,I2C,r,(0x72),+,ACK,,,
2.1886015,I2C,'254',(0xFE),+,ACK,,,
2.188818,I2C,'208',(0xD0),+,ACK,,,
2.18903425,I2C,'255',(0xFF),+,ACK,,,
2.1892505,I2C,f,(0x66),+,NAK,,,
2.18962875,I2C,Setup,Write,to,['208',(0xD0)],+,ACK
2.189845,I2C,C,(0x43),+,ACK,,,
2.19009725,I2C,Setup,Read,to,['209',(0xD1)],+,ACK
2.1903135,I2C,'255',(0xFF),+,ACK,,,
2.19052975,I2C,|,(0x7C),+,ACK,,,
2.190746,I2C,'254',(0xFE),+,ACK,,,
2.19096225,I2C,'215',(0xD7),+,ACK,,,
2.1911785,I2C,'255',(0xFF),+,ACK,,,
2.19139475,I2C,v,(0x76),+,NAK,,,
2.191773,I2C,Setup,Write,to,['208',(0xD0)],+,ACK
2.19198925,I2C,C,(0x43),+,ACK,,,
2.1922415,I2C,Setup,Read,to,['209',(0xD1)],+,ACK
2.19245775,I2C,'255',(0xFF),+,ACK,,,
2.192674,I2C,n,(0x6E),+,ACK,,,
2.19289025,I2C,'254',(0xFE),+,ACK,,,
2.1931065,I2C,'234',(0xEA),+,ACK,,,
2.19332275,I2C,'255',(0xFF),+,ACK,,,
2.19353875,I2C,v,(0x76),+,NAK,,,
2.19391725,I2C,Setup,Write,to,['208',(0xD0)],+,ACK
2.1941335,I2C,C,(0x43),+,ACK,,,
2.19438575,I2C,Setup,Read,to,['209',(0xD1)],+,ACK
2.194602,I2C,'255',(0xFF),+,ACK,,,
2.19481825,I2C,m,(0x6D),+,ACK,,,
2.1950345,I2C,'255',(0xFF),+,ACK,,,
2.19525075,I2C,'4',(0x04),+,ACK,,,
2.195467,I2C,'255',(0xFF),+,ACK,,,
2.19568325,I2C,V,(0x56),+,NAK,,,
