Time [s],Packet ID,Address,Data,Read/Write,ACK/NAK
5.524652500000000,0,0xD0,0x6B,Write,ACK
5.524868750000000,0,0xD0,0x80,Write,ACK
5.554317750000000,1,0xD0,0x6B,Write,ACK
5.554534000000000,1,0xD0,0x00,Write,ACK
5.582493500000000,2,0xD0,0x6D,Write,ACK
5.582709500000000,2,0xD0,0x70,Write,ACK
5.610635000000000,3,0xD0,0x6E,Write,ACK
5.610851250000000,3,0xD0,0x06,Write,ACK
5.641909000000000,4,0xD0,0x6F,Write,ACK
5.642413250000000,5,0xD1,0xA5,Read,NAK
5.716379250000000,6,0xD0,0x6D,Write,ACK
5.716595250000000,6,0xD0,0x00,Write,ACK
5.748681250000000,7,0xD0,0x00,Write,ACK
5.749185750000000,8,0xD1,0x81,Read,NAK
5.805016750000000,9,0xD0,0x00,Write,ACK
5.805521000000000,10,0xD1,0x81,Read,NAK
5.806175500000000,11,0xD0,0x01,Write,ACK
5.806679750000000,12,0xD1,0x79,Read,NAK
5.807334250000000,13,0xD0,0x02,Write,ACK
5.807838750000000,14,0xD1,0x81,Read,NAK
5.907061750000000,15,0xD0,0x25,Write,ACK
5.907277750000000,15,0xD0,0x7F,Write,ACK
5.937310000000000,16,0xD0,0x6A,Write,ACK
5.937814500000000,17,0xD1,0x00,Read,NAK
5.938392750000000,18,0xD0,0x6A,Write,ACK
5.938609000000000,18,0xD0,0x00,Write,ACK
5.981807500000000,19,0xD0,0x25,Write,ACK
5.982023750000000,19,0xD0,0x68,Write,ACK
6.015182500000000,20,0xD0,0x6A,Write,ACK
6.015687000000000,21,0xD1,0x00,Read,NAK
6.016239250000000,22,0xD0,0x6A,Write,ACK
6.016455500000000,22,0xD0,0x02,Write,ACK
6.096662750000000,23,0xD0,0x6D,Write,ACK
6.096879000000000,23,0xD0,0x00,Write,ACK
6.097410500000000,24,0xD0,0x6E,Write,ACK
6.097626750000000,24,0xD0,0x00,Write,ACK
6.098992750000000,25,0xD0,0x6F,Write,ACK
6.099209000000000,25,0xD0,0xFB,Write,ACK
6.099425250000000,25,0xD0,0x00,Write,ACK
6.099641500000000,25,0xD0,0x00,Write,ACK
6.099857750000000,25,0xD0,0x3E,Write,ACK
6.100073750000000,25,0xD0,0x00,Write,ACK
6.100290000000000,25,0xD0,0x0B,Write,ACK
6.100506250000000,25,0xD0,0x00,Write,ACK
6.100722500000000,25,0xD0,0x36,Write,ACK
6.100938750000000,25,0xD0,0x00,Write,ACK
6.101155000000000,25,0xD0,0x01,Write,ACK
6.101371250000000,25,0xD0,0x00,Write,ACK
6.101587500000000,25,0xD0,0x02,Write,ACK
6.101803750000000,25,0xD0,0x00,Write,ACK
6.102020000000000,25,0xD0,0x03,Write,ACK
6.102236250000000,25,0xD0,0x00,Write,ACK
6.102452500000000,25,0xD0,0x00,Write,ACK
6.103010250000000,26,0xD0,0x6D,Write,ACK
6.103226500000000,26,0xD0,0x00,Write,ACK
6.103757750000000,27,0xD0,0x6E,Write,ACK
6.103974250000000,27,0xD0,0x00,Write,ACK
6.104508750000000,28,0xD0,0x6F,Write,ACK
6.105017000000000,29,0xD1,0xFB,Read,ACK
6.105233250000000,29,0xD1,0x00,Read,ACK
6.105449500000000,29,0xD1,0x00,Read,ACK
6.105665500000000,29,0xD1,0x3E,Read,ACK
6.105881750000000,29,0xD1,0x00,Read,ACK
6.106097750000000,29,0xD1,0x0B,Read,ACK
6.106314000000000,29,0xD1,0x00,Read,ACK
6.106530250000000,29,0xD1,0x36,Read,ACK
6.106746250000000,29,0xD1,0x00,Read,ACK
6.106962500000000,29,0xD1,0x01,Read,ACK
6.107178750000000,29,0xD1,0x00,Read,ACK
6.107395000000000,29,0xD1,0x02,Read,ACK
6.107611000000000,29,0xD1,0x00,Read,ACK
6.107827250000000,29,0xD1,0x03,Read,ACK
6.108043500000000,29,0xD1,0x00,Read,ACK
6.108259500000000,29,0xD1,0x00,Read,NAK
6.109250500000000,30,0xD0,0x6D,Write,ACK
6.109466500000000,30,0xD0,0x00,Write,ACK
6.109998000000000,31,0xD0,0x6E,Write,ACK
6.110214250000000,31,0xD0,0x10,Write,ACK
6.111261000000000,32,0xD0,0x6F,Write,ACK
6.111477250000000,32,0xD0,0x00,Write,ACK
6.111693500000000,32,0xD0,0x65,Write,ACK
6.111909750000000,32,0xD0,0x00,Write,ACK
6.112126000000000,32,0xD0,0x54,Write,ACK
6.112342000000000,32,0xD0,0xFF,Write,ACK
6.112558250000000,32,0xD0,0xEF,Write,ACK
6.112774500000000,32,0xD0,0x00,Write,ACK
6.112990750000000,32,0xD0,0x00,Write,ACK
6.113206750000000,32,0xD0,0xFA,Write,ACK
6.113423000000000,32,0xD0,0x80,Write,ACK
6.113639250000000,32,0xD0,0x00,Write,ACK
6.113855500000000,32,0xD0,0x0B,Write,ACK
6.114071750000000,32,0xD0,0x12,Write,ACK
6.114288000000000,32,0xD0,0x82,Write,ACK
6.114504000000000,32,0xD0,0x00,Write,ACK
6.114720250000000,32,0xD0,0x01,Write,ACK
6.115277750000000,33,0xD0,0x6D,Write,ACK
6.115494000000000,33,0xD0,0x00,Write,ACK
6.116025500000000,34,0xD0,0x6E,Write,ACK
6.116241750000000,34,0xD0,0x10,Write,ACK
6.116776250000000,35,0xD0,0x6F,Write,ACK
6.117284750000000,36,0xD1,0x00,Read,ACK
6.117500750000000,36,0xD1,0x65,Read,ACK
6.117717000000000,36,0xD1,0x00,Read,ACK
6.117933250000000,36,0xD1,0x54,Read,ACK
6.118149250000000,36,0xD1,0xFF,Read,ACK
6.118365500000000,36,0xD1,0xEF,Read,ACK
6.118581750000000,36,0xD1,0x00,Read,ACK
6.118798000000000,36,0xD1,0x00,Read,ACK
6.119014000000000,36,0xD1,0xFA,Read,ACK
6.119230250000000,36,0xD1,0x80,Read,ACK
6.119446500000000,36,0xD1,0x00,Read,ACK
6.119662750000000,36,0xD1,0x0B,Read,ACK
6.119878750000000,36,0xD1,0x12,Read,ACK
6.120094750000000,36,0xD1,0x82,Read,ACK
6.120311000000000,36,0xD1,0x00,Read,ACK
6.120527250000000,36,0xD1,0x01,Read,NAK
6.121518000000000,37,0xD0,0x6D,Write,ACK
6.121734000000000,37,0xD0,0x00,Write,ACK
6.122265500000000,38,0xD0,0x6E,Write,ACK
6.122481750000000,38,0xD0,0x20,Write,ACK
6.123528750000000,39,0xD0,0x6F,Write,ACK
6.123745000000000,39,0xD0,0x00,Write,ACK
6.123961250000000,39,0xD0,0x02,Write,ACK
6.124177500000000,39,0xD0,0x00,Write,ACK
6.124393500000000,39,0xD0,0x00,Write,ACK
6.124609750000000,39,0xD0,0x00,Write,ACK
6.124826000000000,39,0xD0,0x00,Write,ACK
6.125042250000000,39,0xD0,0x00,Write,ACK
6.125258250000000,39,0xD0,0x00,Write,ACK
6.125474500000000,39,0xD0,0x00,Write,ACK
6.125690750000000,39,0xD0,0x00,Write,ACK
6.125907000000000,39,0xD0,0x00,Write,ACK
6.126123250000000,39,0xD0,0x00,Write,ACK
6.126339500000000,39,0xD0,0x00,Write,ACK
6.126555750000000,39,0xD0,0x00,Write,ACK
6.126772000000000,39,0xD0,0x00,Write,ACK
6.126988000000000,39,0xD0,0x00,Write,ACK
6.127545500000000,40,0xD0,0x6D,Write,ACK
6.127761750000000,40,0xD0,0x00,Write,ACK
6.128293250000000,41,0xD0,0x6E,Write,ACK
6.128509750000000,41,0xD0,0x20,Write,ACK
6.129044250000000,42,0xD0,0x6F,Write,ACK
6.129552750000000,43,0xD1,0x00,Read,ACK
6.129768750000000,43,0xD1,0x02,Read,ACK
6.129985000000000,43,0xD1,0x00,Read,ACK
6.130201250000000,43,0xD1,0x00,Read,ACK
6.130417500000000,43,0xD1,0x00,Read,ACK
6.130633500000000,43,0xD1,0x00,Read,ACK
6.130849750000000,43,0xD1,0x00,Read,ACK
6.131066000000000,43,0xD1,0x00,Read,ACK
6.131282250000000,43,0xD1,0x00,Read,ACK
6.131498250000000,43,0xD1,0x00,Read,ACK
6.131714500000000,43,0xD1,0x00,Read,ACK
6.131930750000000,43,0xD1,0x00,Read,ACK
6.132147000000000,43,0xD1,0x00,Read,ACK
6.132363000000000,43,0xD1,0x00,Read,ACK
6.132579250000000,43,0xD1,0x00,Read,ACK
6.132795500000000,43,0xD1,0x00,Read,NAK
6.133786500000000,44,0xD0,0x6D,Write,ACK
6.134002500000000,44,0xD0,0x00,Write,ACK
6.134534000000000,45,0xD0,0x6E,Write,ACK
6.134750250000000,45,0xD0,0x30,Write,ACK
6.135797000000000,46,0xD0,0x6F,Write,ACK
6.136013250000000,46,0xD0,0x00,Write,ACK
6.136229500000000,46,0xD0,0x28,Write,ACK
6.136445750000000,46,0xD0,0x00,Write,ACK
6.136662000000000,46,0xD0,0x00,Write,ACK
6.136878250000000,46,0xD0,0xFF,Write,ACK
6.137094500000000,46,0xD0,0xFF,Write,ACK
6.137310750000000,46,0xD0,0x45,Write,ACK
6.137526750000000,46,0xD0,0x81,Write,ACK
6.137743000000000,46,0xD0,0xFF,Write,ACK
6.137959250000000,46,0xD0,0xFF,Write,ACK
6.138175500000000,46,0xD0,0xFA,Write,ACK
6.138391500000000,46,0xD0,0x72,Write,ACK
6.138607750000000,46,0xD0,0x00,Write,ACK
6.138824000000000,46,0xD0,0x00,Write,ACK
6.139040250000000,46,0xD0,0x00,Write,ACK
6.139256500000000,46,0xD0,0x00,Write,ACK
6.139814000000000,47,0xD0,0x6D,Write,ACK
6.140030250000000,47,0xD0,0x00,Write,ACK
6.140561750000000,48,0xD0,0x6E,Write,ACK
6.140778000000000,48,0xD0,0x30,Write,ACK
6.141312500000000,49,0xD0,0x6F,Write,ACK
6.141820750000000,50,0xD1,0x00,Read,ACK
6.142037000000000,50,0xD1,0x28,Read,ACK
6.142253250000000,50,0xD1,0x00,Read,ACK
6.142469500000000,50,0xD1,0x00,Read,ACK
6.142685500000000,50,0xD1,0xFF,Read,ACK
6.142901750000000,50,0xD1,0xFF,Read,ACK
6.143118000000000,50,0xD1,0x45,Read,ACK
6.143334250000000,50,0xD1,0x81,Read,ACK
6.143550500000000,50,0xD1,0xFF,Read,ACK
6.143766500000000,50,0xD1,0xFF,Read,ACK
6.143982750000000,50,0xD1,0xFA,Read,ACK
6.144199000000000,50,0xD1,0x72,Read,ACK
6.144415000000000,50,0xD1,0x00,Read,ACK
6.144631250000000,50,0xD1,0x00,Read,ACK
6.144847500000000,50,0xD1,0x00,Read,ACK
6.145063750000000,50,0xD1,0x00,Read,NAK
6.146054750000000,51,0xD0,0x6D,Write,ACK
6.146271000000000,51,0xD0,0x00,Write,ACK
6.146802500000000,52,0xD0,0x6E,Write,ACK
6.147018750000000,52,0xD0,0x40,Write,ACK
6.148065750000000,53,0xD0,0x6F,Write,ACK
6.148282000000000,53,0xD0,0x00,Write,ACK
6.148498000000000,53,0xD0,0x00,Write,ACK
6.148714250000000,53,0xD0,0x03,Write,ACK
6.148930500000000,53,0xD0,0xE8,Write,ACK
6.149146750000000,53,0xD0,0x00,Write,ACK
6.149363000000000,53,0xD0,0x00,Write,ACK
6.149579250000000,53,0xD0,0x00,Write,ACK
6.149795250000000,53,0xD0,0x01,Write,ACK
6.150011500000000,53,0xD0,0x00,Write,ACK
6.150227500000000,53,0xD0,0x01,Write,ACK
6.150444000000000,53,0xD0,0x7F,Write,ACK
6.150660000000000,53,0xD0,0xFF,Write,ACK
6.150876250000000,53,0xD0,0xFF,Write,ACK
6.151092500000000,53,0xD0,0xFE,Write,ACK
6.151308750000000,53,0xD0,0x80,Write,ACK
6.151524750000000,53,0xD0,0x01,Write,ACK
6.152082500000000,54,0xD0,0x6D,Write,ACK
6.152298500000000,54,0xD0,0x00,Write,ACK
6.152830000000000,55,0xD0,0x6E,Write,ACK
6.153046250000000,55,0xD0,0x40,Write,ACK
6.153580750000000,56,0xD0,0x6F,Write,ACK
6.154089250000000,57,0xD1,0x00,Read,ACK
6.154305250000000,57,0xD1,0x00,Read,ACK
6.154521500000000,57,0xD1,0x03,Read,ACK
6.154737750000000,57,0xD1,0xE8,Read,ACK
6.154953750000000,57,0xD1,0x00,Read,ACK
6.155170000000000,57,0xD1,0x00,Read,ACK
6.155386000000000,57,0xD1,0x00,Read,ACK
6.155602250000000,57,0xD1,0x01,Read,ACK
6.155818500000000,57,0xD1,0x00,Read,ACK
6.156034500000000,57,0xD1,0x01,Read,ACK
6.156250750000000,57,0xD1,0x7F,Read,ACK
6.156466750000000,57,0xD1,0xFF,Read,ACK
6.156683000000000,57,0xD1,0xFF,Read,ACK
6.156899250000000,57,0xD1,0xFE,Read,ACK
6.157115250000000,57,0xD1,0x80,Read,ACK
6.157331500000000,57,0xD1,0x01,Read,NAK
6.158322250000000,58,0xD0,0x6D,Write,ACK
6.158538250000000,58,0xD0,0x00,Write,ACK
6.159069750000000,59,0xD0,0x6E,Write,ACK
6.159286000000000,59,0xD0,0x50,Write,ACK
6.160333000000000,60,0xD0,0x6F,Write,ACK
6.160549000000000,60,0xD0,0x00,Write,ACK
6.160765250000000,60,0xD0,0x1B,Write,ACK
6.160981500000000,60,0xD0,0x00,Write,ACK
6.161197500000000,60,0xD0,0x00,Write,ACK
6.161413750000000,60,0xD0,0x00,Write,ACK
6.161630000000000,60,0xD0,0x00,Write,ACK
6.161846250000000,60,0xD0,0x00,Write,ACK
6.162062500000000,60,0xD0,0x00,Write,ACK
6.162278500000000,60,0xD0,0x00,Write,ACK
6.162494750000000,60,0xD0,0x00,Write,ACK
6.162711000000000,60,0xD0,0x00,Write,ACK
6.162927250000000,60,0xD0,0x00,Write,ACK
6.163143500000000,60,0xD0,0x00,Write,ACK
6.163359500000000,60,0xD0,0x00,Write,ACK
6.163575750000000,60,0xD0,0x00,Write,ACK
6.163792000000000,60,0xD0,0x00,Write,ACK
6.164349500000000,61,0xD0,0x6D,Write,ACK
6.164565500000000,61,0xD0,0x00,Write,ACK
6.165097000000000,62,0xD0,0x6E,Write,ACK
6.165313250000000,62,0xD0,0x50,Write,ACK
6.165847750000000,63,0xD0,0x6F,Write,ACK
6.166356000000000,64,0xD1,0x00,Read,ACK
6.166572250000000,64,0xD1,0x1B,Read,ACK
6.166788500000000,64,0xD1,0x00,Read,ACK
6.167004750000000,64,0xD1,0x00,Read,ACK
6.167220750000000,64,0xD1,0x00,Read,ACK
6.167437000000000,64,0xD1,0x00,Read,ACK
6.167653000000000,64,0xD1,0x00,Read,ACK
6.167869250000000,64,0xD1,0x00,Read,ACK
6.168085500000000,64,0xD1,0x00,Read,ACK
6.168301500000000,64,0xD1,0x00,Read,ACK
6.168517750000000,64,0xD1,0x00,Read,ACK
6.168734000000000,64,0xD1,0x00,Read,ACK
6.168950000000000,64,0xD1,0x00,Read,ACK
6.169166250000000,64,0xD1,0x00,Read,ACK
6.169382250000000,64,0xD1,0x00,Read,ACK
6.169598500000000,64,0xD1,0x00,Read,NAK
6.170589250000000,65,0xD0,0x6D,Write,ACK
6.170805500000000,65,0xD0,0x00,Write,ACK
6.171337000000000,66,0xD0,0x6E,Write,ACK
6.171553250000000,66,0xD0,0x60,Write,ACK
6.172600000000000,67,0xD0,0x6F,Write,ACK
6.172816250000000,67,0xD0,0x00,Write,ACK
6.173032500000000,67,0xD0,0x3E,Write,ACK
6.173248500000000,67,0xD0,0x03,Write,ACK
6.173464750000000,67,0xD0,0x30,Write,ACK
6.173681000000000,67,0xD0,0x40,Write,ACK
6.173897000000000,67,0xD0,0x00,Write,ACK
6.174113250000000,67,0xD0,0x00,Write,ACK
6.174329500000000,67,0xD0,0x00,Write,ACK
6.174545750000000,67,0xD0,0x02,Write,ACK
6.174761750000000,67,0xD0,0xCA,Write,ACK
6.174978000000000,67,0xD0,0xE3,Write,ACK
6.175194250000000,67,0xD0,0x09,Write,ACK
6.175410500000000,67,0xD0,0x3E,Write,ACK
6.175626500000000,67,0xD0,0x80,Write,ACK
6.175842750000000,67,0xD0,0x00,Write,ACK
6.176059000000000,67,0xD0,0x00,Write,ACK
6.176616500000000,68,0xD0,0x6D,Write,ACK
6.176832500000000,68,0xD0,0x00,Write,ACK
6.177364000000000,69,0xD0,0x6E,Write,ACK
6.177580000000000,69,0xD0,0x60,Write,ACK
6.178114750000000,70,0xD0,0x6F,Write,ACK
6.178623000000000,71,0xD1,0x00,Read,ACK
6.178839250000000,71,0xD1,0x3E,Read,ACK
6.179055250000000,71,0xD1,0x03,Read,ACK
6.179271500000000,71,0xD1,0x30,Read,ACK
6.179487750000000,71,0xD1,0x40,Read,ACK
6.179703750000000,71,0xD1,0x00,Read,ACK
6.179920000000000,71,0xD1,0x00,Read,ACK
6.180136250000000,71,0xD1,0x00,Read,ACK
6.180352250000000,71,0xD1,0x02,Read,ACK
6.180568500000000,71,0xD1,0xCA,Read,ACK
6.180784500000000,71,0xD1,0xE3,Read,ACK
6.181000750000000,71,0xD1,0x09,Read,ACK
6.181217000000000,71,0xD1,0x3E,Read,ACK
6.181433000000000,71,0xD1,0x80,Read,ACK
6.181649250000000,71,0xD1,0x00,Read,ACK
6.181865500000000,71,0xD1,0x00,Read,NAK
6.182856250000000,72,0xD0,0x6D,Write,ACK
6.183072250000000,72,0xD0,0x00,Write,ACK
6.183603750000000,73,0xD0,0x6E,Write,ACK
6.183820000000000,73,0xD0,0x70,Write,ACK
6.184866750000000,74,0xD0,0x6F,Write,ACK
6.185082750000000,74,0xD0,0x20,Write,ACK
6.185299000000000,74,0xD0,0x00,Write,ACK
6.185515250000000,74,0xD0,0x00,Write,ACK
6.185731500000000,74,0xD0,0x00,Write,ACK
6.185947750000000,74,0xD0,0x00,Write,ACK
6.186163750000000,74,0xD0,0x00,Write,ACK
6.186380000000000,74,0xD0,0x00,Write,ACK
6.186596250000000,74,0xD0,0x00,Write,ACK
6.186812250000000,74,0xD0,0x40,Write,ACK
6.187028500000000,74,0xD0,0x00,Write,ACK
6.187244750000000,74,0xD0,0x00,Write,ACK
6.187461000000000,74,0xD0,0x00,Write,ACK
6.187677000000000,74,0xD0,0x60,Write,ACK
6.187893250000000,74,0xD0,0x00,Write,ACK
6.188109500000000,74,0xD0,0x00,Write,ACK
6.188325750000000,74,0xD0,0x00,Write,ACK
6.188883000000000,75,0xD0,0x6D,Write,ACK
6.189099250000000,75,0xD0,0x00,Write,ACK
6.189630750000000,76,0xD0,0x6E,Write,ACK
6.189847000000000,76,0xD0,0x70,Write,ACK
6.190381500000000,77,0xD0,0x6F,Write,ACK
6.190890000000000,78,0xD1,0x20,Read,ACK
6.191106000000000,78,0xD1,0x00,Read,ACK
6.191322250000000,78,0xD1,0x00,Read,ACK
6.191538500000000,78,0xD1,0x00,Read,ACK
6.191754500000000,78,0xD1,0x00,Read,ACK
6.191970750000000,78,0xD1,0x00,Read,ACK
6.192186750000000,78,0xD1,0x00,Read,ACK
6.192403000000000,78,0xD1,0x00,Read,ACK
6.192619250000000,78,0xD1,0x40,Read,ACK
6.192835250000000,78,0xD1,0x00,Read,ACK
6.193051500000000,78,0xD1,0x00,Read,ACK
6.193267750000000,78,0xD1,0x00,Read,ACK
6.193483750000000,78,0xD1,0x60,Read,ACK
6.193700000000000,78,0xD1,0x00,Read,ACK
6.193916250000000,78,0xD1,0x00,Read,ACK
6.194132500000000,78,0xD1,0x00,Read,NAK
6.195123250000000,79,0xD0,0x6D,Write,ACK
6.195339250000000,79,0xD0,0x00,Write,ACK
6.195870750000000,80,0xD0,0x6E,Write,ACK
6.196087000000000,80,0xD0,0x80,Write,ACK
6.197133750000000,81,0xD0,0x6F,Write,ACK
6.197349750000000,81,0xD0,0x41,Write,ACK
6.197566000000000,81,0xD0,0xFF,Write,ACK
6.197782250000000,81,0xD0,0x00,Write,ACK
6.197998250000000,81,0xD0,0x00,Write,ACK
6.198214500000000,81,0xD0,0x00,Write,ACK
6.198430750000000,81,0xD0,0x00,Write,ACK
6.198647000000000,81,0xD0,0x0B,Write,ACK
6.198863000000000,81,0xD0,0x2A,Write,ACK
6.199079250000000,81,0xD0,0x00,Write,ACK
6.199295250000000,81,0xD0,0x00,Write,ACK
6.199511750000000,81,0xD0,0x16,Write,ACK
6.199727750000000,81,0xD0,0x55,Write,ACK
6.199944000000000,81,0xD0,0x00,Write,ACK
6.200160250000000,81,0xD0,0x00,Write,ACK
6.200376500000000,81,0xD0,0x21,Write,ACK
6.200592750000000,81,0xD0,0x82,Write,ACK
6.201150250000000,82,0xD0,0x6D,Write,ACK
6.201366500000000,82,0xD0,0x00,Write,ACK
6.201898000000000,83,0xD0,0x6E,Write,ACK
6.202114000000000,83,0xD0,0x80,Write,ACK
6.202648500000000,84,0xD0,0x6F,Write,ACK
6.203157000000000,85,0xD1,0x41,Read,ACK
6.203373000000000,85,0xD1,0xFF,Read,ACK
6.203589250000000,85,0xD1,0x00,Read,ACK
6.203805500000000,85,0xD1,0x00,Read,ACK
6.204021500000000,85,0xD1,0x00,Read,ACK
6.204237750000000,85,0xD1,0x00,Read,ACK
6.204453750000000,85,0xD1,0x0B,Read,ACK
6.204670000000000,85,0xD1,0x2A,Read,ACK
6.204886250000000,85,0xD1,0x00,Read,ACK
6.205102250000000,85,0xD1,0x00,Read,ACK
6.205318500000000,85,0xD1,0x16,Read,ACK
6.205534750000000,85,0xD1,0x55,Read,ACK
6.205751000000000,85,0xD1,0x00,Read,ACK
6.205967000000000,85,0xD1,0x00,Read,ACK
6.206183250000000,85,0xD1,0x21,Read,ACK
6.206399500000000,85,0xD1,0x82,Read,NAK
6.207390250000000,86,0xD0,0x6D,Write,ACK
6.207606250000000,86,0xD0,0x00,Write,ACK
6.208137750000000,87,0xD0,0x6E,Write,ACK
6.208354000000000,87,0xD0,0x90,Write,ACK
6.209401000000000,88,0xD0,0x6F,Write,ACK
6.209617000000000,88,0xD0,0xFD,Write,ACK
6.209833250000000,88,0xD0,0x87,Write,ACK
6.210049500000000,88,0xD0,0x26,Write,ACK
6.210265750000000,88,0xD0,0x50,Write,ACK
6.210482000000000,88,0xD0,0xFD,Write,ACK
6.210698000000000,88,0xD0,0x80,Write,ACK
6.210914500000000,88,0xD0,0x00,Write,ACK
6.211130750000000,88,0xD0,0x00,Write,ACK
6.211347000000000,88,0xD0,0x00,Write,ACK
6.211563000000000,88,0xD0,0x1F,Write,ACK
6.211779250000000,88,0xD0,0x00,Write,ACK
6.211995500000000,88,0xD0,0x00,Write,ACK
6.212211750000000,88,0xD0,0x00,Write,ACK
6.212428000000000,88,0xD0,0x05,Write,ACK
6.212644250000000,88,0xD0,0x80,Write,ACK
6.212860500000000,88,0xD0,0x00,Write,ACK
6.213418000000000,89,0xD0,0x6D,Write,ACK
6.213634250000000,89,0xD0,0x00,Write,ACK
6.214165750000000,90,0xD0,0x6E,Write,ACK
6.214382000000000,90,0xD0,0x90,Write,ACK
6.214916750000000,91,0xD0,0x6F,Write,ACK
6.215425000000000,92,0xD1,0xFD,Read,ACK
6.215641250000000,92,0xD1,0x87,Read,ACK
6.215857500000000,92,0xD1,0x26,Read,ACK
6.216073500000000,92,0xD1,0x50,Read,ACK
6.216289750000000,92,0xD1,0xFD,Read,ACK
6.216505750000000,92,0xD1,0x80,Read,ACK
6.216722000000000,92,0xD1,0x00,Read,ACK
6.216938000000000,92,0xD1,0x00,Read,ACK
6.217154250000000,92,0xD1,0x00,Read,ACK
6.217370250000000,92,0xD1,0x1F,Read,ACK
6.217586500000000,92,0xD1,0x00,Read,ACK
6.217802750000000,92,0xD1,0x00,Read,ACK
6.218018750000000,92,0xD1,0x00,Read,ACK
6.218235000000000,92,0xD1,0x05,Read,ACK
6.218451250000000,92,0xD1,0x80,Read,ACK
6.218667250000000,92,0xD1,0x00,Read,NAK
6.219658000000000,93,0xD0,0x6D,Write,ACK
6.219874250000000,93,0xD0,0x00,Write,ACK
6.220405500000000,94,0xD0,0x6E,Write,ACK
6.220621750000000,94,0xD0,0xA0,Write,ACK
6.221668750000000,95,0xD0,0x6F,Write,ACK
6.221884750000000,95,0xD0,0x00,Write,ACK
6.222101000000000,95,0xD0,0x00,Write,ACK
6.222317250000000,95,0xD0,0x00,Write,ACK
6.222533500000000,95,0xD0,0x00,Write,ACK
6.222749500000000,95,0xD0,0x00,Write,ACK
6.222965750000000,95,0xD0,0x01,Write,ACK
6.223182000000000,95,0xD0,0x00,Write,ACK
6.223398000000000,95,0xD0,0x00,Write,ACK
6.223614250000000,95,0xD0,0x00,Write,ACK
6.223830250000000,95,0xD0,0x02,Write,ACK
6.224046500000000,95,0xD0,0x00,Write,ACK
6.224262750000000,95,0xD0,0x00,Write,ACK
6.224478750000000,95,0xD0,0x00,Write,ACK
6.224695000000000,95,0xD0,0x03,Write,ACK
6.224911250000000,95,0xD0,0x00,Write,ACK
6.225127500000000,95,0xD0,0x00,Write,ACK
6.225684750000000,96,0xD0,0x6D,Write,ACK
6.225901000000000,96,0xD0,0x00,Write,ACK
6.226432500000000,97,0xD0,0x6E,Write,ACK
6.226648500000000,97,0xD0,0xA0,Write,ACK
6.227183000000000,98,0xD0,0x6F,Write,ACK
6.227691500000000,99,0xD1,0x00,Read,ACK
6.227907500000000,99,0xD1,0x00,Read,ACK
6.228123750000000,99,0xD1,0x00,Read,ACK
6.228339750000000,99,0xD1,0x00,Read,ACK
6.228556000000000,99,0xD1,0x00,Read,ACK
6.228772250000000,99,0xD1,0x01,Read,ACK
6.228988250000000,99,0xD1,0x00,Read,ACK
6.229204500000000,99,0xD1,0x00,Read,ACK
6.229420750000000,99,0xD1,0x00,Read,ACK
6.229636750000000,99,0xD1,0x02,Read,ACK
6.229853000000000,99,0xD1,0x00,Read,ACK
6.230069250000000,99,0xD1,0x00,Read,ACK
6.230285500000000,99,0xD1,0x00,Read,ACK
