Time [s],Packet ID,Address,Data,Read/Write,ACK/NAK
5.524652500000000,0,0xD0,0x6B,Write,ACK
5.524868750000000,0,0xD0,0x80,Write,ACK
5.554317750000000,1,0xD0,0x6B,Write,ACK
5.554534000000000,1,0xD0,0x00,Write,ACK
5.582493500000000,2,0xD0,0x6D,Write,ACK
5.582709500000000,2,0xD0,0x70,Write,ACK
5.610635000000000,3,0xD0,0x6E,Write,ACK
5.610851250000000,3,0xD0,0x06,Write,ACK
5.641909000000000,4,0xD0,0x6F,Write,ACK
5.642413250000000,5,0xD1,0xA5,Read,NAK
5.716379250000000,6,0xD0,0x6D,Write,ACK
5.716595250000000,6,0xD0,0x00,Write,ACK
5.748681250000000,7,0xD0,0x00,Write,ACK
5.749185750000000,8,0xD1,0x81,Read,NAK
5.805016750000000,9,0xD0,0x00,Write,ACK
5.805521000000000,10,0xD1,0x81,Read,NAK
5.806175500000000,11,0xD0,0x01,Write,ACK
5.806679750000000,12,0xD1,0x79,Read,NAK
5.807334250000000,13,0xD0,0x02,Write,ACK
5.807838750000000,14,0xD1,0x81,Read,NAK
5.907061750000000,15,0xD0,0x25,Write,ACK
5.907277750000000,15,0xD0,0x7F,Write,ACK
5.937310000000000,16,0xD0,0x6A,Write,ACK
5.937814500000000,17,0xD1,0x00,Read,NAK
5.938392750000000,18,0xD0,0x6A,Write,ACK
5.938609000000000,18,0xD0,0x00,Write,ACK
5.981807500000000,19,0xD0,0x25,Write,ACK
5.982023750000000,19,0xD0,0x68,Write,ACK
6.015182500000000,20,0xD0,0x6A,Write,ACK
6.015687000000000,21,0xD1,0x00,Read,NAK
6.016239250000000,22,0xD0,0x6A,Write,ACK
6.016455500000000,22,0xD0,0x02,Write,ACK
6.096662750000000,23,0xD0,0x6D,Write,ACK
6.096879000000000,23,0xD0,0x00,Write,ACK
6.097410500000000,24,0xD0,0x6E,Write,ACK
6.097626750000000,24,0xD0,0x00,Write,ACK
6.098992750000000,25,0xD0,0x6F,Write,ACK
6.099209000000000,25,0xD0,0xFB,Write,ACK
6.099425250000000,25,0xD0,0x00,Write,ACK
6.099641500000000,25,0xD0,0x00,Write,ACK
6.099857750000000,25,0xD0,0x3E,Write,ACK
6.100073750000000,25,0xD0,0x00,Write,ACK
6.100290000000000,25,0xD0,0x0B,Write,ACK
6.100506250000000,25,0xD0,0x00,Write,ACK
6.100722500000000,25,0xD0,0x36,Write,ACK
6.100938750000000,25,0xD0,0x00,Write,ACK
6.101155000000000,25,0xD0,0x01,Write,ACK
6.101371250000000,25,0xD0,0x00,Write,ACK
6.101587500000000,25,0xD0,0x02,Write,ACK
6.101803750000000,25,0xD0,0x00,Write,ACK
6.102020000000000,25,0xD0,0x03,Write,ACK
6.102236250000000,25,0xD0,0x00,Write,ACK
6.102452500000000,25,0xD0,0x00,Write,ACK
6.103010250000000,26,0xD0,0x6D,Write,ACK
6.103226500000000,26,0xD0,0x00,Write,ACK
6.103757750000000,27,0xD0,0x6E,Write,ACK
6.103974250000000,27,0xD0,0x00,Write,ACK
6.104508750000000,28,0xD0,0x6F,Write,ACK
6.105017000000000,29,0xD1,0xFB,Read,ACK
6.105233250000000,29,0xD1,0x00,Read,ACK
6.105449500000000,29,0xD1,0x00,Read,ACK
6.105665500000000,29,0xD1,0x3E,Read,ACK
6.105881750000000,29,0xD1,0x00,Read,ACK
6.106097750000000,29,0xD1,0x0B,Read,ACK
6.106314000000000,29,0xD1,0x00,Read,ACK
6.106530250000000,29,0xD1,0x36,Read,ACK
6.106746250000000,29,0xD1,0x00,Read,ACK
6.106962500000000,29,0xD1,0x01,Read,ACK
6.107178750000000,29,0xD1,0x00,Read,ACK
6.107395000000000,29,0xD1,0x02,Read,ACK
6.107611000000000,29,0xD1,0x00,Read,ACK
6.107827250000000,29,0xD1,0x03,Read,ACK
6.108043500000000,29,0xD1,0x00,Read,ACK
6.108259500000000,29,0xD1,0x00,Read,NAK
6.109250500000000,30,0xD0,0x6D,Write,ACK
6.109466500000000,30,0xD0,0x00,Write,ACK
6.109998000000000,31,0xD0,0x6E,Write,ACK
6.110214250000000,31,0xD0,0x10,Write,ACK
6.111261000000000,32,0xD0,0x6F,Write,ACK
6.111477250000000,32,0xD0,0x00,Write,ACK
6.111693500000000,32,0xD0,0x65,Write,ACK
6.111909750000000,32,0xD0,0x00,Write,ACK
6.112126000000000,32,0xD0,0x54,Write,ACK
6.112342000000000,32,0xD0,0xFF,Write,ACK
6.112558250000000,32,0xD0,0xEF,Write,ACK
6.112774500000000,32,0xD0,0x00,Write,ACK
6.112990750000000,32,0xD0,0x00,Write,ACK
6.113206750000000,32,0xD0,0xFA,Write,ACK
6.113423000000000,32,0xD0,0x80,Write,ACK
6.113639250000000,32,0xD0,0x00,Write,ACK
6.113855500000000,32,0xD0,0x0B,Write,ACK
6.114071750000000,32,0xD0,0x12,Write,ACK
6.114288000000000,32,0xD0,0x82,Write,ACK
6.114504000000000,32,0xD0,0x00,Write,ACK
6.114720250000000,32,0xD0,0x01,Write,ACK
6.115277750000000,33,0xD0,0x6D,Write,ACK
6.115494000000000,33,0xD0,0x00,Write,ACK
6.116025500000000,34,0xD0,0x6E,Write,ACK
6.116241750000000,34,0xD0,0x10,Write,ACK
6.116776250000000,35,0xD0,0x6F,Write,ACK
6.117284750000000,36,0xD1,0x00,Read,ACK
6.117500750000000,36,0xD1,0x65,Read,ACK
6.117717000000000,36,0xD1,0x00,Read,ACK
6.117933250000000,36,0xD1,0x54,Read,ACK
6.118149250000000,36,0xD1,0xFF,Read,ACK
6.118365500000000,36,0xD1,0xEF,Read,ACK
6.118581750000000,36,0xD1,0x00,Read,ACK
6.118798000000000,36,0xD1,0x00,Read,ACK
6.119014000000000,36,0xD1,0xFA,Read,ACK
6.119230250000000,36,0xD1,0x80,Read,ACK
6.119446500000000,36,0xD1,0x00,Read,ACK
6.119662750000000,36,0xD1,0x0B,Read,ACK
6.119878750000000,36,0xD1,0x12,Read,ACK
6.120094750000000,36,0xD1,0x82,Read,ACK
6.120311000000000,36,0xD1,0x00,Read,ACK
6.120527250000000,36,0xD1,0x01,Read,NAK
6.121518000000000,37,0xD0,0x6D,Write,ACK
6.121734000000000,37,0xD0,0x00,Write,ACK
6.122265500000000,38,0xD0,0x6E,Write,ACK
6.122481750000000,38,0xD0,0x20,Write,ACK
6.123528750000000,39,0xD0,0x6F,Write,ACK
6.123745000000000,39,0xD0,0x00,Write,ACK
6.123961250000000,39,0xD0,0x02,Write,ACK
6.124177500000000,39,0xD0,0x00,Write,ACK
6.124393500000000,39,0xD0,0x00,Write,ACK
6.124609750000000,39,0xD0,0x00,Write,ACK
6.124826000000000,39,0xD0,0x00,Write,ACK
6.125042250000000,39,0xD0,0x00,Write,ACK
6.125258250000000,39,0xD0,0x00,Write,ACK
6.125474500000000,39,0xD0,0x00,Write,ACK
6.125690750000000,39,0xD0,0x00,Write,ACK
6.125907000000000,39,0xD0,0x00,Write,ACK
6.126123250000000,39,0xD0,0x00,Write,ACK
6.126339500000000,39,0xD0,0x00,Write,ACK
6.126555750000000,39,0xD0,0x00,Write,ACK
6.126772000000000,39,0xD0,0x00,Write,ACK
6.126988000000000,39,0xD0,0x00,Write,ACK
6.127545500000000,40,0xD0,0x6D,Write,ACK
6.127761750000000,40,0xD0,0x00,Write,ACK
6.128293250000000,41,0xD0,0x6E,Write,ACK
6.128509750000000,41,0xD0,0x20,Write,ACK
6.129044250000000,42,0xD0,0x6F,Write,ACK
6.129552750000000,43,0xD1,0x00,Read,ACK
6.129768750000000,43,0xD1,0x02,Read,ACK
6.129985000000000,43,0xD1,0x00,Read,ACK
6.130201250000000,43,0xD1,0x00,Read,ACK
6.130417500000000,43,0xD1,0x00,Read,ACK
6.130633500000000,43,0xD1,0x00,Read,ACK
6.130849750000000,43,0xD1,0x00,Read,ACK
6.131066000000000,43,0xD1,0x00,Read,ACK
6.131282250000000,43,0xD1,0x00,Read,ACK
6.131498250000000,43,0xD1,0x00,Read,ACK
6.131714500000000,43,0xD1,0x00,Read,ACK
6.131930750000000,43,0xD1,0x00,Read,ACK
6.132147000000000,43,0xD1,0x00,Read,ACK
6.132363000000000,43,0xD1,0x00,Read,ACK
6.132579250000000,43,0xD1,0x00,Read,ACK
6.132795500000000,43,0xD1,0x00,Read,NAK
6.133786500000000,44,0xD0,0x6D,Write,ACK
6.134002500000000,44,0xD0,0x00,Write,ACK
6.134534000000000,45,0xD0,0x6E,Write,ACK
6.134750250000000,45,0xD0,0x30,Write,ACK
6.135797000000000,46,0xD0,0x6F,Write,ACK
6.136013250000000,46,0xD0,0x00,Write,ACK
6.136229500000000,46,0xD0,0x28,Write,ACK
6.136445750000000,46,0xD0,0x00,Write,ACK
6.136662000000000,46,0xD0,0x00,Write,ACK
6.136878250000000,46,0xD0,0xFF,Write,ACK
6.137094500000000,46,0xD0,0xFF,Write,ACK
6.137310750000000,46,0xD0,0x45,Write,ACK
6.137526750000000,46,0xD0,0x81,Write,ACK
6.137743000000000,46,0xD0,0xFF,Write,ACK
6.137959250000000,46,0xD0,0xFF,Write,ACK
6.138175500000000,46,0xD0,0xFA,Write,ACK
6.138391500000000,46,0xD0,0x72,Write,ACK
6.138607750000000,46,0xD0,0x00,Write,ACK
6.138824000000000,46,0xD0,0x00,Write,ACK
6.139040250000000,46,0xD0,0x00,Write,ACK
6.139256500000000,46,0xD0,0x00,Write,ACK
6.139814000000000,47,0xD0,0x6D,Write,ACK
6.140030250000000,47,0xD0,0x00,Write,ACK
6.140561750000000,48,0xD0,0x6E,Write,ACK
6.140778000000000,48,0xD0,0x30,Write,ACK
6.141312500000000,49,0xD0,0x6F,Write,ACK
6.141820750000000,50,0xD1,0x00,Read,ACK
6.142037000000000,50,0xD1,0x28,Read,ACK
6.142253250000000,50,0xD1,0x00,Read,ACK
6.142469500000000,50,0xD1,0x00,Read,ACK
6.142685500000000,50,0xD1,0xFF,Read,ACK
6.142901750000000,50,0xD1,0xFF,Read,ACK
6.143118000000000,50,0xD1,0x45,Read,ACK
6.143334250000000,50,0xD1,0x81,Read,ACK
6.143550500000000,50,0xD1,0xFF,Read,ACK
6.143766500000000,50,0xD1,0xFF,Read,ACK
6.143982750000000,50,0xD1,0xFA,Read,ACK
6.144199000000000,50,0xD1,0x72,Read,ACK
6.144415000000000,50,0xD1,0x00,Read,ACK
6.144631250000000,50,0xD1,0x00,Read,ACK
6.144847500000000,50,0xD1,0x00,Read,ACK
6.145063750000000,50,0xD1,0x00,Read,NAK
6.146054750000000,51,0xD0,0x6D,Write,ACK
6.146271000000000,51,0xD0,0x00,Write,ACK
6.146802500000000,52,0xD0,0x6E,Write,ACK
6.147018750000000,52,0xD0,0x40,Write,ACK
6.148065750000000,53,0xD0,0x6F,Write,ACK
6.148282000000000,53,0xD0,0x00,Write,ACK
6.148498000000000,53,0xD0,0x00,Write,ACK
6.148714250000000,53,0xD0,0x03,Write,ACK
6.148930500000000,53,0xD0,0xE8,Write,ACK
6.149146750000000,53,0xD0,0x00,Write,ACK
6.149363000000000,53,0xD0,0x00,Write,ACK
6.149579250000000,53,0xD0,0x00,Write,ACK
6.149795250000000,53,0xD0,0x01,Write,ACK
6.150011500000000,53,0xD0,0x00,Write,ACK
6.150227500000000,53,0xD0,0x01,Write,ACK
6.150444000000000,53,0xD0,0x7F,Write,ACK
6.150660000000000,53,0xD0,0xFF,Write,ACK
6.150876250000000,53,0xD0,0xFF,Write,ACK
6.151092500000000,53,0xD0,0xFE,Write,ACK
6.151308750000000,53,0xD0,0x80,Write,ACK
6.151524750000000,53,0xD0,0x01,Write,ACK
6.152082500000000,54,0xD0,0x6D,Write,ACK
6.152298500000000,54,0xD0,0x00,Write,ACK
6.152830000000000,55,0xD0,0x6E,Write,ACK
6.153046250000000,55,0xD0,0x40,Write,ACK
6.153580750000000,56,0xD0,0x6F,Write,ACK
6.154089250000000,57,0xD1,0x00,Read,ACK
6.154305250000000,57,0xD1,0x00,Read,ACK
6.154521500000000,57,0xD1,0x03,Read,ACK
6.154737750000000,57,0xD1,0xE8,Read,ACK
6.154953750000000,57,0xD1,0x00,Read,ACK
6.155170000000000,57,0xD1,0x00,Read,ACK
6.155386000000000,57,0xD1,0x00,Read,ACK
6.155602250000000,57,0xD1,0x01,Read,ACK
6.155818500000000,57,0xD1,0x00,Read,ACK
6.156034500000000,57,0xD1,0x01,Read,ACK
6.156250750000000,57,0xD1,0x7F,Read,ACK
6.156466750000000,57,0xD1,0xFF,Read,ACK
6.156683000000000,57,0xD1,0xFF,Read,ACK
6.156899250000000,57,0xD1,0xFE,Read,ACK
6.157115250000000,57,0xD1,0x80,Read,ACK
6.157331500000000,57,0xD1,0x01,Read,NAK
6.158322250000000,58,0xD0,0x6D,Write,ACK
6.158538250000000,58,0xD0,0x00,Write,ACK
6.159069750000000,59,0xD0,0x6E,Write,ACK
6.159286000000000,59,0xD0,0x50,Write,ACK
6.160333000000000,60,0xD0,0x6F,Write,ACK
6.160549000000000,60,0xD0,0x00,Write,ACK
6.160765250000000,60,0xD0,0x1B,Write,ACK
6.160981500000000,60,0xD0,0x00,Write,ACK
6.161197500000000,60,0xD0,0x00,Write,ACK
6.161413750000000,60,0xD0,0x00,Write,ACK
6.161630000000000,60,0xD0,0x00,Write,ACK
6.161846250000000,60,0xD0,0x00,Write,ACK
6.162062500000000,60,0xD0,0x00,Write,ACK
6.162278500000000,60,0xD0,0x00,Write,ACK
6.162494750000000,60,0xD0,0x00,Write,ACK
6.162711000000000,60,0xD0,0x00,Write,ACK
6.162927250000000,60,0xD0,0x00,Write,ACK
6.163143500000000,60,0xD0,0x00,Write,ACK
6.163359500000000,60,0xD0,0x00,Write,ACK
6.163575750000000,60,0xD0,0x00,Write,ACK
6.163792000000000,60,0xD0,0x00,Write,ACK
6.164349500000000,61,0xD0,0x6D,Write,ACK
6.164565500000000,61,0xD0,0x00,Write,ACK
6.165097000000000,62,0xD0,0x6E,Write,ACK
6.165313250000000,62,0xD0,0x50,Write,ACK
6.165847750000000,63,0xD0,0x6F,Write,ACK
6.166356000000000,64,0xD1,0x00,Read,ACK
6.166572250000000,64,0xD1,0x1B,Read,ACK
6.166788500000000,64,0xD1,0x00,Read,ACK
6.167004750000000,64,0xD1,0x00,Read,ACK
6.167220750000000,64,0xD1,0x00,Read,ACK
6.167437000000000,64,0xD1,0x00,Read,ACK
6.167653000000000,64,0xD1,0x00,Read,ACK
6.167869250000000,64,0xD1,0x00,Read,ACK
6.168085500000000,64,0xD1,0x00,Read,ACK
6.168301500000000,64,0xD1,0x00,Read,ACK
6.168517750000000,64,0xD1,0x00,Read,ACK
6.168734000000000,64,0xD1,0x00,Read,ACK
6.168950000000000,64,0xD1,0x00,Read,ACK
6.169166250000000,64,0xD1,0x00,Read,ACK
6.169382250000000,64,0xD1,0x00,Read,ACK
6.169598500000000,64,0xD1,0x00,Read,NAK
6.170589250000000,65,0xD0,0x6D,Write,ACK
6.170805500000000,65,0xD0,0x00,Write,ACK
6.171337000000000,66,0xD0,0x6E,Write,ACK
6.171553250000000,66,0xD0,0x60,Write,ACK
6.172600000000000,67,0xD0,0x6F,Write,ACK
6.172816250000000,67,0xD0,0x00,Write,ACK
6.173032500000000,67,0xD0,0x3E,Write,ACK
6.173248500000000,67,0xD0,0x03,Write,ACK
6.173464750000000,67,0xD0,0x30,Write,ACK
6.173681000000000,67,0xD0,0x40,Write,ACK
6.173897000000000,67,0xD0,0x00,Write,ACK
6.174113250000000,67,0xD0,0x00,Write,ACK
6.174329500000000,67,0xD0,0x00,Write,ACK
6.174545750000000,67,0xD0,0x02,Write,ACK
6.174761750000000,67,0xD0,0xCA,Write,ACK
6.174978000000000,67,0xD0,0xE3,Write,ACK
6.175194250000000,67,0xD0,0x09,Write,ACK
6.175410500000000,67,0xD0,0x3E,Write,ACK
6.175626500000000,67,0xD0,0x80,Write,ACK
6.175842750000000,67,0xD0,0x00,Write,ACK
6.176059000000000,67,0xD0,0x00,Write,ACK
6.176616500000000,68,0xD0,0x6D,Write,ACK
6.176832500000000,68,0xD0,0x00,Write,ACK
6.177364000000000,69,0xD0,0x6E,Write,ACK
6.177580000000000,69,0xD0,0x60,Write,ACK
6.178114750000000,70,0xD0,0x6F,Write,ACK
6.178623000000000,71,0xD1,0x00,Read,ACK
6.178839250000000,71,0xD1,0x3E,Read,ACK
6.179055250000000,71,0xD1,0x03,Read,ACK
6.179271500000000,71,0xD1,0x30,Read,ACK
6.179487750000000,71,0xD1,0x40,Read,ACK
6.179703750000000,71,0xD1,0x00,Read,ACK
6.179920000000000,71,0xD1,0x00,Read,ACK
6.180136250000000,71,0xD1,0x00,Read,ACK
6.180352250000000,71,0xD1,0x02,Read,ACK
6.180568500000000,71,0xD1,0xCA,Read,ACK
6.180784500000000,71,0xD1,0xE3,Read,ACK
6.181000750000000,71,0xD1,0x09,Read,ACK
6.181217000000000,71,0xD1,0x3E,Read,ACK
6.181433000000000,71,0xD1,0x80,Read,ACK
6.181649250000000,71,0xD1,0x00,Read,ACK
6.181865500000000,71,0xD1,0x00,Read,NAK
6.182856250000000,72,0xD0,0x6D,Write,ACK
6.183072250000000,72,0xD0,0x00,Write,ACK
6.183603750000000,73,0xD0,0x6E,Write,ACK
6.183820000000000,73,0xD0,0x70,Write,ACK
6.184866750000000,74,0xD0,0x6F,Write,ACK
6.185082750000000,74,0xD0,0x20,Write,ACK
6.185299000000000,74,0xD0,0x00,Write,ACK
6.185515250000000,74,0xD0,0x00,Write,ACK
6.185731500000000,74,0xD0,0x00,Write,ACK
6.185947750000000,74,0xD0,0x00,Write,ACK
6.186163750000000,74,0xD0,0x00,Write,ACK
6.186380000000000,74,0xD0,0x00,Write,ACK
6.186596250000000,74,0xD0,0x00,Write,ACK
6.186812250000000,74,0xD0,0x40,Write,ACK
6.187028500000000,74,0xD0,0x00,Write,ACK
6.187244750000000,74,0xD0,0x00,Write,ACK
6.187461000000000,74,0xD0,0x00,Write,ACK
6.187677000000000,74,0xD0,0x60,Write,ACK
6.187893250000000,74,0xD0,0x00,Write,ACK
6.188109500000000,74,0xD0,0x00,Write,ACK
6.188325750000000,74,0xD0,0x00,Write,ACK
6.188883000000000,75,0xD0,0x6D,Write,ACK
6.189099250000000,75,0xD0,0x00,Write,ACK
6.189630750000000,76,0xD0,0x6E,Write,ACK
6.189847000000000,76,0xD0,0x70,Write,ACK
6.190381500000000,77,0xD0,0x6F,Write,ACK
6.190890000000000,78,0xD1,0x20,Read,ACK
6.191106000000000,78,0xD1,0x00,Read,ACK
6.191322250000000,78,0xD1,0x00,Read,ACK
6.191538500000000,78,0xD1,0x00,Read,ACK
6.191754500000000,78,0xD1,0x00,Read,ACK
6.191970750000000,78,0xD1,0x00,Read,ACK
6.192186750000000,78,0xD1,0x00,Read,ACK
6.192403000000000,78,0xD1,0x00,Read,ACK
6.192619250000000,78,0xD1,0x40,Read,ACK
6.192835250000000,78,0xD1,0x00,Read,ACK
6.193051500000000,78,0xD1,0x00,Read,ACK
6.193267750000000,78,0xD1,0x00,Read,ACK
6.193483750000000,78,0xD1,0x60,Read,ACK
6.193700000000000,78,0xD1,0x00,Read,ACK
6.193916250000000,78,0xD1,0x00,Read,ACK
6.194132500000000,78,0xD1,0x00,Read,NAK
6.195123250000000,79,0xD0,0x6D,Write,ACK
6.195339250000000,79,0xD0,0x00,Write,ACK
6.195870750000000,80,0xD0,0x6E,Write,ACK
6.196087000000000,80,0xD0,0x80,Write,ACK
6.197133750000000,81,0xD0,0x6F,Write,ACK
6.197349750000000,81,0xD0,0x41,Write,ACK
6.197566000000000,81,0xD0,0xFF,Write,ACK
6.197782250000000,81,0xD0,0x00,Write,ACK
6.197998250000000,81,0xD0,0x00,Write,ACK
6.198214500000000,81,0xD0,0x00,Write,ACK
6.198430750000000,81,0xD0,0x00,Write,ACK
6.198647000000000,81,0xD0,0x0B,Write,ACK
6.198863000000000,81,0xD0,0x2A,Write,ACK
6.199079250000000,81,0xD0,0x00,Write,ACK
6.199295250000000,81,0xD0,0x00,Write,ACK
6.199511750000000,81,0xD0,0x16,Write,ACK
6.199727750000000,81,0xD0,0x55,Write,ACK
6.199944000000000,81,0xD0,0x00,Write,ACK
6.200160250000000,81,0xD0,0x00,Write,ACK
6.200376500000000,81,0xD0,0x21,Write,ACK
6.200592750000000,81,0xD0,0x82,Write,ACK
6.201150250000000,82,0xD0,0x6D,Write,ACK
6.201366500000000,82,0xD0,0x00,Write,ACK
6.201898000000000,83,0xD0,0x6E,Write,ACK
6.202114000000000,83,0xD0,0x80,Write,ACK
6.202648500000000,84,0xD0,0x6F,Write,ACK
6.203157000000000,85,0xD1,0x41,Read,ACK
6.203373000000000,85,0xD1,0xFF,Read,ACK
6.203589250000000,85,0xD1,0x00,Read,ACK
6.203805500000000,85,0xD1,0x00,Read,ACK
6.204021500000000,85,0xD1,0x00,Read,ACK
6.204237750000000,85,0xD1,0x00,Read,ACK
6.204453750000000,85,0xD1,0x0B,Read,ACK
6.204670000000000,85,0xD1,0x2A,Read,ACK
6.204886250000000,85,0xD1,0x00,Read,ACK
6.205102250000000,85,0xD1,0x00,Read,ACK
6.205318500000000,85,0xD1,0x16,Read,ACK
6.205534750000000,85,0xD1,0x55,Read,ACK
6.205751000000000,85,0xD1,0x00,Read,ACK
6.205967000000000,85,0xD1,0x00,Read,ACK
6.206183250000000,85,0xD1,0x21,Read,ACK
6.206399500000000,85,0xD1,0x82,Read,NAK
6.207390250000000,86,0xD0,0x6D,Write,ACK
6.207606250000000,86,0xD0,0x00,Write,ACK
6.208137750000000,87,0xD0,0x6E,Write,ACK
6.208354000000000,87,0xD0,0x90,Write,ACK
6.209401000000000,88,0xD0,0x6F,Write,ACK
6.209617000000000,88,0xD0,0xFD,Write,ACK
6.209833250000000,88,0xD0,0x87,Write,ACK
6.210049500000000,88,0xD0,0x26,Write,ACK
6.210265750000000,88,0xD0,0x50,Write,ACK
6.210482000000000,88,0xD0,0xFD,Write,ACK
6.210698000000000,88,0xD0,0x80,Write,ACK
6.210914500000000,88,0xD0,0x00,Write,ACK
6.211130750000000,88,0xD0,0x00,Write,ACK
6.211347000000000,88,0xD0,0x00,Write,ACK
6.211563000000000,88,0xD0,0x1F,Write,ACK
6.211779250000000,88,0xD0,0x00,Write,ACK
6.211995500000000,88,0xD0,0x00,Write,ACK
6.212211750000000,88,0xD0,0x00,Write,ACK
6.212428000000000,88,0xD0,0x05,Write,ACK
6.212644250000000,88,0xD0,0x80,Write,ACK
6.212860500000000,88,0xD0,0x00,Write,ACK
6.213418000000000,89,0xD0,0x6D,Write,ACK
6.213634250000000,89,0xD0,0x00,Write,ACK
6.214165750000000,90,0xD0,0x6E,Write,ACK
6.214382000000000,90,0xD0,0x90,Write,ACK
6.214916750000000,91,0xD0,0x6F,Write,ACK
6.215425000000000,92,0xD1,0xFD,Read,ACK
6.215641250000000,92,0xD1,0x87,Read,ACK
6.215857500000000,92,0xD1,0x26,Read,ACK
6.216073500000000,92,0xD1,0x50,Read,ACK
6.216289750000000,92,0xD1,0xFD,Read,ACK
6.216505750000000,92,0xD1,0x80,Read,ACK
6.216722000000000,92,0xD1,0x00,Read,ACK
6.216938000000000,92,0xD1,0x00,Read,ACK
6.217154250000000,92,0xD1,0x00,Read,ACK
6.217370250000000,92,0xD1,0x1F,Read,ACK
6.217586500000000,92,0xD1,0x00,Read,ACK
6.217802750000000,92,0xD1,0x00,Read,ACK
6.218018750000000,92,0xD1,0x00,Read,ACK
6.218235000000000,92,0xD1,0x05,Read,ACK
6.218451250000000,92,0xD1,0x80,Read,ACK
6.218667250000000,92,0xD1,0x00,Read,NAK
6.219658000000000,93,0xD0,0x6D,Write,ACK
6.219874250000000,93,0xD0,0x00,Write,ACK
6.220405500000000,94,0xD0,0x6E,Write,ACK
6.220621750000000,94,0xD0,0xA0,Write,ACK
6.221668750000000,95,0xD0,0x6F,Write,ACK
6.221884750000000,95,0xD0,0x00,Write,ACK
6.222101000000000,95,0xD0,0x00,Write,ACK
6.222317250000000,95,0xD0,0x00,Write,ACK
6.222533500000000,95,0xD0,0x00,Write,ACK
6.222749500000000,95,0xD0,0x00,Write,ACK
6.222965750000000,95,0xD0,0x01,Write,ACK
6.223182000000000,95,0xD0,0x00,Write,ACK
6.223398000000000,95,0xD0,0x00,Write,ACK
6.223614250000000,95,0xD0,0x00,Write,ACK
6.223830250000000,95,0xD0,0x02,Write,ACK
6.224046500000000,95,0xD0,0x00,Write,ACK
6.224262750000000,95,0xD0,0x00,Write,ACK
6.224478750000000,95,0xD0,0x00,Write,ACK
6.224695000000000,95,0xD0,0x03,Write,ACK
6.224911250000000,95,0xD0,0x00,Write,ACK
6.225127500000000,95,0xD0,0x00,Write,ACK
6.225684750000000,96,0xD0,0x6D,Write,ACK
6.225901000000000,96,0xD0,0x00,Write,ACK
6.226432500000000,97,0xD0,0x6E,Write,ACK
6.226648500000000,97,0xD0,0xA0,Write,ACK
6.227183000000000,98,0xD0,0x6F,Write,ACK
6.227691500000000,99,0xD1,0x00,Read,ACK
6.227907500000000,99,0xD1,0x00,Read,ACK
6.228123750000000,99,0xD1,0x00,Read,ACK
6.228339750000000,99,0xD1,0x00,Read,ACK
6.228556000000000,99,0xD1,0x00,Read,ACK
6.228772250000000,99,0xD1,0x01,Read,ACK
6.228988250000000,99,0xD1,0x00,Read,ACK
6.229204500000000,99,0xD1,0x00,Read,ACK
6.229420750000000,99,0xD1,0x00,Read,ACK
6.229636750000000,99,0xD1,0x02,Read,ACK
6.229853000000000,99,0xD1,0x00,Read,ACK
6.230069250000000,99,0xD1,0x00,Read,ACK
6.230285500000000,99,0xD1,0x00,Read,ACK
6.230501750000000,99,0xD1,0x03,Read,ACK
6.230717750000000,99,0xD1,0x00,Read,ACK
6.230934000000000,99,0xD1,0x00,Read,NAK
6.231924750000000,100,0xD0,0x6D,Write,ACK
6.232141000000000,100,0xD0,0x00,Write,ACK
6.232672500000000,101,0xD0,0x6E,Write,ACK
6.232888500000000,101,0xD0,0xB0,Write,ACK
6.233935500000000,102,0xD0,0x6F,Write,ACK
6.234151750000000,102,0xD0,0x40,Write,ACK
6.234368000000000,102,0xD0,0x00,Write,ACK
6.234584250000000,102,0xD0,0x00,Write,ACK
6.234800250000000,102,0xD0,0x00,Write,ACK
6.235016500000000,102,0xD0,0x00,Write,ACK
6.235232750000000,102,0xD0,0x00,Write,ACK
6.235448750000000,102,0xD0,0x04,Write,ACK
6.235665000000000,102,0xD0,0x6F,Write,ACK
6.235881250000000,102,0xD0,0x00,Write,ACK
6.236097250000000,102,0xD0,0x02,Write,ACK
6.236313500000000,102,0xD0,0x65,Write,ACK
6.236529750000000,102,0xD0,0x32,Write,ACK
6.236746000000000,102,0xD0,0x00,Write,ACK
6.236962000000000,102,0xD0,0x00,Write,ACK
6.237178250000000,102,0xD0,0x5E,Write,ACK
6.237394500000000,102,0xD0,0xC0,Write,ACK
6.237951750000000,103,0xD0,0x6D,Write,ACK
6.238168000000000,103,0xD0,0x00,Write,ACK
6.238699500000000,104,0xD0,0x6E,Write,ACK
6.238915500000000,104,0xD0,0xB0,Write,ACK
6.239450000000000,105,0xD0,0x6F,Write,ACK
6.239958500000000,106,0xD1,0x40,Read,ACK
6.240174500000000,106,0xD1,0x00,Read,ACK
6.240390750000000,106,0xD1,0x00,Read,ACK
6.240606750000000,106,0xD1,0x00,Read,ACK
6.240823000000000,106,0xD1,0x00,Read,ACK
6.241039250000000,106,0xD1,0x00,Read,ACK
6.241255250000000,106,0xD1,0x04,Read,ACK
6.241471500000000,106,0xD1,0x6F,Read,ACK
6.241687750000000,106,0xD1,0x00,Read,ACK
6.241903750000000,106,0xD1,0x02,Read,ACK
6.242119750000000,106,0xD1,0x65,Read,ACK
6.242336000000000,106,0xD1,0x32,Read,ACK
6.242552250000000,106,0xD1,0x00,Read,ACK
6.242768500000000,106,0xD1,0x00,Read,ACK
6.242984500000000,106,0xD1,0x5E,Read,ACK
6.243200750000000,106,0xD1,0xC0,Read,NAK
6.244191500000000,107,0xD0,0x6D,Write,ACK
6.244407500000000,107,0xD0,0x00,Write,ACK
6.244939000000000,108,0xD0,0x6E,Write,ACK
6.245155000000000,108,0xD0,0xC0,Write,ACK
6.246201750000000,109,0xD0,0x6F,Write,ACK
6.246418000000000,109,0xD0,0x40,Write,ACK
6.246634000000000,109,0xD0,0x00,Write,ACK
6.246850250000000,109,0xD0,0x00,Write,ACK
6.247066500000000,109,0xD0,0x00,Write,ACK
6.247282500000000,109,0xD0,0x00,Write,ACK
6.247498750000000,109,0xD0,0x00,Write,ACK
6.247714750000000,109,0xD0,0x00,Write,ACK
6.247931250000000,109,0xD0,0x00,Write,ACK
6.248147250000000,109,0xD0,0x00,Write,ACK
6.248363500000000,109,0xD0,0x00,Write,ACK
6.248579750000000,109,0xD0,0x00,Write,ACK
6.248796000000000,109,0xD0,0x00,Write,ACK
6.249012000000000,109,0xD0,0x00,Write,ACK
6.249228250000000,109,0xD0,0x00,Write,ACK
6.249444250000000,109,0xD0,0x00,Write,ACK
6.249660750000000,109,0xD0,0x00,Write,ACK
6.250218000000000,110,0xD0,0x6D,Write,ACK
6.250434250000000,110,0xD0,0x00,Write,ACK
6.250965750000000,111,0xD0,0x6E,Write,ACK
6.251181750000000,111,0xD0,0xC0,Write,ACK
6.251716250000000,112,0xD0,0x6F,Write,ACK
6.252224750000000,113,0xD1,0x40,Read,ACK
6.252441000000000,113,0xD1,0x00,Read,ACK
6.252657000000000,113,0xD1,0x00,Read,ACK
6.252873250000000,113,0xD1,0x00,Read,ACK
6.253089500000000,113,0xD1,0x00,Read,ACK
6.253305500000000,113,0xD1,0x00,Read,ACK
6.253521750000000,113,0xD1,0x00,Read,ACK
6.253737750000000,113,0xD1,0x00,Read,ACK
6.253954000000000,113,0xD1,0x00,Read,ACK
6.254170250000000,113,0xD1,0x00,Read,ACK
6.254386250000000,113,0xD1,0x00,Read,ACK
6.254602500000000,113,0xD1,0x00,Read,ACK
6.254818500000000,113,0xD1,0x00,Read,ACK
6.255034750000000,113,0xD1,0x00,Read,ACK
6.255250750000000,113,0xD1,0x00,Read,ACK
6.255467000000000,113,0xD1,0x00,Read,NAK
6.256457750000000,114,0xD0,0x6D,Write,ACK
6.256674000000000,114,0xD0,0x00,Write,ACK
6.257205250000000,115,0xD0,0x6E,Write,ACK
6.257421500000000,115,0xD0,0xD0,Write,ACK
6.258468250000000,116,0xD0,0x6F,Write,ACK
6.258684250000000,116,0xD0,0xFB,Write,ACK
6.258900250000000,116,0xD0,0x8C,Write,ACK
6.259116500000000,116,0xD0,0x6F,Write,ACK
6.259332750000000,116,0xD0,0x5D,Write,ACK
6.259548750000000,116,0xD0,0xFD,Write,ACK
6.259765000000000,116,0xD0,0x5D,Write,ACK
6.259981000000000,116,0xD0,0x08,Write,ACK
6.260197250000000,116,0xD0,0xD9,Write,ACK
6.260413500000000,116,0xD0,0x00,Write,ACK
6.260629500000000,116,0xD0,0x7C,Write,ACK
6.260845750000000,116,0xD0,0x73,Write,ACK
6.261062000000000,116,0xD0,0x3B,Write,ACK
6.261278250000000,116,0xD0,0x00,Write,ACK
6.261494250000000,116,0xD0,0x6C,Write,ACK
6.261710500000000,116,0xD0,0x12,Write,ACK
6.261926750000000,116,0xD0,0xCC,Write,ACK
6.262484250000000,117,0xD0,0x6D,Write,ACK
6.262700500000000,117,0xD0,0x00,Write,ACK
6.263231750000000,118,0xD0,0x6E,Write,ACK
6.263447750000000,118,0xD0,0xD0,Write,ACK
6.263982250000000,119,0xD0,0x6F,Write,ACK
6.264490750000000,120,0xD1,0xFB,Read,ACK
6.264707000000000,120,0xD1,0x8C,Read,ACK
6.264923000000000,120,0xD1,0x6F,Read,ACK
6.265139250000000,120,0xD1,0x5D,Read,ACK
6.265355500000000,120,0xD1,0xFD,Read,ACK
6.265571750000000,120,0xD1,0x5D,Read,ACK
6.265787750000000,120,0xD1,0x08,Read,ACK
6.266004000000000,120,0xD1,0xD9,Read,ACK
6.266220000000000,120,0xD1,0x00,Read,ACK
6.266436250000000,120,0xD1,0x7C,Read,ACK
6.266652250000000,120,0xD1,0x73,Read,ACK
6.266868500000000,120,0xD1,0x3B,Read,ACK
6.267084750000000,120,0xD1,0x00,Read,ACK
6.267300750000000,120,0xD1,0x6C,Read,ACK
6.267517000000000,120,0xD1,0x12,Read,ACK
6.267733000000000,120,0xD1,0xCC,Read,NAK
6.268724000000000,121,0xD0,0x6D,Write,ACK
6.268940250000000,121,0xD0,0x00,Write,ACK
6.269471750000000,122,0xD0,0x6E,Write,ACK
6.269687750000000,122,0xD0,0xE0,Write,ACK
6.270734750000000,123,0xD0,0x6F,Write,ACK
6.270950750000000,123,0xD0,0x32,Write,ACK
6.271167000000000,123,0xD0,0x00,Write,ACK
6.271383000000000,123,0xD0,0x13,Write,ACK
6.271599250000000,123,0xD0,0x9D,Write,ACK
6.271815500000000,123,0xD0,0x32,Write,ACK
6.272031500000000,123,0xD0,0x00,Write,ACK
6.272247750000000,123,0xD0,0xD0,Write,ACK
6.272464000000000,123,0xD0,0xD6,Write,ACK
6.272680000000000,123,0xD0,0x32,Write,ACK
6.272896250000000,123,0xD0,0x00,Write,ACK
6.273112500000000,123,0xD0,0x08,Write,ACK
6.273328750000000,123,0xD0,0x00,Write,ACK
6.273544750000000,123,0xD0,0x40,Write,ACK
6.273761000000000,123,0xD0,0x00,Write,ACK
6.273977250000000,123,0xD0,0x01,Write,ACK
6.274193500000000,123,0xD0,0xF4,Write,ACK
6.274750750000000,124,0xD0,0x6D,Write,ACK
6.274967000000000,124,0xD0,0x00,Write,ACK
6.275498250000000,125,0xD0,0x6E,Write,ACK
6.275714500000000,125,0xD0,0xE0,Write,ACK
6.276249000000000,126,0xD0,0x6F,Write,ACK
6.276757250000000,127,0xD1,0x32,Read,ACK
6.276973500000000,127,0xD1,0x00,Read,ACK
6.277189750000000,127,0xD1,0x13,Read,ACK
6.277405750000000,127,0xD1,0x9D,Read,ACK
6.277622000000000,127,0xD1,0x32,Read,ACK
6.277838250000000,127,0xD1,0x00,Read,ACK
6.278054250000000,127,0xD1,0xD0,Read,ACK
6.278270500000000,127,0xD1,0xD6,Read,ACK
6.278486750000000,127,0xD1,0x32,Read,ACK
6.278702750000000,127,0xD1,0x00,Read,ACK
6.278919000000000,127,0xD1,0x08,Read,ACK
6.279135000000000,127,0xD1,0x00,Read,ACK
6.279351250000000,127,0xD1,0x40,Read,ACK
6.279567500000000,127,0xD1,0x00,Read,ACK
6.279783500000000,127,0xD1,0x01,Read,ACK
6.279999750000000,127,0xD1,0xF4,Read,NAK
6.280990500000000,128,0xD0,0x6D,Write,ACK
6.281206750000000,128,0xD0,0x00,Write,ACK
6.281738250000000,129,0xD0,0x6E,Write,ACK
6.281954500000000,129,0xD0,0xF0,Write,ACK
6.283001250000000,130,0xD0,0x6F,Write,ACK
6.283217500000000,130,0xD0,0xFF,Write,ACK
6.283433750000000,130,0xD0,0xE6,Write,ACK
6.283649750000000,130,0xD0,0x80,Write,ACK
6.283866000000000,130,0xD0,0x79,Write,ACK
6.284082250000000,130,0xD0,0x02,Write,ACK
6.284298500000000,130,0xD0,0x00,Write,ACK
6.284514750000000,130,0xD0,0x00,Write,ACK
6.284731000000000,130,0xD0,0x00,Write,ACK
6.284947250000000,130,0xD0,0x00,Write,ACK
6.285163250000000,130,0xD0,0x00,Write,ACK
6.285379500000000,130,0xD0,0xD0,Write,ACK
6.285595750000000,130,0xD0,0xD6,Write,ACK
6.285811750000000,130,0xD0,0x00,Write,ACK
6.286028000000000,130,0xD0,0x00,Write,ACK
6.286244250000000,130,0xD0,0x27,Write,ACK
6.286460500000000,130,0xD0,0x10,Write,ACK
6.287017750000000,131,0xD0,0x6D,Write,ACK
6.287234000000000,131,0xD0,0x00,Write,ACK
6.287765500000000,132,0xD0,0x6E,Write,ACK
6.287981500000000,132,0xD0,0xF0,Write,ACK
6.288516000000000,133,0xD0,0x6F,Write,ACK
6.289024500000000,134,0xD1,0xFF,Read,ACK
6.289240750000000,134,0xD1,0xE6,Read,ACK
6.289456750000000,134,0xD1,0x80,Read,ACK
6.289673000000000,134,0xD1,0x79,Read,ACK
6.289889250000000,134,0xD1,0x02,Read,ACK
6.290105250000000,134,0xD1,0x00,Read,ACK
6.290321500000000,134,0xD1,0x00,Read,ACK
6.290537500000000,134,0xD1,0x00,Read,ACK
6.290753750000000,134,0xD1,0x00,Read,ACK
6.290970000000000,134,0xD1,0x00,Read,ACK
6.291186250000000,134,0xD1,0xD0,Read,ACK
6.291402250000000,134,0xD1,0xD6,Read,ACK
6.291618500000000,134,0xD1,0x00,Read,ACK
6.291834750000000,134,0xD1,0x00,Read,ACK
6.292050750000000,134,0xD1,0x27,Read,ACK
6.292267000000000,134,0xD1,0x10,Read,NAK
6.293259000000000,135,0xD0,0x6D,Write,ACK
6.293475250000000,135,0xD0,0x01,Write,ACK
6.294006750000000,136,0xD0,0x6E,Write,ACK
6.294222750000000,136,0xD0,0x00,Write,ACK
6.295269750000000,137,0xD0,0x6F,Write,ACK
6.295485750000000,137,0xD0,0xFB,Write,ACK
6.295702000000000,137,0xD0,0x00,Write,ACK
6.295918000000000,137,0xD0,0x00,Write,ACK
6.296134250000000,137,0xD0,0x00,Write,ACK
6.296350250000000,137,0xD0,0x40,Write,ACK
6.296566500000000,137,0xD0,0x00,Write,ACK
6.296782500000000,137,0xD0,0x00,Write,ACK
6.296998750000000,137,0xD0,0x00,Write,ACK
6.297215000000000,137,0xD0,0x00,Write,ACK
6.297431000000000,137,0xD0,0x00,Write,ACK
6.297647250000000,137,0xD0,0x00,Write,ACK
6.297863500000000,137,0xD0,0x00,Write,ACK
6.298079750000000,137,0xD0,0x00,Write,ACK
6.298296000000000,137,0xD0,0x00,Write,ACK
6.298512250000000,137,0xD0,0x00,Write,ACK
6.298728500000000,137,0xD0,0x00,Write,ACK
6.299285750000000,138,0xD0,0x6D,Write,ACK
6.299502000000000,138,0xD0,0x01,Write,ACK
6.300033500000000,139,0xD0,0x6E,Write,ACK
6.300249750000000,139,0xD0,0x00,Write,ACK
6.300784250000000,140,0xD0,0x6F,Write,ACK
6.301292750000000,141,0xD1,0xFB,Read,ACK
6.301509000000000,141,0xD1,0x00,Read,ACK
6.301725000000000,141,0xD1,0x00,Read,ACK
6.301941250000000,141,0xD1,0x00,Read,ACK
6.302157500000000,141,0xD1,0x40,Read,ACK
6.302373500000000,141,0xD1,0x00,Read,ACK
6.302589750000000,141,0xD1,0x00,Read,ACK
6.302805750000000,141,0xD1,0x00,Read,ACK
6.303022000000000,141,0xD1,0x00,Read,ACK
6.303238250000000,141,0xD1,0x00,Read,ACK
6.303454250000000,141,0xD1,0x00,Read,ACK
6.303670500000000,141,0xD1,0x00,Read,ACK
6.303886750000000,141,0xD1,0x00,Read,ACK
6.304102750000000,141,0xD1,0x00,Read,ACK
6.304319000000000,141,0xD1,0x00,Read,ACK
6.304535000000000,141,0xD1,0x00,Read,NAK
6.305525750000000,142,0xD0,0x6D,Write,ACK
6.305742000000000,142,0xD0,0x01,Write,ACK
6.306273500000000,143,0xD0,0x6E,Write,ACK
6.306489750000000,143,0xD0,0x10,Write,ACK
6.307536500000000,144,0xD0,0x6F,Write,ACK
6.307752750000000,144,0xD0,0x00,Write,ACK
6.307969000000000,144,0xD0,0x00,Write,ACK
6.308185250000000,144,0xD0,0x00,Write,ACK
6.308401500000000,144,0xD0,0x01,Write,ACK
6.308617500000000,144,0xD0,0x00,Write,ACK
6.308833750000000,144,0xD0,0x00,Write,ACK
6.309049750000000,144,0xD0,0x00,Write,ACK
6.309266000000000,144,0xD0,0x00,Write,ACK
6.309482250000000,144,0xD0,0x00,Write,ACK
6.309698250000000,144,0xD0,0x00,Write,ACK
6.309914500000000,144,0xD0,0x01,Write,ACK
6.310130750000000,144,0xD0,0x00,Write,ACK
6.310347000000000,144,0xD0,0x01,Write,ACK
6.310563000000000,144,0xD0,0x00,Write,ACK
6.310779250000000,144,0xD0,0x00,Write,ACK
6.310995500000000,144,0xD0,0x00,Write,ACK
6.311553000000000,145,0xD0,0x6D,Write,ACK
6.311769000000000,145,0xD0,0x01,Write,ACK
6.312300500000000,146,0xD0,0x6E,Write,ACK
6.312516750000000,146,0xD0,0x10,Write,ACK
6.313051250000000,147,0xD0,0x6F,Write,ACK
6.313559500000000,148,0xD1,0x00,Read,ACK
6.313775750000000,148,0xD1,0x00,Read,ACK
6.313992000000000,148,0xD1,0x00,Read,ACK
6.314208000000000,148,0xD1,0x01,Read,ACK
6.314424250000000,148,0xD1,0x00,Read,ACK
6.314640500000000,148,0xD1,0x00,Read,ACK
6.314856500000000,148,0xD1,0x00,Read,ACK
6.315072750000000,148,0xD1,0x00,Read,ACK
6.315289000000000,148,0xD1,0x00,Read,ACK
6.315505250000000,148,0xD1,0x00,Read,ACK
6.315721250000000,148,0xD1,0x01,Read,ACK
6.315937500000000,148,0xD1,0x00,Read,ACK
6.316153750000000,148,0xD1,0x01,Read,ACK
6.316370000000000,148,0xD1,0x00,Read,ACK
6.316586000000000,148,0xD1,0x00,Read,ACK
6.316802250000000,148,0xD1,0x00,Read,NAK
6.317793000000000,149,0xD0,0x6D,Write,ACK
6.318009500000000,149,0xD0,0x01,Write,ACK
6.318541000000000,150,0xD0,0x6E,Write,ACK
6.318757250000000,150,0xD0,0x20,Write,ACK
6.319804000000000,151,0xD0,0x6F,Write,ACK
6.320020250000000,151,0xD0,0x00,Write,ACK
6.320236500000000,151,0xD0,0x00,Write,ACK
6.320452750000000,151,0xD0,0xFA,Write,ACK
6.320668750000000,151,0xD0,0x36,Write,ACK
6.320885000000000,151,0xD0,0xFF,Write,ACK
6.321101250000000,151,0xD0,0xBC,Write,ACK
6.321317500000000,151,0xD0,0x30,Write,ACK
6.321533500000000,151,0xD0,0x8E,Write,ACK
6.321749750000000,151,0xD0,0x00,Write,ACK
6.321966000000000,151,0xD0,0x05,Write,ACK
6.322182000000000,151,0xD0,0xFB,Write,ACK
6.322398250000000,151,0xD0,0xF0,Write,ACK
6.322614500000000,151,0xD0,0xFF,Write,ACK
6.322830500000000,151,0xD0,0xD9,Write,ACK
6.323046750000000,151,0xD0,0x5B,Write,ACK
6.323263000000000,151,0xD0,0xC8,Write,ACK
6.323820250000000,152,0xD0,0x6D,Write,ACK
6.324036500000000,152,0xD0,0x01,Write,ACK
6.324568000000000,153,0xD0,0x6E,Write,ACK
6.324784250000000,153,0xD0,0x20,Write,ACK
6.325318500000000,154,0xD0,0x6F,Write,ACK
6.325827000000000,155,0xD1,0x00,Read,ACK
6.326043250000000,155,0xD1,0x00,Read,ACK
6.326259250000000,155,0xD1,0xFA,Read,ACK
6.326475250000000,155,0xD1,0x36,Read,ACK
6.326691500000000,155,0xD1,0xFF,Read,ACK
6.326907750000000,155,0xD1,0xBC,Read,ACK
6.327123750000000,155,0xD1,0x30,Read,ACK
6.327340000000000,155,0xD1,0x8E,Read,ACK
6.327556250000000,155,0xD1,0x00,Read,ACK
6.327772500000000,155,0xD1,0x05,Read,ACK
6.327988750000000,155,0xD1,0xFB,Read,ACK
6.328204750000000,155,0xD1,0xF0,Read,ACK
6.328421000000000,155,0xD1,0xFF,Read,ACK
6.328637250000000,155,0xD1,0xD9,Read,ACK
6.328853250000000,155,0xD1,0x5B,Read,ACK
6.329069500000000,155,0xD1,0xC8,Read,NAK
6.330060250000000,156,0xD0,0x6D,Write,ACK
6.330276500000000,156,0xD0,0x01,Write,ACK
6.330808000000000,157,0xD0,0x6E,Write,ACK
6.331024250000000,157,0xD0,0x30,Write,ACK
6.332071000000000,158,0xD0,0x6F,Write,ACK
6.332287250000000,158,0xD0,0xFF,Write,ACK
6.332503500000000,158,0xD0,0xD0,Write,ACK
6.332719500000000,158,0xD0,0x9A,Write,ACK
6.332935750000000,158,0xD0,0xBE,Write,ACK
6.333152000000000,158,0xD0,0x00,Write,ACK
6.333368250000000,158,0xD0,0x00,Write,ACK
6.333584250000000,158,0xD0,0x10,Write,ACK
6.333800500000000,158,0xD0,0xA9,Write,ACK
6.334016750000000,158,0xD0,0xFF,Write,ACK
6.334233000000000,158,0xD0,0xF4,Write,ACK
6.334449000000000,158,0xD0,0x1E,Write,ACK
6.334665250000000,158,0xD0,0xB2,Write,ACK
6.334881500000000,158,0xD0,0x00,Write,ACK
6.335097750000000,158,0xD0,0xCE,Write,ACK
6.335313750000000,158,0xD0,0xBB,Write,ACK
6.335530000000000,158,0xD0,0xF7,Write,ACK
6.336087500000000,159,0xD0,0x6D,Write,ACK
6.336303750000000,159,0xD0,0x01,Write,ACK
6.336835250000000,160,0xD0,0x6E,Write,ACK
6.337051500000000,160,0xD0,0x30,Write,ACK
6.337586000000000,161,0xD0,0x6F,Write,ACK
6.338094250000000,162,0xD1,0xFF,Read,ACK
6.338310500000000,162,0xD1,0xD0,Read,ACK
6.338526750000000,162,0xD1,0x9A,Read,ACK
6.338743000000000,162,0xD1,0xBE,Read,ACK
6.338959000000000,162,0xD1,0x00,Read,ACK
6.339175250000000,162,0xD1,0x00,Read,ACK
6.339391500000000,162,0xD1,0x10,Read,ACK
6.339607500000000,162,0xD1,0xA9,Read,ACK
6.339823750000000,162,0xD1,0xFF,Read,ACK
6.340040000000000,162,0xD1,0xF4,Read,ACK
6.340256250000000,162,0xD1,0x1E,Read,ACK
6.340472250000000,162,0xD1,0xB2,Read,ACK
6.340688500000000,162,0xD1,0x00,Read,ACK
6.340904750000000,162,0xD1,0xCE,Read,ACK
6.341120750000000,162,0xD1,0xBB,Read,ACK
6.341337000000000,162,0xD1,0xF7,Read,NAK
6.342327750000000,163,0xD0,0x6D,Write,ACK
6.342543750000000,163,0xD0,0x01,Write,ACK
6.343075250000000,164,0xD0,0x6E,Write,ACK
6.343291500000000,164,0xD0,0x40,Write,ACK
6.344338500000000,165,0xD0,0x6F,Write,ACK
6.344554750000000,165,0xD0,0x00,Write,ACK
6.344771000000000,165,0xD0,0x00,Write,ACK
6.344987250000000,165,0xD0,0x00,Write,ACK
6.345203500000000,165,0xD0,0x01,Write,ACK
6.345419750000000,165,0xD0,0x00,Write,ACK
6.345635750000000,165,0xD0,0x00,Write,ACK
6.345852000000000,165,0xD0,0x00,Write,ACK
6.346068250000000,165,0xD0,0x04,Write,ACK
6.346284500000000,165,0xD0,0x00,Write,ACK
6.346500500000000,165,0xD0,0x02,Write,ACK
6.346716750000000,165,0xD0,0x00,Write,ACK
6.346933000000000,165,0xD0,0x02,Write,ACK
6.347149250000000,165,0xD0,0x02,Write,ACK
6.347365250000000,165,0xD0,0x00,Write,ACK
6.347581500000000,165,0xD0,0x00,Write,ACK
6.347797500000000,165,0xD0,0x0C,Write,ACK
6.348355000000000,166,0xD0,0x6D,Write,ACK
6.348571250000000,166,0xD0,0x01,Write,ACK
6.349102750000000,167,0xD0,0x6E,Write,ACK
6.349318750000000,167,0xD0,0x40,Write,ACK
6.349853250000000,168,0xD0,0x6F,Write,ACK
6.350361750000000,169,0xD1,0x00,Read,ACK
6.350578000000000,169,0xD1,0x00,Read,ACK
6.350794250000000,169,0xD1,0x00,Read,ACK
6.351010250000000,169,0xD1,0x01,Read,ACK
6.351226500000000,169,0xD1,0x00,Read,ACK
6.351442750000000,169,0xD1,0x00,Read,ACK
6.351658750000000,169,0xD1,0x00,Read,ACK
6.351875000000000,169,0xD1,0x04,Read,ACK
6.352091000000000,169,0xD1,0x00,Read,ACK
6.352307250000000,169,0xD1,0x02,Read,ACK
6.352523500000000,169,0xD1,0x00,Read,ACK
6.352739750000000,169,0xD1,0x02,Read,ACK
6.352955750000000,169,0xD1,0x02,Read,ACK
6.353172250000000,169,0xD1,0x00,Read,ACK
6.353388250000000,169,0xD1,0x00,Read,ACK
6.353604500000000,169,0xD1,0x0C,Read,NAK
6.354595250000000,170,0xD0,0x6D,Write,ACK
6.354811500000000,170,0xD0,0x01,Write,ACK
6.355343000000000,171,0xD0,0x6E,Write,ACK
6.355559250000000,171,0xD0,0x50,Write,ACK
6.356606000000000,172,0xD0,0x6F,Write,ACK
6.356822250000000,172,0xD0,0xFF,Write,ACK
6.357038250000000,172,0xD0,0xC2,Write,ACK
6.357254500000000,172,0xD0,0x80,Write,ACK
6.357470500000000,172,0xD0,0x00,Write,ACK
6.357686750000000,172,0xD0,0x00,Write,ACK
6.357903000000000,172,0xD0,0x01,Write,ACK
6.358119250000000,172,0xD0,0x80,Write,ACK
6.358335250000000,172,0xD0,0x00,Write,ACK
6.358551500000000,172,0xD0,0x00,Write,ACK
6.358767750000000,172,0xD0,0xCF,Write,ACK
6.358983750000000,172,0xD0,0x80,Write,ACK
6.359200000000000,172,0xD0,0x00,Write,ACK
6.359416250000000,172,0xD0,0x40,Write,ACK
6.359632250000000,172,0xD0,0x00,Write,ACK
6.359848500000000,172,0xD0,0x00,Write,ACK
6.360064750000000,172,0xD0,0x00,Write,ACK
6.360622250000000,173,0xD0,0x6D,Write,ACK
6.360838250000000,173,0xD0,0x01,Write,ACK
6.361369750000000,174,0xD0,0x6E,Write,ACK
6.361586000000000,174,0xD0,0x50,Write,ACK
6.362120500000000,175,0xD0,0x6F,Write,ACK
6.362628750000000,176,0xD1,0xFF,Read,ACK
6.362845000000000,176,0xD1,0xC2,Read,ACK
6.363061250000000,176,0xD1,0x80,Read,ACK
6.363277500000000,176,0xD1,0x00,Read,ACK
6.363493500000000,176,0xD1,0x00,Read,ACK
6.363709750000000,176,0xD1,0x01,Read,ACK
6.363926000000000,176,0xD1,0x80,Read,ACK
6.364142000000000,176,0xD1,0x00,Read,ACK
6.364358250000000,176,0xD1,0x00,Read,ACK
6.364574500000000,176,0xD1,0xCF,Read,ACK
6.364790750000000,176,0xD1,0x80,Read,ACK
6.365006750000000,176,0xD1,0x00,Read,ACK
6.365223000000000,176,0xD1,0x40,Read,ACK
6.365439250000000,176,0xD1,0x00,Read,ACK
6.365655250000000,176,0xD1,0x00,Read,ACK
6.365871500000000,176,0xD1,0x00,Read,NAK
6.366862250000000,177,0xD0,0x6D,Write,ACK
6.367078500000000,177,0xD0,0x01,Write,ACK
6.367609750000000,178,0xD0,0x6E,Write,ACK
6.367826000000000,178,0xD0,0x60,Write,ACK
6.368872750000000,179,0xD0,0x6F,Write,ACK
6.369088750000000,179,0xD0,0x00,Write,ACK
6.369305000000000,179,0xD0,0x00,Write,ACK
6.369521250000000,179,0xD0,0x00,Write,ACK
6.369737500000000,179,0xD0,0x01,Write,ACK
6.369953500000000,179,0xD0,0x00,Write,ACK
6.370169750000000,179,0xD0,0x00,Write,ACK
6.370386000000000,179,0xD0,0x00,Write,ACK
6.370602000000000,179,0xD0,0x00,Write,ACK
6.370818250000000,179,0xD0,0x00,Write,ACK
6.371034500000000,179,0xD0,0x00,Write,ACK
6.371250750000000,179,0xD0,0x06,Write,ACK
6.371466750000000,179,0xD0,0x00,Write,ACK
6.371683000000000,179,0xD0,0x00,Write,ACK
6.371899250000000,179,0xD0,0x00,Write,ACK
6.372115500000000,179,0xD0,0x00,Write,ACK
6.372331500000000,179,0xD0,0x14,Write,ACK
6.372889000000000,180,0xD0,0x6D,Write,ACK
6.373105250000000,180,0xD0,0x01,Write,ACK
6.373636750000000,181,0xD0,0x6E,Write,ACK
6.373853000000000,181,0xD0,0x60,Write,ACK
6.374387250000000,182,0xD0,0x6F,Write,ACK
6.374895750000000,183,0xD1,0x00,Read,ACK
6.375112000000000,183,0xD1,0x00,Read,ACK
6.375328250000000,183,0xD1,0x00,Read,ACK
6.375544250000000,183,0xD1,0x01,Read,ACK
6.375760500000000,183,0xD1,0x00,Read,ACK
6.375976750000000,183,0xD1,0x00,Read,ACK
6.376193000000000,183,0xD1,0x00,Read,ACK
6.376409250000000,183,0xD1,0x00,Read,ACK
6.376625250000000,183,0xD1,0x00,Read,ACK
6.376841500000000,183,0xD1,0x00,Read,ACK
6.377057500000000,183,0xD1,0x06,Read,ACK
6.377273750000000,183,0xD1,0x00,Read,ACK
6.377489750000000,183,0xD1,0x00,Read,ACK
6.377706000000000,183,0xD1,0x00,Read,ACK
6.377922250000000,183,0xD1,0x00,Read,ACK
6.378138250000000,183,0xD1,0x14,Read,NAK
6.379129250000000,184,0xD0,0x6D,Write,ACK
6.379345250000000,184,0xD0,0x01,Write,ACK
6.379876750000000,185,0xD0,0x6E,Write,ACK
6.380093000000000,185,0xD0,0x70,Write,ACK
6.381139750000000,186,0xD0,0x6F,Write,ACK
6.381356000000000,186,0xD0,0x00,Write,ACK
6.381572250000000,186,0xD0,0x00,Write,ACK
6.381788250000000,186,0xD0,0x00,Write,ACK
6.382004500000000,186,0xD0,0x00,Write,ACK
6.382220750000000,186,0xD0,0x00,Write,ACK
6.382437000000000,186,0xD0,0x00,Write,ACK
6.382653250000000,186,0xD0,0x00,Write,ACK
6.382869250000000,186,0xD0,0x00,Write,ACK
6.383085500000000,186,0xD0,0x00,Write,ACK
6.383301750000000,186,0xD0,0x00,Write,ACK
6.383518000000000,186,0xD0,0x00,Write,ACK
6.383734250000000,186,0xD0,0x00,Write,ACK
6.383950500000000,186,0xD0,0x00,Write,ACK
6.384166750000000,186,0xD0,0x00,Write,ACK
6.384382750000000,186,0xD0,0x00,Write,ACK
6.384599000000000,186,0xD0,0x00,Write,ACK
6.385156500000000,187,0xD0,0x6D,Write,ACK
6.385372750000000,187,0xD0,0x01,Write,ACK
6.385904000000000,188,0xD0,0x6E,Write,ACK
6.386120250000000,188,0xD0,0x70,Write,ACK
6.386654500000000,189,0xD0,0x6F,Write,ACK
6.387162750000000,190,0xD1,0x00,Read,ACK
6.387378750000000,190,0xD1,0x00,Read,ACK
6.387595000000000,190,0xD1,0x00,Read,ACK
6.387811000000000,190,0xD1,0x00,Read,ACK
6.388027000000000,190,0xD1,0x00,Read,ACK
6.388243250000000,190,0xD1,0x00,Read,ACK
6.388459250000000,190,0xD1,0x00,Read,ACK
6.388675500000000,190,0xD1,0x00,Read,ACK
6.388891500000000,190,0xD1,0x00,Read,ACK
6.389107750000000,190,0xD1,0x00,Read,ACK
6.389323750000000,190,0xD1,0x00,Read,ACK
6.389539750000000,190,0xD1,0x00,Read,ACK
6.389756000000000,190,0xD1,0x00,Read,ACK
6.389972000000000,190,0xD1,0x00,Read,ACK
6.390188250000000,190,0xD1,0x00,Read,ACK
6.390404250000000,190,0xD1,0x00,Read,NAK
6.391395000000000,191,0xD0,0x6D,Write,ACK
6.391611250000000,191,0xD0,0x01,Write,ACK
6.392142500000000,192,0xD0,0x6E,Write,ACK
6.392358750000000,192,0xD0,0x80,Write,ACK
6.393405500000000,193,0xD0,0x6F,Write,ACK
6.393621750000000,193,0xD0,0x00,Write,ACK
6.393837750000000,193,0xD0,0x00,Write,ACK
6.394054000000000,193,0xD0,0x00,Write,ACK
6.394270250000000,193,0xD0,0x00,Write,ACK
6.394486250000000,193,0xD0,0x00,Write,ACK
6.394702500000000,193,0xD0,0x00,Write,ACK
6.394918750000000,193,0xD0,0x00,Write,ACK
6.395134750000000,193,0xD0,0x00,Write,ACK
6.395351000000000,193,0xD0,0x00,Write,ACK
6.395567250000000,193,0xD0,0x00,Write,ACK
6.395783500000000,193,0xD0,0x00,Write,ACK
6.395999500000000,193,0xD0,0x00,Write,ACK
6.396216000000000,193,0xD0,0x00,Write,ACK
6.396432000000000,193,0xD0,0x00,Write,ACK
6.396648250000000,193,0xD0,0x00,Write,ACK
6.396864500000000,193,0xD0,0x00,Write,ACK
6.397421750000000,194,0xD0,0x6D,Write,ACK
6.397638000000000,194,0xD0,0x01,Write,ACK
6.398169500000000,195,0xD0,0x6E,Write,ACK
6.398385500000000,195,0xD0,0x80,Write,ACK
6.398919750000000,196,0xD0,0x6F,Write,ACK
6.399428250000000,197,0xD1,0x00,Read,ACK
6.399644250000000,197,0xD1,0x00,Read,ACK
6.399860500000000,197,0xD1,0x00,Read,ACK
6.400076500000000,197,0xD1,0x00,Read,ACK
6.400292750000000,197,0xD1,0x00,Read,ACK
6.400508750000000,197,0xD1,0x00,Read,ACK
6.400725000000000,197,0xD1,0x00,Read,ACK
6.400941000000000,197,0xD1,0x00,Read,ACK
6.401157250000000,197,0xD1,0x00,Read,ACK
6.401373250000000,197,0xD1,0x00,Read,ACK
6.401589250000000,197,0xD1,0x00,Read,ACK
6.401805500000000,197,0xD1,0x00,Read,ACK
6.402021500000000,197,0xD1,0x00,Read,ACK
6.402237750000000,197,0xD1,0x00,Read,ACK
6.402453750000000,197,0xD1,0x00,Read,ACK
6.402669750000000,197,0xD1,0x00,Read,NAK
6.403660500000000,198,0xD0,0x6D,Write,ACK
6.403876500000000,198,0xD0,0x01,Write,ACK
6.404408000000000,199,0xD0,0x6E,Write,ACK
6.404624250000000,199,0xD0,0x90,Write,ACK
6.405670750000000,200,0xD0,0x6F,Write,ACK
6.405887000000000,200,0xD0,0x00,Write,ACK
6.406103250000000,200,0xD0,0x00,Write,ACK
6.406319250000000,200,0xD0,0x00,Write,ACK
6.406535500000000,200,0xD0,0x00,Write,ACK
6.406751750000000,200,0xD0,0x00,Write,ACK
6.406968000000000,200,0xD0,0x00,Write,ACK
6.407184250000000,200,0xD0,0x00,Write,ACK
6.407400250000000,200,0xD0,0x00,Write,ACK
6.407616500000000,200,0xD0,0x00,Write,ACK
6.407832750000000,200,0xD0,0x00,Write,ACK
6.408049000000000,200,0xD0,0x00,Write,ACK
6.408265000000000,200,0xD0,0x00,Write,ACK
6.408481250000000,200,0xD0,0x00,Write,ACK
6.408697500000000,200,0xD0,0x00,Write,ACK
6.408913750000000,200,0xD0,0x00,Write,ACK
6.409130000000000,200,0xD0,0x00,Write,ACK
6.409687500000000,201,0xD0,0x6D,Write,ACK
6.409903750000000,201,0xD0,0x01,Write,ACK
6.410435250000000,202,0xD0,0x6E,Write,ACK
6.410651250000000,202,0xD0,0x90,Write,ACK
6.411185750000000,203,0xD0,0x6F,Write,ACK
6.411694250000000,204,0xD1,0x00,Read,ACK
6.411910500000000,204,0xD1,0x00,Read,ACK
6.412126750000000,204,0xD1,0x00,Read,ACK
6.412342750000000,204,0xD1,0x00,Read,ACK
6.412559000000000,204,0xD1,0x00,Read,ACK
6.412775250000000,204,0xD1,0x00,Read,ACK
6.412991500000000,204,0xD1,0x00,Read,ACK
6.413207500000000,204,0xD1,0x00,Read,ACK
6.413423750000000,204,0xD1,0x00,Read,ACK
6.413639750000000,204,0xD1,0x00,Read,ACK
6.413856000000000,204,0xD1,0x00,Read,ACK
6.414072250000000,204,0xD1,0x00,Read,ACK
6.414288500000000,204,0xD1,0x00,Read,ACK
6.414504500000000,204,0xD1,0x00,Read,ACK
6.414720750000000,204,0xD1,0x00,Read,ACK
6.414937000000000,204,0xD1,0x00,Read,NAK
6.415927750000000,205,0xD0,0x6D,Write,ACK
6.416144000000000,205,0xD0,0x01,Write,ACK
6.416675250000000,206,0xD0,0x6E,Write,ACK
6.416891500000000,206,0xD0,0xA0,Write,ACK
6.417938250000000,207,0xD0,0x6F,Write,ACK
6.418154500000000,207,0xD0,0x00,Write,ACK
6.418370750000000,207,0xD0,0x00,Write,ACK
6.418587000000000,207,0xD0,0x00,Write,ACK
6.418803000000000,207,0xD0,0x00,Write,ACK
6.419019250000000,207,0xD0,0x03,Write,ACK
6.419235500000000,207,0xD0,0x3F,Write,ACK
6.419451750000000,207,0xD0,0x68,Write,ACK
6.419667750000000,207,0xD0,0xB6,Write,ACK
6.419884000000000,207,0xD0,0x79,Write,ACK
6.420100250000000,207,0xD0,0x35,Write,ACK
6.420316250000000,207,0xD0,0x28,Write,ACK
6.420532500000000,207,0xD0,0xBC,Write,ACK
6.420748750000000,207,0xD0,0xC6,Write,ACK
6.420965000000000,207,0xD0,0x7E,Write,ACK
6.421181250000000,207,0xD0,0xD1,Write,ACK
6.421397250000000,207,0xD0,0x6C,Write,ACK
6.421955000000000,208,0xD0,0x6D,Write,ACK
6.422171250000000,208,0xD0,0x01,Write,ACK
6.422702750000000,209,0xD0,0x6E,Write,ACK
6.422918750000000,209,0xD0,0xA0,Write,ACK
6.423453250000000,210,0xD0,0x6F,Write,ACK
6.423962000000000,211,0xD1,0x00,Read,ACK
6.424178000000000,211,0xD1,0x00,Read,ACK
6.424394250000000,211,0xD1,0x00,Read,ACK
6.424610500000000,211,0xD1,0x00,Read,ACK
6.424826500000000,211,0xD1,0x03,Read,ACK
6.425042750000000,211,0xD1,0x3F,Read,ACK
6.425259000000000,211,0xD1,0x68,Read,ACK
6.425475250000000,211,0xD1,0xB6,Read,ACK
6.425691250000000,211,0xD1,0x79,Read,ACK
6.425907500000000,211,0xD1,0x35,Read,ACK
6.426123750000000,211,0xD1,0x28,Read,ACK
6.426339750000000,211,0xD1,0xBC,Read,ACK
6.426556000000000,211,0xD1,0xC6,Read,ACK
6.426772000000000,211,0xD1,0x7E,Read,ACK
6.426988250000000,211,0xD1,0xD1,Read,ACK
6.427204250000000,211,0xD1,0x6C,Read,NAK
6.428195000000000,212,0xD0,0x6D,Write,ACK
6.428411000000000,212,0xD0,0x01,Write,ACK
6.428942500000000,213,0xD0,0x6E,Write,ACK
6.429158750000000,213,0xD0,0xB0,Write,ACK
6.430205250000000,214,0xD0,0x6F,Write,ACK
6.430421500000000,214,0xD0,0x80,Write,ACK
6.430637750000000,214,0xD0,0x00,Write,ACK
6.430854000000000,214,0xD0,0x00,Write,ACK
6.431070250000000,214,0xD0,0x00,Write,ACK
6.431286500000000,214,0xD0,0x40,Write,ACK
6.431502750000000,214,0xD0,0x00,Write,ACK
6.431719000000000,214,0xD0,0x00,Write,ACK
6.431935250000000,214,0xD0,0x00,Write,ACK
6.432151250000000,214,0xD0,0x00,Write,ACK
6.432367500000000,214,0xD0,0x00,Write,ACK
6.432583750000000,214,0xD0,0xB2,Write,ACK
6.432800000000000,214,0xD0,0x6A,Write,ACK
6.433016000000000,214,0xD0,0x00,Write,ACK
6.433232500000000,214,0xD0,0x00,Write,ACK
6.433448750000000,214,0xD0,0x00,Write,ACK
6.433664750000000,214,0xD0,0x00,Write,ACK
6.434222250000000,215,0xD0,0x6D,Write,ACK
6.434438500000000,215,0xD0,0x01,Write,ACK
6.434970000000000,216,0xD0,0x6E,Write,ACK
6.435186250000000,216,0xD0,0xB0,Write,ACK
6.435720500000000,217,0xD0,0x6F,Write,ACK
6.436229000000000,218,0xD1,0x80,Read,ACK
6.436445000000000,218,0xD1,0x00,Read,ACK
6.436661250000000,218,0xD1,0x00,Read,ACK
6.436877250000000,218,0xD1,0x00,Read,ACK
6.437093500000000,218,0xD1,0x40,Read,ACK
6.437309500000000,218,0xD1,0x00,Read,ACK
6.437525750000000,218,0xD1,0x00,Read,ACK
6.437742000000000,218,0xD1,0x00,Read,ACK
6.437958000000000,218,0xD1,0x00,Read,ACK
6.438174250000000,218,0xD1,0x00,Read,ACK
6.438390250000000,218,0xD1,0xB2,Read,ACK
6.438606500000000,218,0xD1,0x6A,Read,ACK
6.438822500000000,218,0xD1,0x00,Read,ACK
6.439038750000000,218,0xD1,0x00,Read,ACK
6.439255000000000,218,0xD1,0x00,Read,ACK
6.439471250000000,218,0xD1,0x00,Read,NAK
6.440461750000000,219,0xD0,0x6D,Write,ACK
6.440678000000000,219,0xD0,0x01,Write,ACK
6.441209500000000,220,0xD0,0x6E,Write,ACK
6.441425500000000,220,0xD0,0xC0,Write,ACK
6.442472250000000,221,0xD0,0x6F,Write,ACK
6.442688500000000,221,0xD0,0x00,Write,ACK
6.442904500000000,221,0xD0,0x00,Write,ACK
6.443120750000000,221,0xD0,0x00,Write,ACK
6.443337000000000,221,0xD0,0x00,Write,ACK
6.443553000000000,221,0xD0,0x00,Write,ACK
6.443769250000000,221,0xD0,0x00,Write,ACK
6.443985500000000,221,0xD0,0x00,Write,ACK
6.444201500000000,221,0xD0,0x00,Write,ACK
6.444417750000000,221,0xD0,0x00,Write,ACK
6.444634000000000,221,0xD0,0x00,Write,ACK
6.444850000000000,221,0xD0,0x3F,Write,ACK
6.445066250000000,221,0xD0,0xF0,Write,ACK
6.445282500000000,221,0xD0,0x00,Write,ACK
6.445498750000000,221,0xD0,0x00,Write,ACK
6.445715000000000,221,0xD0,0x00,Write,ACK
6.445931000000000,221,0xD0,0x30,Write,ACK
6.446488500000000,222,0xD0,0x6D,Write,ACK
6.446704750000000,222,0xD0,0x01,Write,ACK
6.447236250000000,223,0xD0,0x6E,Write,ACK
6.447452250000000,223,0xD0,0xC0,Write,ACK
6.447986750000000,224,0xD0,0x6F,Write,ACK
6.448495250000000,225,0xD1,0x00,Read,ACK
6.448711250000000,225,0xD1,0x00,Read,ACK
6.448927500000000,225,0xD1,0x00,Read,ACK
6.449143750000000,225,0xD1,0x00,Read,ACK
6.449359750000000,225,0xD1,0x00,Read,ACK
6.449576000000000,225,0xD1,0x00,Read,ACK
6.449792250000000,225,0xD1,0x00,Read,ACK
6.450008250000000,225,0xD1,0x00,Read,ACK
6.450224500000000,225,0xD1,0x00,Read,ACK
6.450440750000000,225,0xD1,0x00,Read,ACK
6.450656750000000,225,0xD1,0x3F,Read,ACK
6.450873000000000,225,0xD1,0xF0,Read,ACK
6.451089250000000,225,0xD1,0x00,Read,ACK
6.451305250000000,225,0xD1,0x00,Read,ACK
6.451521500000000,225,0xD1,0x00,Read,ACK
6.451737750000000,225,0xD1,0x30,Read,NAK
6.452728500000000,226,0xD0,0x6D,Write,ACK
6.452944750000000,226,0xD0,0x01,Write,ACK
6.453476250000000,227,0xD0,0x6E,Write,ACK
6.453692250000000,227,0xD0,0xD0,Write,ACK
6.454739250000000,228,0xD0,0x6F,Write,ACK
6.454955500000000,228,0xD0,0x00,Write,ACK
6.455171750000000,228,0xD0,0x00,Write,ACK
6.455388000000000,228,0xD0,0x00,Write,ACK
6.455604250000000,228,0xD0,0x00,Write,ACK
6.455820500000000,228,0xD0,0x00,Write,ACK
6.456036750000000,228,0xD0,0x00,Write,ACK
6.456252750000000,228,0xD0,0x00,Write,ACK
6.456469000000000,228,0xD0,0x00,Write,ACK
6.456685250000000,228,0xD0,0x00,Write,ACK
6.456901500000000,228,0xD0,0x00,Write,ACK
6.457117500000000,228,0xD0,0x00,Write,ACK
6.457333750000000,228,0xD0,0x00,Write,ACK
6.457550000000000,228,0xD0,0x00,Write,ACK
6.457766250000000,228,0xD0,0x00,Write,ACK
6.457982500000000,228,0xD0,0x00,Write,ACK
6.458198500000000,228,0xD0,0x00,Write,ACK
6.458756000000000,229,0xD0,0x6D,Write,ACK
6.458972250000000,229,0xD0,0x01,Write,ACK
6.459503500000000,230,0xD0,0x6E,Write,ACK
6.459719750000000,230,0xD0,0xD0,Write,ACK
6.460254250000000,231,0xD0,0x6F,Write,ACK
6.460762750000000,232,0xD1,0x00,Read,ACK
6.460978750000000,232,0xD1,0x00,Read,ACK
6.461195000000000,232,0xD1,0x00,Read,ACK
6.461411250000000,232,0xD1,0x00,Read,ACK
6.461627500000000,232,0xD1,0x00,Read,ACK
6.461843500000000,232,0xD1,0x00,Read,ACK
6.462059750000000,232,0xD1,0x00,Read,ACK
6.462276000000000,232,0xD1,0x00,Read,ACK
6.462492000000000,232,0xD1,0x00,Read,ACK
6.462708250000000,232,0xD1,0x00,Read,ACK
6.462924500000000,232,0xD1,0x00,Read,ACK
6.463140500000000,232,0xD1,0x00,Read,ACK
6.463356750000000,232,0xD1,0x00,Read,ACK
6.463572750000000,232,0xD1,0x00,Read,ACK
6.463789000000000,232,0xD1,0x00,Read,ACK
6.464005250000000,232,0xD1,0x00,Read,NAK
6.464995750000000,233,0xD0,0x6D,Write,ACK
6.465212000000000,233,0xD0,0x01,Write,ACK
6.465743500000000,234,0xD0,0x6E,Write,ACK
6.465959500000000,234,0xD0,0xE0,Write,ACK
6.467006250000000,235,0xD0,0x6F,Write,ACK
6.467222500000000,235,0xD0,0x00,Write,ACK
6.467438750000000,235,0xD0,0x00,Write,ACK
6.467654750000000,235,0xD0,0x00,Write,ACK
6.467871000000000,235,0xD0,0x00,Write,ACK
6.468087250000000,235,0xD0,0x00,Write,ACK
6.468303500000000,235,0xD0,0x00,Write,ACK
6.468519500000000,235,0xD0,0x00,Write,ACK
6.468735750000000,235,0xD0,0x00,Write,ACK
6.468952000000000,235,0xD0,0x00,Write,ACK
6.469168250000000,235,0xD0,0x00,Write,ACK
6.469384500000000,235,0xD0,0x00,Write,ACK
6.469600500000000,235,0xD0,0x00,Write,ACK
6.469816750000000,235,0xD0,0x00,Write,ACK
6.470033000000000,235,0xD0,0x00,Write,ACK
6.470249250000000,235,0xD0,0x00,Write,ACK
6.470465250000000,235,0xD0,0x00,Write,ACK
6.471022750000000,236,0xD0,0x6D,Write,ACK
6.471239000000000,236,0xD0,0x01,Write,ACK
6.471770250000000,237,0xD0,0x6E,Write,ACK
6.471986500000000,237,0xD0,0xE0,Write,ACK
6.472521000000000,238,0xD0,0x6F,Write,ACK
6.473029250000000,239,0xD1,0x00,Read,ACK
6.473245250000000,239,0xD1,0x00,Read,ACK
6.473461500000000,239,0xD1,0x00,Read,ACK
6.473677500000000,239,0xD1,0x00,Read,ACK
6.473893750000000,239,0xD1,0x00,Read,ACK
6.474109750000000,239,0xD1,0x00,Read,ACK
6.474326000000000,239,0xD1,0x00,Read,ACK
6.474542250000000,239,0xD1,0x00,Read,ACK
6.474758250000000,239,0xD1,0x00,Read,ACK
6.474974500000000,239,0xD1,0x00,Read,ACK
6.475190750000000,239,0xD1,0x00,Read,ACK
6.475406750000000,239,0xD1,0x00,Read,ACK
6.475623000000000,239,0xD1,0x00,Read,ACK
6.475839000000000,239,0xD1,0x00,Read,ACK
6.476055500000000,239,0xD1,0x00,Read,ACK
6.476271500000000,239,0xD1,0x00,Read,NAK
6.477262500000000,240,0xD0,0x6D,Write,ACK
6.477478500000000,240,0xD0,0x01,Write,ACK
6.478010250000000,241,0xD0,0x6E,Write,ACK
6.478226250000000,241,0xD0,0xF0,Write,ACK
6.479273250000000,242,0xD0,0x6F,Write,ACK
6.479489250000000,242,0xD0,0x00,Write,ACK
6.479705750000000,242,0xD0,0x00,Write,ACK
6.479922000000000,242,0xD0,0x25,Write,ACK
6.480138000000000,242,0xD0,0x4D,Write,ACK
6.480354250000000,242,0xD0,0x00,Write,ACK
6.480570500000000,242,0xD0,0x2F,Write,ACK
6.480786500000000,242,0xD0,0x70,Write,ACK
6.481002750000000,242,0xD0,0x6D,Write,ACK
6.481219000000000,242,0xD0,0x00,Write,ACK
6.481435500000000,242,0xD0,0x00,Write,ACK
6.481651750000000,242,0xD0,0x05,Write,ACK
6.481867750000000,242,0xD0,0xAE,Write,ACK
6.482084000000000,242,0xD0,0x00,Write,ACK
6.482300250000000,242,0xD0,0x0C,Write,ACK
6.482516500000000,242,0xD0,0x02,Write,ACK
6.482732500000000,242,0xD0,0xD0,Write,ACK
6.483290000000000,243,0xD0,0x6D,Write,ACK
6.483506000000000,243,0xD0,0x01,Write,ACK
6.484037500000000,244,0xD0,0x6E,Write,ACK
6.484253750000000,244,0xD0,0xF0,Write,ACK
6.484788250000000,245,0xD0,0x6F,Write,ACK
6.485296750000000,246,0xD1,0x00,Read,ACK
6.485512750000000,246,0xD1,0x00,Read,ACK
6.485729000000000,246,0xD1,0x25,Read,ACK
6.485945250000000,246,0xD1,0x4D,Read,ACK
6.486161250000000,246,0xD1,0x00,Read,ACK
6.486377500000000,246,0xD1,0x2F,Read,ACK
6.486593500000000,246,0xD1,0x70,Read,ACK
6.486809750000000,246,0xD1,0x6D,Read,ACK
6.487026000000000,246,0xD1,0x00,Read,ACK
6.487242000000000,246,0xD1,0x00,Read,ACK
6.487458250000000,246,0xD1,0x05,Read,ACK
6.487674250000000,246,0xD1,0xAE,Read,ACK
6.487890500000000,246,0xD1,0x00,Read,ACK
6.488106500000000,246,0xD1,0x0C,Read,ACK
6.488322750000000,246,0xD1,0x02,Read,ACK
6.488539000000000,246,0xD1,0xD0,Read,NAK
6.489530750000000,247,0xD0,0x6D,Write,ACK
6.489747000000000,247,0xD0,0x02,Write,ACK
6.490278500000000,248,0xD0,0x6E,Write,ACK
6.490494750000000,248,0xD0,0x00,Write,ACK
6.491541500000000,249,0xD0,0x6F,Write,ACK
6.491757750000000,249,0xD0,0x00,Write,ACK
6.491974000000000,249,0xD0,0x00,Write,ACK
6.492190000000000,249,0xD0,0x00,Write,ACK
6.492406250000000,249,0xD0,0x00,Write,ACK
6.492622250000000,249,0xD0,0x00,Write,ACK
6.492838500000000,249,0xD0,0x65,Write,ACK
6.493054750000000,249,0xD0,0x00,Write,ACK
6.493271000000000,249,0xD0,0x54,Write,ACK
6.493487000000000,249,0xD0,0xFF,Write,ACK
6.493703250000000,249,0xD0,0xEF,Write,ACK
6.493919500000000,249,0xD0,0x00,Write,ACK
6.494135500000000,249,0xD0,0x00,Write,ACK
6.494351750000000,249,0xD0,0x00,Write,ACK
6.494568000000000,249,0xD0,0x00,Write,ACK
6.494784250000000,249,0xD0,0x00,Write,ACK
6.495000500000000,249,0xD0,0x00,Write,ACK
6.495558000000000,250,0xD0,0x6D,Write,ACK
6.495774250000000,250,0xD0,0x02,Write,ACK
6.496305500000000,251,0xD0,0x6E,Write,ACK
6.496521750000000,251,0xD0,0x00,Write,ACK
6.497056250000000,252,0xD0,0x6F,Write,ACK
6.497564500000000,253,0xD1,0x00,Read,ACK
6.497780750000000,253,0xD1,0x00,Read,ACK
6.497997000000000,253,0xD1,0x00,Read,ACK
6.498213250000000,253,0xD1,0x00,Read,ACK
6.498429500000000,253,0xD1,0x00,Read,ACK
6.498645500000000,253,0xD1,0x65,Read,ACK
6.498861750000000,253,0xD1,0x00,Read,ACK
6.499078000000000,253,0xD1,0x54,Read,ACK
6.499294250000000,253,0xD1,0xFF,Read,ACK
6.499510250000000,253,0xD1,0xEF,Read,ACK
6.499726500000000,253,0xD1,0x00,Read,ACK
6.499942750000000,253,0xD1,0x00,Read,ACK
6.500158750000000,253,0xD1,0x00,Read,ACK
6.500375000000000,253,0xD1,0x00,Read,ACK
6.500591250000000,253,0xD1,0x00,Read,ACK
6.500807500000000,253,0xD1,0x00,Read,NAK
6.501798250000000,254,0xD0,0x6D,Write,ACK
6.502014500000000,254,0xD0,0x02,Write,ACK
6.502545750000000,255,0xD0,0x6E,Write,ACK
6.502762000000000,255,0xD0,0x10,Write,ACK
6.503808750000000,256,0xD0,0x6F,Write,ACK
6.504025000000000,256,0xD0,0x00,Write,ACK
6.504241000000000,256,0xD0,0x00,Write,ACK
6.504457250000000,256,0xD0,0x01,Write,ACK
6.504673500000000,256,0xD0,0x00,Write,ACK
6.504889500000000,256,0xD0,0x00,Write,ACK
6.505105750000000,256,0xD0,0x44,Write,ACK
6.505322000000000,256,0xD0,0x00,Write,ACK
6.505538250000000,256,0xD0,0x00,Write,ACK
6.505754250000000,256,0xD0,0x00,Write,ACK
6.505970500000000,256,0xD0,0x00,Write,ACK
6.506186750000000,256,0xD0,0x0C,Write,ACK
6.506402750000000,256,0xD0,0x00,Write,ACK
6.506619000000000,256,0xD0,0x00,Write,ACK
6.506835000000000,256,0xD0,0x00,Write,ACK
6.507051250000000,256,0xD0,0x01,Write,ACK
6.507267250000000,256,0xD0,0x00,Write,ACK
6.507824750000000,257,0xD0,0x6D,Write,ACK
6.508040750000000,257,0xD0,0x02,Write,ACK
6.508572250000000,258,0xD0,0x6E,Write,ACK
6.508788500000000,258,0xD0,0x10,Write,ACK
6.509322750000000,259,0xD0,0x6F,Write,ACK
6.509831250000000,260,0xD1,0x00,Read,ACK
6.510047250000000,260,0xD1,0x00,Read,ACK
6.510263500000000,260,0xD1,0x01,Read,ACK
6.510479750000000,260,0xD1,0x00,Read,ACK
6.510695750000000,260,0xD1,0x00,Read,ACK
6.510912000000000,260,0xD1,0x44,Read,ACK
6.511128250000000,260,0xD1,0x00,Read,ACK
6.511344500000000,260,0xD1,0x00,Read,ACK
6.511560750000000,260,0xD1,0x00,Read,ACK
6.511776750000000,260,0xD1,0x00,Read,ACK
6.511993000000000,260,0xD1,0x0C,Read,ACK
6.512209250000000,260,0xD1,0x00,Read,ACK
6.512425500000000,260,0xD1,0x00,Read,ACK
6.512641750000000,260,0xD1,0x00,Read,ACK
6.512857750000000,260,0xD1,0x01,Read,ACK
6.513074000000000,260,0xD1,0x00,Read,NAK
6.514065000000000,261,0xD0,0x6D,Write,ACK
6.514281000000000,261,0xD0,0x02,Write,ACK
6.514812500000000,262,0xD0,0x6E,Write,ACK
6.515028750000000,262,0xD0,0x20,Write,ACK
6.516075250000000,263,0xD0,0x6F,Write,ACK
6.516291500000000,263,0xD0,0x00,Write,ACK
6.516507500000000,263,0xD0,0x00,Write,ACK
6.516723750000000,263,0xD0,0x00,Write,ACK
6.516940000000000,263,0xD0,0x00,Write,ACK
6.517156250000000,263,0xD0,0x00,Write,ACK
6.517372250000000,263,0xD0,0x65,Write,ACK
6.517588500000000,263,0xD0,0x00,Write,ACK
6.517804750000000,263,0xD0,0x00,Write,ACK
6.518020750000000,263,0xD0,0x00,Write,ACK
6.518237000000000,263,0xD0,0x54,Write,ACK
6.518453250000000,263,0xD0,0x00,Write,ACK
6.518669250000000,263,0xD0,0x00,Write,ACK
6.518885500000000,263,0xD0,0xFF,Write,ACK
6.519101500000000,263,0xD0,0xEF,Write,ACK
6.519317750000000,263,0xD0,0x00,Write,ACK
6.519534000000000,263,0xD0,0x00,Write,ACK
6.520091500000000,264,0xD0,0x6D,Write,ACK
6.520307750000000,264,0xD0,0x02,Write,ACK
6.520839000000000,265,0xD0,0x6E,Write,ACK
6.521055250000000,265,0xD0,0x20,Write,ACK
6.521589750000000,266,0xD0,0x6F,Write,ACK
6.522098000000000,267,0xD1,0x00,Read,ACK
6.522314250000000,267,0xD1,0x00,Read,ACK
6.522530500000000,267,0xD1,0x00,Read,ACK
6.522746750000000,267,0xD1,0x00,Read,ACK
6.522962750000000,267,0xD1,0x00,Read,ACK
6.523179000000000,267,0xD1,0x65,Read,ACK
6.523395250000000,267,0xD1,0x00,Read,ACK
6.523611500000000,267,0xD1,0x00,Read,ACK
6.523827500000000,267,0xD1,0x00,Read,ACK
6.524043750000000,267,0xD1,0x54,Read,ACK
6.524259750000000,267,0xD1,0x00,Read,ACK
6.524476000000000,267,0xD1,0x00,Read,ACK
6.524692250000000,267,0xD1,0xFF,Read,ACK
6.524908500000000,267,0xD1,0xEF,Read,ACK
6.525124500000000,267,0xD1,0x00,Read,ACK
6.525340750000000,267,0xD1,0x00,Read,NAK
6.526331750000000,268,0xD0,0x6D,Write,ACK
6.526548000000000,268,0xD0,0x02,Write,ACK
6.527079500000000,269,0xD0,0x6E,Write,ACK
6.527295750000000,269,0xD0,0x30,Write,ACK
6.528342750000000,270,0xD0,0x6F,Write,ACK
6.528558750000000,270,0xD0,0x00,Write,ACK
6.528775000000000,270,0xD0,0x00,Write,ACK
6.528991250000000,270,0xD0,0x00,Write,ACK
6.529207500000000,270,0xD0,0x00,Write,ACK
6.529423750000000,270,0xD0,0x00,Write,ACK
6.529640000000000,270,0xD0,0x00,Write,ACK
6.529856250000000,270,0xD0,0x00,Write,ACK
6.530072250000000,270,0xD0,0x00,Write,ACK
6.530288500000000,270,0xD0,0x00,Write,ACK
6.530504750000000,270,0xD0,0x00,Write,ACK
6.530721000000000,270,0xD0,0x00,Write,ACK
6.530937000000000,270,0xD0,0x00,Write,ACK
6.531153250000000,270,0xD0,0x00,Write,ACK
6.531369500000000,270,0xD0,0x00,Write,ACK
6.531585750000000,270,0xD0,0x00,Write,ACK
6.531801750000000,270,0xD0,0x00,Write,ACK
6.532359500000000,271,0xD0,0x6D,Write,ACK
6.532575500000000,271,0xD0,0x02,Write,ACK
6.533107000000000,272,0xD0,0x6E,Write,ACK
6.533323250000000,272,0xD0,0x30,Write,ACK
6.533857750000000,273,0xD0,0x6F,Write,ACK
6.534366000000000,274,0xD1,0x00,Read,ACK
6.534582250000000,274,0xD1,0x00,Read,ACK
6.534798500000000,274,0xD1,0x00,Read,ACK
6.535014750000000,274,0xD1,0x00,Read,ACK
6.535230750000000,274,0xD1,0x00,Read,ACK
6.535446750000000,274,0xD1,0x00,Read,ACK
6.535663000000000,274,0xD1,0x00,Read,ACK
6.535879250000000,274,0xD1,0x00,Read,ACK
6.536095250000000,274,0xD1,0x00,Read,ACK
6.536311500000000,274,0xD1,0x00,Read,ACK
6.536527500000000,274,0xD1,0x00,Read,ACK
6.536743750000000,274,0xD1,0x00,Read,ACK
6.536960000000000,274,0xD1,0x00,Read,ACK
6.537176000000000,274,0xD1,0x00,Read,ACK
6.537392250000000,274,0xD1,0x00,Read,ACK
6.537608500000000,274,0xD1,0x00,Read,NAK
6.538599250000000,275,0xD0,0x6D,Write,ACK
6.538815250000000,275,0xD0,0x02,Write,ACK
6.539346750000000,276,0xD0,0x6E,Write,ACK
6.539563000000000,276,0xD0,0x40,Write,ACK
6.540609750000000,277,0xD0,0x6F,Write,ACK
6.540826000000000,277,0xD0,0x40,Write,ACK
6.541042000000000,277,0xD0,0x00,Write,ACK
6.541258500000000,277,0xD0,0x00,Write,ACK
6.541474500000000,277,0xD0,0x00,Write,ACK
6.541690750000000,277,0xD0,0x00,Write,ACK
6.541907000000000,277,0xD0,0x00,Write,ACK
6.542123250000000,277,0xD0,0x00,Write,ACK
6.542339250000000,277,0xD0,0x00,Write,ACK
6.542555500000000,277,0xD0,0x00,Write,ACK
6.542771750000000,277,0xD0,0x00,Write,ACK
6.542988000000000,277,0xD0,0x00,Write,ACK
6.543204250000000,277,0xD0,0x00,Write,ACK
6.543420250000000,277,0xD0,0x00,Write,ACK
6.543636500000000,277,0xD0,0x00,Write,ACK
6.543852750000000,277,0xD0,0x00,Write,ACK
6.544068750000000,277,0xD0,0x00,Write,ACK
6.544626250000000,278,0xD0,0x6D,Write,ACK
6.544842250000000,278,0xD0,0x02,Write,ACK
6.545373750000000,279,0xD0,0x6E,Write,ACK
6.545589750000000,279,0xD0,0x40,Write,ACK
6.546124250000000,280,0xD0,0x6F,Write,ACK
6.546632750000000,281,0xD1,0x40,Read,ACK
6.546849000000000,281,0xD1,0x00,Read,ACK
6.547065000000000,281,0xD1,0x00,Read,ACK
6.547281250000000,281,0xD1,0x00,Read,ACK
6.547497250000000,281,0xD1,0x00,Read,ACK
6.547713500000000,281,0xD1,0x00,Read,ACK
6.547929750000000,281,0xD1,0x00,Read,ACK
6.548146000000000,281,0xD1,0x00,Read,ACK
6.548362000000000,281,0xD1,0x00,Read,ACK
6.548578250000000,281,0xD1,0x00,Read,ACK
6.548794250000000,281,0xD1,0x00,Read,ACK
6.549010500000000,281,0xD1,0x00,Read,ACK
6.549226750000000,281,0xD1,0x00,Read,ACK
6.549442750000000,281,0xD1,0x00,Read,ACK
6.549659000000000,281,0xD1,0x00,Read,ACK
6.549875250000000,281,0xD1,0x00,Read,NAK
6.550866000000000,282,0xD0,0x6D,Write,ACK
6.551082000000000,282,0xD0,0x02,Write,ACK
6.551613500000000,283,0xD0,0x6E,Write,ACK
6.551829750000000,283,0xD0,0x50,Write,ACK
6.552876500000000,284,0xD0,0x6F,Write,ACK
6.553092500000000,284,0xD0,0x40,Write,ACK
6.553308750000000,284,0xD0,0x00,Write,ACK
6.553525000000000,284,0xD0,0x00,Write,ACK
6.553741000000000,284,0xD0,0x00,Write,ACK
6.553957250000000,284,0xD0,0x00,Write,ACK
6.554173500000000,284,0xD0,0x00,Write,ACK
6.554389500000000,284,0xD0,0x00,Write,ACK
6.554605750000000,284,0xD0,0x00,Write,ACK
6.554822000000000,284,0xD0,0x00,Write,ACK
6.555038000000000,284,0xD0,0x00,Write,ACK
6.555254250000000,284,0xD0,0x00,Write,ACK
6.555470500000000,284,0xD0,0x00,Write,ACK
6.555686750000000,284,0xD0,0x00,Write,ACK
6.555902750000000,284,0xD0,0x00,Write,ACK
6.556119000000000,284,0xD0,0x00,Write,ACK
6.556335250000000,284,0xD0,0x00,Write,ACK
6.556892750000000,285,0xD0,0x6D,Write,ACK
6.557109000000000,285,0xD0,0x02,Write,ACK
6.557640500000000,286,0xD0,0x6E,Write,ACK
6.557856500000000,286,0xD0,0x50,Write,ACK
6.558391000000000,287,0xD0,0x6F,Write,ACK
6.558899500000000,288,0xD1,0x40,Read,ACK
6.559115750000000,288,0xD1,0x00,Read,ACK
6.559331750000000,288,0xD1,0x00,Read,ACK
6.559548000000000,288,0xD1,0x00,Read,ACK
6.559764250000000,288,0xD1,0x00,Read,ACK
6.559980500000000,288,0xD1,0x00,Read,ACK
6.560196500000000,288,0xD1,0x00,Read,ACK
6.560412750000000,288,0xD1,0x00,Read,ACK
6.560629000000000,288,0xD1,0x00,Read,ACK
6.560845000000000,288,0xD1,0x00,Read,ACK
6.561061250000000,288,0xD1,0x00,Read,ACK
6.561277500000000,288,0xD1,0x00,Read,ACK
6.561493500000000,288,0xD1,0x00,Read,ACK
6.561709750000000,288,0xD1,0x00,Read,ACK
6.561925750000000,288,0xD1,0x00,Read,ACK
6.562142000000000,288,0xD1,0x00,Read,NAK
6.563132750000000,289,0xD0,0x6D,Write,ACK
6.563349000000000,289,0xD0,0x02,Write,ACK
6.563880500000000,290,0xD0,0x6E,Write,ACK
6.564096750000000,290,0xD0,0x60,Write,ACK
6.565143500000000,291,0xD0,0x6F,Write,ACK
6.565359500000000,291,0xD0,0x00,Write,ACK
6.565575750000000,291,0xD0,0x00,Write,ACK
6.565792000000000,291,0xD0,0x00,Write,ACK
6.566008250000000,291,0xD0,0x01,Write,ACK
6.566224250000000,291,0xD0,0x00,Write,ACK
6.566440500000000,291,0xD0,0x00,Write,ACK
6.566656750000000,291,0xD0,0x00,Write,ACK
6.566872750000000,291,0xD0,0x02,Write,ACK
6.567089000000000,291,0xD0,0x00,Write,ACK
6.567305000000000,291,0xD0,0x00,Write,ACK
6.567521250000000,291,0xD0,0x00,Write,ACK
6.567737500000000,291,0xD0,0x00,Write,ACK
6.567953750000000,291,0xD0,0x00,Write,ACK
6.568169750000000,291,0xD0,0x00,Write,ACK
6.568386000000000,291,0xD0,0x00,Write,ACK
6.568602250000000,291,0xD0,0x00,Write,ACK
6.569159500000000,292,0xD0,0x6D,Write,ACK
6.569375750000000,292,0xD0,0x02,Write,ACK
6.569907000000000,293,0xD0,0x6E,Write,ACK
6.570123250000000,293,0xD0,0x60,Write,ACK
6.570657500000000,294,0xD0,0x6F,Write,ACK
6.571165750000000,295,0xD1,0x00,Read,ACK
6.571382000000000,295,0xD1,0x00,Read,ACK
6.571598000000000,295,0xD1,0x00,Read,ACK
6.571814250000000,295,0xD1,0x01,Read,ACK
6.572030500000000,295,0xD1,0x00,Read,ACK
6.572246500000000,295,0xD1,0x00,Read,ACK
6.572462750000000,295,0xD1,0x00,Read,ACK
6.572679000000000,295,0xD1,0x02,Read,ACK
6.572895000000000,295,0xD1,0x00,Read,ACK
6.573111250000000,295,0xD1,0x00,Read,ACK
6.573327250000000,295,0xD1,0x00,Read,ACK
6.573543500000000,295,0xD1,0x00,Read,ACK
6.573759500000000,295,0xD1,0x00,Read,ACK
6.573975750000000,295,0xD1,0x00,Read,ACK
6.574191750000000,295,0xD1,0x00,Read,ACK
6.574408000000000,295,0xD1,0x00,Read,NAK
6.575399000000000,296,0xD0,0x6D,Write,ACK
6.575615000000000,296,0xD0,0x02,Write,ACK
6.576146500000000,297,0xD0,0x6E,Write,ACK
6.576362750000000,297,0xD0,0x70,Write,ACK
6.577409750000000,298,0xD0,0x6F,Write,ACK
6.577626000000000,298,0xD0,0x00,Write,ACK
6.577842000000000,298,0xD0,0x00,Write,ACK
6.578058250000000,298,0xD0,0x00,Write,ACK
6.578274500000000,298,0xD0,0x00,Write,ACK
6.578490750000000,298,0xD0,0x00,Write,ACK
6.578706750000000,298,0xD0,0x00,Write,ACK
6.578923000000000,298,0xD0,0x00,Write,ACK
6.579139250000000,298,0xD0,0x00,Write,ACK
6.579355500000000,298,0xD0,0x00,Write,ACK
6.579571500000000,298,0xD0,0x00,Write,ACK
6.579787750000000,298,0xD0,0x00,Write,ACK
6.580004000000000,298,0xD0,0x00,Write,ACK
6.580220000000000,298,0xD0,0x00,Write,ACK
6.580436250000000,298,0xD0,0x00,Write,ACK
6.580652500000000,298,0xD0,0x00,Write,ACK
6.580868750000000,298,0xD0,0x00,Write,ACK
6.581426250000000,299,0xD0,0x6D,Write,ACK
6.581642500000000,299,0xD0,0x02,Write,ACK
6.582174000000000,300,0xD0,0x6E,Write,ACK
6.582390250000000,300,0xD0,0x70,Write,ACK
6.582924500000000,301,0xD0,0x6F,Write,ACK
6.583433000000000,302,0xD1,0x00,Read,ACK
6.583649250000000,302,0xD1,0x00,Read,ACK
6.583865250000000,302,0xD1,0x00,Read,ACK
6.584081500000000,302,0xD1,0x00,Read,ACK
6.584297750000000,302,0xD1,0x00,Read,ACK
6.584513750000000,302,0xD1,0x00,Read,ACK
6.584730000000000,302,0xD1,0x00,Read,ACK
6.584946000000000,302,0xD1,0x00,Read,ACK
6.585162250000000,302,0xD1,0x00,Read,ACK
6.585378500000000,302,0xD1,0x00,Read,ACK
6.585594750000000,302,0xD1,0x00,Read,ACK
6.585811000000000,302,0xD1,0x00,Read,ACK
6.586027000000000,302,0xD1,0x00,Read,ACK
6.586243250000000,302,0xD1,0x00,Read,ACK
6.586459500000000,302,0xD1,0x00,Read,ACK
6.586675750000000,302,0xD1,0x00,Read,NAK
6.587666750000000,303,0xD0,0x6D,Write,ACK
6.587882750000000,303,0xD0,0x02,Write,ACK
6.588414250000000,304,0xD0,0x6E,Write,ACK
6.588630500000000,304,0xD0,0x80,Write,ACK
6.589677250000000,305,0xD0,0x6F,Write,ACK
6.589893500000000,305,0xD0,0x00,Write,ACK
6.590109500000000,305,0xD0,0x00,Write,ACK
6.590325750000000,305,0xD0,0x00,Write,ACK
6.590542000000000,305,0xD0,0x00,Write,ACK
6.590758250000000,305,0xD0,0x00,Write,ACK
6.590974250000000,305,0xD0,0x00,Write,ACK
6.591190750000000,305,0xD0,0x00,Write,ACK
6.591407000000000,305,0xD0,0x00,Write,ACK
6.591623250000000,305,0xD0,0x00,Write,ACK
6.591839250000000,305,0xD0,0x00,Write,ACK
6.592055750000000,305,0xD0,0x00,Write,ACK
6.592272000000000,305,0xD0,0x00,Write,ACK
6.592488000000000,305,0xD0,0x00,Write,ACK
6.592704250000000,305,0xD0,0x00,Write,ACK
6.592920500000000,305,0xD0,0x00,Write,ACK
6.593136750000000,305,0xD0,0x00,Write,ACK
6.593694500000000,306,0xD0,0x6D,Write,ACK
6.593910750000000,306,0xD0,0x02,Write,ACK
6.594442250000000,307,0xD0,0x6E,Write,ACK
6.594658500000000,307,0xD0,0x80,Write,ACK
6.595193000000000,308,0xD0,0x6F,Write,ACK
6.595701250000000,309,0xD1,0x00,Read,ACK
6.595917500000000,309,0xD1,0x00,Read,ACK
6.596133750000000,309,0xD1,0x00,Read,ACK
6.596349750000000,309,0xD1,0x00,Read,ACK
6.596566000000000,309,0xD1,0x00,Read,ACK
6.596782250000000,309,0xD1,0x00,Read,ACK
6.596998500000000,309,0xD1,0x00,Read,ACK
6.597214500000000,309,0xD1,0x00,Read,ACK
6.597430750000000,309,0xD1,0x00,Read,ACK
6.597647000000000,309,0xD1,0x00,Read,ACK
6.597863250000000,309,0xD1,0x00,Read,ACK
6.598079250000000,309,0xD1,0x00,Read,ACK
6.598295500000000,309,0xD1,0x00,Read,ACK
6.598511750000000,309,0xD1,0x00,Read,ACK
6.598727750000000,309,0xD1,0x00,Read,ACK
6.598944000000000,309,0xD1,0x00,Read,NAK
6.599934750000000,310,0xD0,0x6D,Write,ACK
6.600150750000000,310,0xD0,0x02,Write,ACK
6.600682000000000,311,0xD0,0x6E,Write,ACK
6.600898250000000,311,0xD0,0x90,Write,ACK
6.601944750000000,312,0xD0,0x6F,Write,ACK
6.602161000000000,312,0xD0,0x00,Write,ACK
6.602377000000000,312,0xD0,0x1B,Write,ACK
6.602593250000000,312,0xD0,0x00,Write,ACK
6.602809500000000,312,0xD0,0x00,Write,ACK
6.603025500000000,312,0xD0,0x00,Write,ACK
6.603241750000000,312,0xD0,0x00,Write,ACK
6.603458000000000,312,0xD0,0x00,Write,ACK
6.603674000000000,312,0xD0,0x00,Write,ACK
6.603890250000000,312,0xD0,0x00,Write,ACK
6.604106500000000,312,0xD0,0x00,Write,ACK
6.604322750000000,312,0xD0,0x00,Write,ACK
6.604539000000000,312,0xD0,0x00,Write,ACK
6.604755000000000,312,0xD0,0x00,Write,ACK
6.604971250000000,312,0xD0,0x00,Write,ACK
6.605187500000000,312,0xD0,0x00,Write,ACK
6.605403750000000,312,0xD0,0x00,Write,ACK
6.605961000000000,313,0xD0,0x6D,Write,ACK
6.606177250000000,313,0xD0,0x02,Write,ACK
6.606708750000000,314,0xD0,0x6E,Write,ACK
6.606924750000000,314,0xD0,0x90,Write,ACK
6.607459250000000,315,0xD0,0x6F,Write,ACK
6.607967750000000,316,0xD1,0x00,Read,ACK
6.608183750000000,316,0xD1,0x1B,Read,ACK
6.608400000000000,316,0xD1,0x00,Read,ACK
6.608616250000000,316,0xD1,0x00,Read,ACK
6.608832500000000,316,0xD1,0x00,Read,ACK
6.609048750000000,316,0xD1,0x00,Read,ACK
6.609264750000000,316,0xD1,0x00,Read,ACK
6.609481000000000,316,0xD1,0x00,Read,ACK
6.609697250000000,316,0xD1,0x00,Read,ACK
6.609913250000000,316,0xD1,0x00,Read,ACK
6.610129500000000,316,0xD1,0x00,Read,ACK
6.610345500000000,316,0xD1,0x00,Read,ACK
6.610561750000000,316,0xD1,0x00,Read,ACK
6.610778000000000,316,0xD1,0x00,Read,ACK
6.610994000000000,316,0xD1,0x00,Read,ACK
6.611210250000000,316,0xD1,0x00,Read,NAK
6.612201000000000,317,0xD0,0x6D,Write,ACK
6.612417250000000,317,0xD0,0x02,Write,ACK
6.612948500000000,318,0xD0,0x6E,Write,ACK
6.613164750000000,318,0xD0,0xA0,Write,ACK
6.614211500000000,319,0xD0,0x6F,Write,ACK
6.614427750000000,319,0xD0,0x00,Write,ACK
6.614644000000000,319,0xD0,0x00,Write,ACK
6.614860000000000,319,0xD0,0x00,Write,ACK
6.615076250000000,319,0xD0,0x00,Write,ACK
6.615292500000000,319,0xD0,0x00,Write,ACK
6.615508500000000,319,0xD0,0x00,Write,ACK
6.615724750000000,319,0xD0,0x00,Write,ACK
6.615941000000000,319,0xD0,0x00,Write,ACK
6.616157250000000,319,0xD0,0x00,Write,ACK
6.616373500000000,319,0xD0,0x00,Write,ACK
6.616589500000000,319,0xD0,0x00,Write,ACK
6.616805750000000,319,0xD0,0x00,Write,ACK
6.617022000000000,319,0xD0,0x00,Write,ACK
6.617238250000000,319,0xD0,0x00,Write,ACK
6.617454250000000,319,0xD0,0x00,Write,ACK
6.617670750000000,319,0xD0,0x00,Write,ACK
6.618228250000000,320,0xD0,0x6D,Write,ACK
6.618444500000000,320,0xD0,0x02,Write,ACK
6.618975750000000,321,0xD0,0x6E,Write,ACK
6.619192000000000,321,0xD0,0xA0,Write,ACK
6.619726500000000,322,0xD0,0x6F,Write,ACK
6.620235000000000,323,0xD1,0x00,Read,ACK
6.620451000000000,323,0xD1,0x00,Read,ACK
6.620667250000000,323,0xD1,0x00,Read,ACK
6.620883500000000,323,0xD1,0x00,Read,ACK
6.621099750000000,323,0xD1,0x00,Read,ACK
6.621315750000000,323,0xD1,0x00,Read,ACK
6.621532000000000,323,0xD1,0x00,Read,ACK
6.621748000000000,323,0xD1,0x00,Read,ACK
6.621964250000000,323,0xD1,0x00,Read,ACK
6.622180500000000,323,0xD1,0x00,Read,ACK
6.622396500000000,323,0xD1,0x00,Read,ACK
6.622612750000000,323,0xD1,0x00,Read,ACK
6.622828750000000,323,0xD1,0x00,Read,ACK
6.623045000000000,323,0xD1,0x00,Read,ACK
6.623261000000000,323,0xD1,0x00,Read,ACK
6.623477250000000,323,0xD1,0x00,Read,NAK
6.624468000000000,324,0xD0,0x6D,Write,ACK
6.624684250000000,324,0xD0,0x02,Write,ACK
6.625215750000000,325,0xD0,0x6E,Write,ACK
6.625432000000000,325,0xD0,0xB0,Write,ACK
6.626479000000000,326,0xD0,0x6F,Write,ACK
6.626695000000000,326,0xD0,0x00,Write,ACK
6.626911250000000,326,0xD0,0x00,Write,ACK
6.627127500000000,326,0xD0,0x00,Write,ACK
6.627343750000000,326,0xD0,0x00,Write,ACK
6.627559750000000,326,0xD0,0x00,Write,ACK
6.627776000000000,326,0xD0,0x00,Write,ACK
6.627992250000000,326,0xD0,0x00,Write,ACK
6.628208500000000,326,0xD0,0x00,Write,ACK
6.628424750000000,326,0xD0,0x00,Write,ACK
6.628640750000000,326,0xD0,0x00,Write,ACK
6.628857000000000,326,0xD0,0x00,Write,ACK
6.629073250000000,326,0xD0,0x00,Write,ACK
6.629289500000000,326,0xD0,0x40,Write,ACK
6.629505500000000,326,0xD0,0x00,Write,ACK
6.629721750000000,326,0xD0,0x00,Write,ACK
6.629938000000000,326,0xD0,0x00,Write,ACK
6.630495500000000,327,0xD0,0x6D,Write,ACK
6.630711750000000,327,0xD0,0x02,Write,ACK
6.631243250000000,328,0xD0,0x6E,Write,ACK
6.631459500000000,328,0xD0,0xB0,Write,ACK
6.631994250000000,329,0xD0,0x6F,Write,ACK
6.632502500000000,330,0xD1,0x00,Read,ACK
6.632718750000000,330,0xD1,0x00,Read,ACK
6.632934750000000,330,0xD1,0x00,Read,ACK
6.633151000000000,330,0xD1,0x00,Read,ACK
6.633367000000000,330,0xD1,0x00,Read,ACK
6.633583250000000,330,0xD1,0x00,Read,ACK
6.633799250000000,330,0xD1,0x00,Read,ACK
6.634015500000000,330,0xD1,0x00,Read,ACK
6.634231750000000,330,0xD1,0x00,Read,ACK
6.634448000000000,330,0xD1,0x00,Read,ACK
6.634664000000000,330,0xD1,0x00,Read,ACK
6.634880250000000,330,0xD1,0x00,Read,ACK
6.635096500000000,330,0xD1,0x40,Read,ACK
6.635312500000000,330,0xD1,0x00,Read,ACK
6.635528750000000,330,0xD1,0x00,Read,ACK
6.635744750000000,330,0xD1,0x00,Read,NAK
6.636735500000000,331,0xD0,0x6D,Write,ACK
6.636951750000000,331,0xD0,0x02,Write,ACK
6.637483250000000,332,0xD0,0x6E,Write,ACK
6.637699500000000,332,0xD0,0xC0,Write,ACK
6.638746250000000,333,0xD0,0x6F,Write,ACK
6.638962250000000,333,0xD0,0x00,Write,ACK
6.639178500000000,333,0xD0,0x1B,Write,ACK
6.639394500000000,333,0xD0,0x00,Write,ACK
6.639610750000000,333,0xD0,0x00,Write,ACK
6.639827000000000,333,0xD0,0x00,Write,ACK
6.640043000000000,333,0xD0,0x00,Write,ACK
6.640259250000000,333,0xD0,0x00,Write,ACK
6.640475250000000,333,0xD0,0x00,Write,ACK
6.640691500000000,333,0xD0,0x00,Write,ACK
6.640907750000000,333,0xD0,0x00,Write,ACK
6.641124000000000,333,0xD0,0x00,Write,ACK
6.641340250000000,333,0xD0,0x00,Write,ACK
6.641556250000000,333,0xD0,0x00,Write,ACK
6.641772500000000,333,0xD0,0x00,Write,ACK
6.641988500000000,333,0xD0,0x00,Write,ACK
6.642204750000000,333,0xD0,0x00,Write,ACK
6.642762250000000,334,0xD0,0x6D,Write,ACK
6.642978250000000,334,0xD0,0x02,Write,ACK
6.643509750000000,335,0xD0,0x6E,Write,ACK
6.643725750000000,335,0xD0,0xC0,Write,ACK
6.644260250000000,336,0xD0,0x6F,Write,ACK
6.644768750000000,337,0xD1,0x00,Read,ACK
6.644984750000000,337,0xD1,0x1B,Read,ACK
6.645201000000000,337,0xD1,0x00,Read,ACK
6.645417000000000,337,0xD1,0x00,Read,ACK
6.645633250000000,337,0xD1,0x00,Read,ACK
6.645849500000000,337,0xD1,0x00,Read,ACK
6.646065500000000,337,0xD1,0x00,Read,ACK
6.646281750000000,337,0xD1,0x00,Read,ACK
6.646498000000000,337,0xD1,0x00,Read,ACK
6.646714000000000,337,0xD1,0x00,Read,ACK
6.646930250000000,337,0xD1,0x00,Read,ACK
6.647146250000000,337,0xD1,0x00,Read,ACK
6.647362500000000,337,0xD1,0x00,Read,ACK
6.647578500000000,337,0xD1,0x00,Read,ACK
6.647794750000000,337,0xD1,0x00,Read,ACK
6.648011000000000,337,0xD1,0x00,Read,NAK
6.649001750000000,338,0xD0,0x6D,Write,ACK
6.649218000000000,338,0xD0,0x02,Write,ACK
6.649749250000000,339,0xD0,0x6E,Write,ACK
6.649965500000000,339,0xD0,0xD0,Write,ACK
6.651012250000000,340,0xD0,0x6F,Write,ACK
6.651228500000000,340,0xD0,0x00,Write,ACK
6.651444500000000,340,0xD0,0x00,Write,ACK
6.651660750000000,340,0xD0,0x00,Write,ACK
6.651877000000000,340,0xD0,0x00,Write,ACK
6.652093250000000,340,0xD0,0x00,Write,ACK
6.652309250000000,340,0xD0,0x00,Write,ACK
6.652525500000000,340,0xD0,0x00,Write,ACK
6.652741750000000,340,0xD0,0x00,Write,ACK
6.652957750000000,340,0xD0,0x00,Write,ACK
6.653174000000000,340,0xD0,0x00,Write,ACK
6.653390250000000,340,0xD0,0x00,Write,ACK
6.653606250000000,340,0xD0,0x00,Write,ACK
6.653822500000000,340,0xD0,0x00,Write,ACK
6.654038750000000,340,0xD0,0x00,Write,ACK
6.654254750000000,340,0xD0,0x00,Write,ACK
6.654471000000000,340,0xD0,0x00,Write,ACK
6.655028250000000,341,0xD0,0x6D,Write,ACK
6.655244250000000,341,0xD0,0x02,Write,ACK
6.655775750000000,342,0xD0,0x6E,Write,ACK
6.655992000000000,342,0xD0,0xD0,Write,ACK
6.656526250000000,343,0xD0,0x6F,Write,ACK
6.657034500000000,344,0xD1,0x00,Read,ACK
6.657250500000000,344,0xD1,0x00,Read,ACK
6.657466750000000,344,0xD1,0x00,Read,ACK
6.657682750000000,344,0xD1,0x00,Read,ACK
6.657899000000000,344,0xD1,0x00,Read,ACK
6.658115000000000,344,0xD1,0x00,Read,ACK
6.658331000000000,344,0xD1,0x00,Read,ACK
6.658547000000000,344,0xD1,0x00,Read,ACK
6.658763250000000,344,0xD1,0x00,Read,ACK
6.658979250000000,344,0xD1,0x00,Read,ACK
6.659195250000000,344,0xD1,0x00,Read,ACK
6.659411500000000,344,0xD1,0x00,Read,ACK
6.659627500000000,344,0xD1,0x00,Read,ACK
6.659843750000000,344,0xD1,0x00,Read,ACK
6.660059750000000,344,0xD1,0x00,Read,ACK
6.660275750000000,344,0xD1,0x00,Read,NAK
6.661266250000000,345,0xD0,0x6D,Write,ACK
6.661482500000000,345,0xD0,0x02,Write,ACK
6.662013750000000,346,0xD0,0x6E,Write,ACK
6.662229750000000,346,0xD0,0xE0,Write,ACK
6.663276500000000,347,0xD0,0x6F,Write,ACK
6.663492500000000,347,0xD0,0x00,Write,ACK
6.663708750000000,347,0xD0,0x00,Write,ACK
6.663924750000000,347,0xD0,0x00,Write,ACK
6.664141000000000,347,0xD0,0x00,Write,ACK
6.664357250000000,347,0xD0,0x00,Write,ACK
6.664573250000000,347,0xD0,0x00,Write,ACK
6.664789500000000,347,0xD0,0x00,Write,ACK
6.665005750000000,347,0xD0,0x00,Write,ACK
6.665221750000000,347,0xD0,0x00,Write,ACK
6.665438000000000,347,0xD0,0x00,Write,ACK
6.665654000000000,347,0xD0,0x00,Write,ACK
6.665870250000000,347,0xD0,0x00,Write,ACK
6.666086500000000,347,0xD0,0x00,Write,ACK
6.666302500000000,347,0xD0,0x00,Write,ACK
6.666518750000000,347,0xD0,0x00,Write,ACK
6.666734750000000,347,0xD0,0x00,Write,ACK
6.667292250000000,348,0xD0,0x6D,Write,ACK
6.667508250000000,348,0xD0,0x02,Write,ACK
6.668039750000000,349,0xD0,0x6E,Write,ACK
6.668256000000000,349,0xD0,0xE0,Write,ACK
6.668790250000000,350,0xD0,0x6F,Write,ACK
6.669298750000000,351,0xD1,0x00,Read,ACK
6.669515000000000,351,0xD1,0x00,Read,ACK
6.669731000000000,351,0xD1,0x00,Read,ACK
6.669947250000000,351,0xD1,0x00,Read,ACK
6.670163500000000,351,0xD1,0x00,Read,ACK
6.670379500000000,351,0xD1,0x00,Read,ACK
6.670595750000000,351,0xD1,0x00,Read,ACK
6.670811750000000,351,0xD1,0x00,Read,ACK
6.671028000000000,351,0xD1,0x00,Read,ACK
6.671244250000000,351,0xD1,0x00,Read,ACK
6.671460250000000,351,0xD1,0x00,Read,ACK
6.671676500000000,351,0xD1,0x00,Read,ACK
6.671892500000000,351,0xD1,0x00,Read,ACK
6.672108750000000,351,0xD1,0x00,Read,ACK
6.672324750000000,351,0xD1,0x00,Read,ACK
6.672541000000000,351,0xD1,0x00,Read,NAK
6.673531500000000,352,0xD0,0x6D,Write,ACK
6.673747750000000,352,0xD0,0x02,Write,ACK
6.674279000000000,353,0xD0,0x6E,Write,ACK
6.674495250000000,353,0xD0,0xF0,Write,ACK
6.675542000000000,354,0xD0,0x6F,Write,ACK
6.675758250000000,354,0xD0,0x00,Write,ACK
6.675974250000000,354,0xD0,0x00,Write,ACK
6.676190500000000,354,0xD0,0x00,Write,ACK
6.676406750000000,354,0xD0,0x00,Write,ACK
6.676622750000000,354,0xD0,0x00,Write,ACK
6.676839000000000,354,0xD0,0x00,Write,ACK
6.677055250000000,354,0xD0,0x00,Write,ACK
6.677271500000000,354,0xD0,0x00,Write,ACK
6.677487750000000,354,0xD0,0x00,Write,ACK
6.677703750000000,354,0xD0,0x00,Write,ACK
6.677920000000000,354,0xD0,0x00,Write,ACK
6.678136250000000,354,0xD0,0x00,Write,ACK
6.678352500000000,354,0xD0,0x00,Write,ACK
6.678568750000000,354,0xD0,0x00,Write,ACK
6.678784750000000,354,0xD0,0x00,Write,ACK
6.679001000000000,354,0xD0,0x00,Write,ACK
6.679558500000000,355,0xD0,0x6D,Write,ACK
6.679774500000000,355,0xD0,0x02,Write,ACK
6.680306000000000,356,0xD0,0x6E,Write,ACK
6.680522250000000,356,0xD0,0xF0,Write,ACK
6.681056750000000,357,0xD0,0x6F,Write,ACK
6.681565250000000,358,0xD1,0x00,Read,ACK
6.681781250000000,358,0xD1,0x00,Read,ACK
6.681997500000000,358,0xD1,0x00,Read,ACK
6.682213750000000,358,0xD1,0x00,Read,ACK
6.682430000000000,358,0xD1,0x00,Read,ACK
6.682646250000000,358,0xD1,0x00,Read,ACK
6.682862250000000,358,0xD1,0x00,Read,ACK
6.683078500000000,358,0xD1,0x00,Read,ACK
6.683294750000000,358,0xD1,0x00,Read,ACK
6.683510750000000,358,0xD1,0x00,Read,ACK
6.683727000000000,358,0xD1,0x00,Read,ACK
6.683943250000000,358,0xD1,0x00,Read,ACK
6.684159250000000,358,0xD1,0x00,Read,ACK
6.684375500000000,358,0xD1,0x00,Read,ACK
6.684591750000000,358,0xD1,0x00,Read,ACK
6.684807750000000,358,0xD1,0x00,Read,NAK
6.685799500000000,359,0xD0,0x6D,Write,ACK
6.686015750000000,359,0xD0,0x03,Write,ACK
6.686547250000000,360,0xD0,0x6E,Write,ACK
6.686763500000000,360,0xD0,0x00,Write,ACK
6.687810250000000,361,0xD0,0x6F,Write,ACK
6.688026500000000,361,0xD0,0xD8,Write,ACK
6.688242500000000,361,0xD0,0xDC,Write,ACK
6.688458750000000,361,0xD0,0xBA,Write,ACK
6.688675000000000,361,0xD0,0xA2,Write,ACK
6.688891250000000,361,0xD0,0xF1,Write,ACK
6.689107250000000,361,0xD0,0xDE,Write,ACK
6.689323500000000,361,0xD0,0xB2,Write,ACK
6.689539750000000,361,0xD0,0xB8,Write,ACK
6.689755750000000,361,0xD0,0xB4,Write,ACK
6.689972000000000,361,0xD0,0xA8,Write,ACK
6.690188250000000,361,0xD0,0x81,Write,ACK
6.690404500000000,361,0xD0,0x91,Write,ACK
6.690620500000000,361,0xD0,0xF7,Write,ACK
6.690836750000000,361,0xD0,0x4A,Write,ACK
6.691053000000000,361,0xD0,0x90,Write,ACK
6.691269000000000,361,0xD0,0x7F,Write,ACK
6.691826500000000,362,0xD0,0x6D,Write,ACK
6.692042750000000,362,0xD0,0x03,Write,ACK
6.692574250000000,363,0xD0,0x6E,Write,ACK
6.692790250000000,363,0xD0,0x00,Write,ACK
6.693324750000000,364,0xD0,0x6F,Write,ACK
6.693833000000000,365,0xD1,0xD8,Read,ACK
6.694049250000000,365,0xD1,0xDC,Read,ACK
6.694265250000000,365,0xD1,0xBA,Read,ACK
6.694481250000000,365,0xD1,0xA2,Read,ACK
6.694697500000000,365,0xD1,0xF1,Read,ACK
6.694913750000000,365,0xD1,0xDE,Read,ACK
6.695129750000000,365,0xD1,0xB2,Read,ACK
6.695345750000000,365,0xD1,0xB8,Read,ACK
6.695562000000000,365,0xD1,0xB4,Read,ACK
6.695778250000000,365,0xD1,0xA8,Read,ACK
6.695994250000000,365,0xD1,0x81,Read,ACK
6.696210250000000,365,0xD1,0x91,Read,ACK
6.696426500000000,365,0xD1,0xF7,Read,ACK
6.696642750000000,365,0xD1,0x4A,Read,ACK
6.696858750000000,365,0xD1,0x90,Read,ACK
6.697075000000000,365,0xD1,0x7F,Read,NAK
6.698065500000000,366,0xD0,0x6D,Write,ACK
6.698281750000000,366,0xD0,0x03,Write,ACK
6.698813250000000,367,0xD0,0x6E,Write,ACK
6.699029250000000,367,0xD0,0x10,Write,ACK
6.700076000000000,368,0xD0,0x6F,Write,ACK
6.700292250000000,368,0xD0,0x91,Write,ACK
6.700508500000000,368,0xD0,0x6A,Write,ACK
6.700724500000000,368,0xD0,0xF3,Write,ACK
6.700940750000000,368,0xD0,0xF9,Write,ACK
6.701157000000000,368,0xD0,0xDB,Write,ACK
6.701373000000000,368,0xD0,0xA8,Write,ACK
6.701589250000000,368,0xD0,0xF9,Write,ACK
6.701805500000000,368,0xD0,0xB0,Write,ACK
6.702021750000000,368,0xD0,0xBA,Write,ACK
6.702237750000000,368,0xD0,0xA0,Write,ACK
6.702454000000000,368,0xD0,0x80,Write,ACK
6.702670250000000,368,0xD0,0xF2,Write,ACK
6.702886500000000,368,0xD0,0xCE,Write,ACK
6.703102750000000,368,0xD0,0x81,Write,ACK
6.703318750000000,368,0xD0,0xF3,Write,ACK
6.703535000000000,368,0xD0,0xC2,Write,ACK
6.704092250000000,369,0xD0,0x6D,Write,ACK
6.704308500000000,369,0xD0,0x03,Write,ACK
6.704840000000000,370,0xD0,0x6E,Write,ACK
6.705056000000000,370,0xD0,0x10,Write,ACK
6.705590500000000,371,0xD0,0x6F,Write,ACK
6.706098750000000,372,0xD1,0x91,Read,ACK
6.706315000000000,372,0xD1,0x6A,Read,ACK
6.706531250000000,372,0xD1,0xF3,Read,ACK
6.706747500000000,372,0xD1,0xF9,Read,ACK
6.706963500000000,372,0xD1,0xDB,Read,ACK
6.707179750000000,372,0xD1,0xA8,Read,ACK
6.707396000000000,372,0xD1,0xF9,Read,ACK
6.707612000000000,372,0xD1,0xB0,Read,ACK
6.707828250000000,372,0xD1,0xBA,Read,ACK
6.708044500000000,372,0xD1,0xA0,Read,ACK
6.708260500000000,372,0xD1,0x80,Read,ACK
6.708476750000000,372,0xD1,0xF2,Read,ACK
6.708693000000000,372,0xD1,0xCE,Read,ACK
6.708909250000000,372,0xD1,0x81,Read,ACK
6.709125250000000,372,0xD1,0xF3,Read,ACK
6.709341500000000,372,0xD1,0xC2,Read,NAK
6.710332250000000,373,0xD0,0x6D,Write,ACK
6.710548500000000,373,0xD0,0x03,Write,ACK
6.711080000000000,374,0xD0,0x6E,Write,ACK
6.711296250000000,374,0xD0,0x20,Write,ACK
6.712343250000000,375,0xD0,0x6F,Write,ACK
6.712559500000000,375,0xD0,0xF1,Write,ACK
6.712775500000000,375,0xD0,0xC1,Write,ACK
6.712991750000000,375,0xD0,0xF2,Write,ACK
6.713208000000000,375,0xD0,0xC3,Write,ACK
6.713424250000000,375,0xD0,0xF3,Write,ACK
6.713640500000000,375,0xD0,0xCC,Write,ACK
6.713856500000000,375,0xD0,0xA2,Write,ACK
6.714072750000000,375,0xD0,0xB2,Write,ACK
6.714289000000000,375,0xD0,0x80,Write,ACK
6.714505250000000,375,0xD0,0xF1,Write,ACK
6.714721500000000,375,0xD0,0xC6,Write,ACK
6.714937750000000,375,0xD0,0xD8,Write,ACK
6.715154000000000,375,0xD0,0x80,Write,ACK
6.715370250000000,375,0xD0,0xBA,Write,ACK
6.715586250000000,375,0xD0,0xA7,Write,ACK
6.715802500000000,375,0xD0,0xDF,Write,ACK
6.716360000000000,376,0xD0,0x6D,Write,ACK
6.716576250000000,376,0xD0,0x03,Write,ACK
6.717107750000000,377,0xD0,0x6E,Write,ACK
6.717323750000000,377,0xD0,0x20,Write,ACK
6.717858250000000,378,0xD0,0x6F,Write,ACK
6.718366750000000,379,0xD1,0xF1,Read,ACK
6.718583000000000,379,0xD1,0xC1,Read,ACK
6.718799000000000,379,0xD1,0xF2,Read,ACK
6.719015250000000,379,0xD1,0xC3,Read,ACK
6.719231250000000,379,0xD1,0xF3,Read,ACK
6.719447500000000,379,0xD1,0xCC,Read,ACK
6.719663750000000,379,0xD1,0xA2,Read,ACK
6.719879750000000,379,0xD1,0xB2,Read,ACK
6.720096000000000,379,0xD1,0x80,Read,ACK
6.720312250000000,379,0xD1,0xF1,Read,ACK
6.720528250000000,379,0xD1,0xC6,Read,ACK
6.720744500000000,379,0xD1,0xD8,Read,ACK
6.720960500000000,379,0xD1,0x80,Read,ACK
6.721176750000000,379,0xD1,0xBA,Read,ACK
6.721392750000000,379,0xD1,0xA7,Read,ACK
6.721609000000000,379,0xD1,0xDF,Read,NAK
6.722599750000000,380,0xD0,0x6D,Write,ACK
6.722815750000000,380,0xD0,0x03,Write,ACK
6.723347250000000,381,0xD0,0x6E,Write,ACK
6.723563500000000,381,0xD0,0x30,Write,ACK
6.724610000000000,382,0xD0,0x6F,Write,ACK
6.724826250000000,382,0xD0,0xDF,Write,ACK
6.725042500000000,382,0xD0,0xDF,Write,ACK
6.725258500000000,382,0xD0,0xF2,Write,ACK
6.725474750000000,382,0xD0,0xA7,Write,ACK
6.725691000000000,382,0xD0,0xC3,Write,ACK
6.725907250000000,382,0xD0,0xCB,Write,ACK
6.726123250000000,382,0xD0,0xC5,Write,ACK
6.726339500000000,382,0xD0,0xB6,Write,ACK
6.726555750000000,382,0xD0,0xF0,Write,ACK
6.726771750000000,382,0xD0,0x87,Write,ACK
6.726988000000000,382,0xD0,0xA2,Write,ACK
6.727204000000000,382,0xD0,0x94,Write,ACK
6.727420250000000,382,0xD0,0x24,Write,ACK
6.727636500000000,382,0xD0,0x48,Write,ACK
6.727852500000000,382,0xD0,0x70,Write,ACK
6.728068750000000,382,0xD0,0x3C,Write,ACK
6.728626250000000,383,0xD0,0x6D,Write,ACK
6.728842250000000,383,0xD0,0x03,Write,ACK
6.729373750000000,384,0xD0,0x6E,Write,ACK
6.729590000000000,384,0xD0,0x30,Write,ACK
6.730124500000000,385,0xD0,0x6F,Write,ACK
6.730632750000000,386,0xD1,0xDF,Read,ACK
6.730849000000000,386,0xD1,0xDF,Read,ACK
6.731065250000000,386,0xD1,0xF2,Read,ACK
6.731281250000000,386,0xD1,0xA7,Read,ACK
6.731497250000000,386,0xD1,0xC3,Read,ACK
6.731713500000000,386,0xD1,0xCB,Read,ACK
6.731929750000000,386,0xD1,0xC5,Read,ACK
6.732145750000000,386,0xD1,0xB6,Read,ACK
6.732362000000000,386,0xD1,0xF0,Read,ACK
6.732578250000000,386,0xD1,0x87,Read,ACK
6.732794250000000,386,0xD1,0xA2,Read,ACK
6.733010500000000,386,0xD1,0x94,Read,ACK
6.733226500000000,386,0xD1,0x24,Read,ACK
6.733442750000000,386,0xD1,0x48,Read,ACK
6.733659000000000,386,0xD1,0x70,Read,ACK
6.733875000000000,386,0xD1,0x3C,Read,NAK
6.734865750000000,387,0xD0,0x6D,Write,ACK
6.735082000000000,387,0xD0,0x03,Write,ACK
6.735613500000000,388,0xD0,0x6E,Write,ACK
6.735829750000000,388,0xD0,0x40,Write,ACK
6.736876500000000,389,0xD0,0x6F,Write,ACK
6.737092750000000,389,0xD0,0x95,Write,ACK
6.737308750000000,389,0xD0,0x40,Write,ACK
6.737525000000000,389,0xD0,0x68,Write,ACK
6.737741250000000,389,0xD0,0x34,Write,ACK
6.737957500000000,389,0xD0,0x58,Write,ACK
6.738173500000000,389,0xD0,0x9B,Write,ACK
6.738389750000000,389,0xD0,0x78,Write,ACK
6.738606000000000,389,0xD0,0xA2,Write,ACK
6.738822250000000,389,0xD0,0xF1,Write,ACK
6.739038250000000,389,0xD0,0x83,Write,ACK
6.739254500000000,389,0xD0,0x92,Write,ACK
6.739470750000000,389,0xD0,0x2D,Write,ACK
6.739686750000000,389,0xD0,0x55,Write,ACK
6.739903000000000,389,0xD0,0x7D,Write,ACK
6.740119250000000,389,0xD0,0xD8,Write,ACK
6.740335250000000,389,0xD0,0xB1,Write,ACK
6.740892750000000,390,0xD0,0x6D,Write,ACK
6.741109000000000,390,0xD0,0x03,Write,ACK
6.741640500000000,391,0xD0,0x6E,Write,ACK
6.741856750000000,391,0xD0,0x40,Write,ACK
6.742391250000000,392,0xD0,0x6F,Write,ACK
6.742899750000000,393,0xD1,0x95,Read,ACK
6.743116000000000,393,0xD1,0x40,Read,ACK
6.743332250000000,393,0xD1,0x68,Read,ACK
6.743548250000000,393,0xD1,0x34,Read,ACK
6.743764500000000,393,0xD1,0x58,Read,ACK
6.743980750000000,393,0xD1,0x9B,Read,ACK
6.744196750000000,393,0xD1,0x78,Read,ACK
6.744413000000000,393,0xD1,0xA2,Read,ACK
6.744629000000000,393,0xD1,0xF1,Read,ACK
6.744845250000000,393,0xD1,0x83,Read,ACK
6.745061500000000,393,0xD1,0x92,Read,ACK
6.745277750000000,393,0xD1,0x2D,Read,ACK
6.745493750000000,393,0xD1,0x55,Read,ACK
6.745710000000000,393,0xD1,0x7D,Read,ACK
6.745926250000000,393,0xD1,0xD8,Read,ACK
6.746142250000000,393,0xD1,0xB1,Read,NAK
6.747133250000000,394,0xD0,0x6D,Write,ACK
6.747349250000000,394,0xD0,0x03,Write,ACK
6.747880750000000,395,0xD0,0x6E,Write,ACK
6.748097000000000,395,0xD0,0x50,Write,ACK
6.749143750000000,396,0xD0,0x6F,Write,ACK
6.749360000000000,396,0xD0,0xB4,Write,ACK
6.749576250000000,396,0xD0,0xB8,Write,ACK
6.749792250000000,396,0xD0,0xA1,Write,ACK
6.750008500000000,396,0xD0,0xD0,Write,ACK
6.750224750000000,396,0xD0,0x91,Write,ACK
6.750441000000000,396,0xD0,0x80,Write,ACK
6.750657000000000,396,0xD0,0xF2,Write,ACK
6.750873250000000,396,0xD0,0x70,Write,ACK
6.751089500000000,396,0xD0,0xF3,Write,ACK
6.751305750000000,396,0xD0,0x70,Write,ACK
6.751521750000000,396,0xD0,0xF2,Write,ACK
6.751738000000000,396,0xD0,0x7C,Write,ACK
6.751954250000000,396,0xD0,0x80,Write,ACK
6.752170500000000,396,0xD0,0xA8,Write,ACK
6.752386500000000,396,0xD0,0xF1,Write,ACK
6.752602750000000,396,0xD0,0x01,Write,ACK
6.753160250000000,397,0xD0,0x6D,Write,ACK
6.753376250000000,397,0xD0,0x03,Write,ACK
6.753907750000000,398,0xD0,0x6E,Write,ACK
6.754124000000000,398,0xD0,0x50,Write,ACK
6.754658500000000,399,0xD0,0x6F,Write,ACK
6.755167000000000,400,0xD1,0xB4,Read,ACK
6.755383250000000,400,0xD1,0xB8,Read,ACK
6.755599250000000,400,0xD1,0xA1,Read,ACK
6.755815500000000,400,0xD1,0xD0,Read,ACK
6.756031500000000,400,0xD1,0x91,Read,ACK
6.756247750000000,400,0xD1,0x80,Read,ACK
6.756464000000000,400,0xD1,0xF2,Read,ACK
6.756680250000000,400,0xD1,0x70,Read,ACK
6.756896250000000,400,0xD1,0xF3,Read,ACK
6.757112500000000,400,0xD1,0x70,Read,ACK
6.757328750000000,400,0xD1,0xF2,Read,ACK
6.757544750000000,400,0xD1,0x7C,Read,ACK
6.757761000000000,400,0xD1,0x80,Read,ACK
6.757977250000000,400,0xD1,0xA8,Read,ACK
6.758193250000000,400,0xD1,0xF1,Read,ACK
6.758409500000000,400,0xD1,0x01,Read,NAK
6.759400250000000,401,0xD0,0x6D,Write,ACK
6.759616250000000,401,0xD0,0x03,Write,ACK
6.760148000000000,402,0xD0,0x6E,Write,ACK
6.760364000000000,402,0xD0,0x60,Write,ACK
6.761411000000000,403,0xD0,0x6F,Write,ACK
6.761627250000000,403,0xD0,0xB0,Write,ACK
6.761843500000000,403,0xD0,0x98,Write,ACK
6.762059500000000,403,0xD0,0x87,Write,ACK
6.762275750000000,403,0xD0,0xD9,Write,ACK
6.762492000000000,403,0xD0,0x43,Write,ACK
6.762708250000000,403,0xD0,0xD8,Write,ACK
6.762924250000000,403,0xD0,0x86,Write,ACK
6.763140500000000,403,0xD0,0xC9,Write,ACK
6.763356750000000,403,0xD0,0x88,Write,ACK
6.763573000000000,403,0xD0,0xBA,Write,ACK
6.763789000000000,403,0xD0,0xA1,Write,ACK
6.764005250000000,403,0xD0,0xF2,Write,ACK
6.764221500000000,403,0xD0,0x0E,Write,ACK
6.764437750000000,403,0xD0,0xB8,Write,ACK
6.764654000000000,403,0xD0,0x97,Write,ACK
6.764870000000000,403,0xD0,0x80,Write,ACK
6.765427500000000,404,0xD0,0x6D,Write,ACK
6.765643750000000,404,0xD0,0x03,Write,ACK
6.766175250000000,405,0xD0,0x6E,Write,ACK
6.766391250000000,405,0xD0,0x60,Write,ACK
6.766925750000000,406,0xD0,0x6F,Write,ACK
6.767434250000000,407,0xD1,0xB0,Read,ACK
6.767650250000000,407,0xD1,0x98,Read,ACK
6.767866500000000,407,0xD1,0x87,Read,ACK
6.768082750000000,407,0xD1,0xD9,Read,ACK
6.768298750000000,407,0xD1,0x43,Read,ACK
6.768515000000000,407,0xD1,0xD8,Read,ACK
6.768731250000000,407,0xD1,0x86,Read,ACK
6.768947250000000,407,0xD1,0xC9,Read,ACK
6.769163500000000,407,0xD1,0x88,Read,ACK
6.769379500000000,407,0xD1,0xBA,Read,ACK
6.769595750000000,407,0xD1,0xA1,Read,ACK
6.769812000000000,407,0xD1,0xF2,Read,ACK
6.770028000000000,407,0xD1,0x0E,Read,ACK
6.770244250000000,407,0xD1,0xB8,Read,ACK
6.770460500000000,407,0xD1,0x97,Read,ACK
6.770676500000000,407,0xD1,0x80,Read,NAK
6.771667250000000,408,0xD0,0x6D,Write,ACK
6.771883500000000,408,0xD0,0x03,Write,ACK
6.772414750000000,409,0xD0,0x6E,Write,ACK
6.772631000000000,409,0xD0,0x70,Write,ACK
6.773678000000000,410,0xD0,0x6F,Write,ACK
6.773894250000000,410,0xD0,0xF1,Write,ACK
6.774110500000000,410,0xD0,0xA9,Write,ACK
6.774326500000000,410,0xD0,0xDF,Write,ACK
6.774542750000000,410,0xD0,0xDF,Write,ACK
6.774759000000000,410,0xD0,0xDF,Write,ACK
6.774975250000000,410,0xD0,0xAA,Write,ACK
6.775191250000000,410,0xD0,0xDF,Write,ACK
6.775407500000000,410,0xD0,0xDF,Write,ACK
6.775623750000000,410,0xD0,0xDF,Write,ACK
6.775840000000000,410,0xD0,0xF2,Write,ACK
6.776056250000000,410,0xD0,0xAA,Write,ACK
6.776272250000000,410,0xD0,0xC5,Write,ACK
6.776488500000000,410,0xD0,0xCD,Write,ACK
6.776704750000000,410,0xD0,0xC7,Write,ACK
6.776920750000000,410,0xD0,0xA9,Write,ACK
6.777137000000000,410,0xD0,0x0C,Write,ACK
6.777694500000000,411,0xD0,0x6D,Write,ACK
6.777910750000000,411,0xD0,0x03,Write,ACK
6.778442250000000,412,0xD0,0x6E,Write,ACK
6.778658500000000,412,0xD0,0x70,Write,ACK
6.779192750000000,413,0xD0,0x6F,Write,ACK
6.779701250000000,414,0xD1,0xF1,Read,ACK
6.779917500000000,414,0xD1,0xA9,Read,ACK
6.780133750000000,414,0xD1,0xDF,Read,ACK
6.780349750000000,414,0xD1,0xDF,Read,ACK
6.780566000000000,414,0xD1,0xDF,Read,ACK
6.780782000000000,414,0xD1,0xAA,Read,ACK
6.780998250000000,414,0xD1,0xDF,Read,ACK
6.781214500000000,414,0xD1,0xDF,Read,ACK
6.781430750000000,414,0xD1,0xDF,Read,ACK
6.781646750000000,414,0xD1,0xF2,Read,ACK
6.781863000000000,414,0xD1,0xAA,Read,ACK
6.782079250000000,414,0xD1,0xC5,Read,ACK
6.782295250000000,414,0xD1,0xCD,Read,ACK
6.782511500000000,414,0xD1,0xC7,Read,ACK
6.782727750000000,414,0xD1,0xA9,Read,ACK
6.782944000000000,414,0xD1,0x0C,Read,NAK
6.783934750000000,415,0xD0,0x6D,Write,ACK
6.784150750000000,415,0xD0,0x03,Write,ACK
6.784682250000000,416,0xD0,0x6E,Write,ACK
6.784898500000000,416,0xD0,0x80,Write,ACK
6.785945250000000,417,0xD0,0x6F,Write,ACK
6.786161500000000,417,0xD0,0xC9,Write,ACK
6.786377500000000,417,0xD0,0x2C,Write,ACK
6.786593750000000,417,0xD0,0x97,Write,ACK
6.786810000000000,417,0xD0,0x97,Write,ACK
6.787026000000000,417,0xD0,0x97,Write,ACK
6.787242250000000,417,0xD0,0x97,Write,ACK
6.787458500000000,417,0xD0,0xF1,Write,ACK
6.787674750000000,417,0xD0,0xA9,Write,ACK
6.787891000000000,417,0xD0,0x89,Write,ACK
6.788107000000000,417,0xD0,0x26,Write,ACK
6.788323250000000,417,0xD0,0x46,Write,ACK
6.788539250000000,417,0xD0,0x66,Write,ACK
6.788755500000000,417,0xD0,0xB0,Write,ACK
6.788971750000000,417,0xD0,0xB4,Write,ACK
6.789188000000000,417,0xD0,0xBA,Write,ACK
6.789404000000000,417,0xD0,0x80,Write,ACK
6.789961750000000,418,0xD0,0x6D,Write,ACK
6.790177750000000,418,0xD0,0x03,Write,ACK
6.790709250000000,419,0xD0,0x6E,Write,ACK
6.790925500000000,419,0xD0,0x80,Write,ACK
6.791460000000000,420,0xD0,0x6F,Write,ACK
6.791968250000000,421,0xD1,0xC9,Read,ACK
6.792184250000000,421,0xD1,0x2C,Read,ACK
6.792400500000000,421,0xD1,0x97,Read,ACK
6.792616750000000,421,0xD1,0x97,Read,ACK
6.792832750000000,421,0xD1,0x97,Read,ACK
6.793049000000000,421,0xD1,0x97,Read,ACK
6.793265250000000,421,0xD1,0xF1,Read,ACK
6.793481500000000,421,0xD1,0xA9,Read,ACK
6.793697500000000,421,0xD1,0x89,Read,ACK
6.793913750000000,421,0xD1,0x26,Read,ACK
6.794130000000000,421,0xD1,0x46,Read,ACK
6.794346000000000,421,0xD1,0x66,Read,ACK
6.794562250000000,421,0xD1,0xB0,Read,ACK
6.794778250000000,421,0xD1,0xB4,Read,ACK
6.794994500000000,421,0xD1,0xBA,Read,ACK
6.795210750000000,421,0xD1,0x80,Read,NAK
6.796201500000000,422,0xD0,0x6D,Write,ACK
6.796417750000000,422,0xD0,0x03,Write,ACK
6.796949250000000,423,0xD0,0x6E,Write,ACK
6.797165250000000,423,0xD0,0x90,Write,ACK
6.798212250000000,424,0xD0,0x6F,Write,ACK
6.798428250000000,424,0xD0,0xAC,Write,ACK
6.798644500000000,424,0xD0,0xDE,Write,ACK
6.798860750000000,424,0xD0,0xF2,Write,ACK
6.799077000000000,424,0xD0,0xCA,Write,ACK
6.799293000000000,424,0xD0,0xF1,Write,ACK
6.799509250000000,424,0xD0,0xB2,Write,ACK
6.799725500000000,424,0xD0,0x8C,Write,ACK
6.799941750000000,424,0xD0,0x02,Write,ACK
6.800158000000000,424,0xD0,0xA9,Write,ACK
6.800374250000000,424,0xD0,0xB6,Write,ACK
6.800590500000000,424,0xD0,0x98,Write,ACK
6.800806500000000,424,0xD0,0x00,Write,ACK
6.801022750000000,424,0xD0,0x89,Write,ACK
6.801239000000000,424,0xD0,0x0E,Write,ACK
6.801455250000000,424,0xD0,0x16,Write,ACK
6.801671500000000,424,0xD0,0x1E,Write,ACK
6.802229000000000,425,0xD0,0x6D,Write,ACK
6.802445000000000,425,0xD0,0x03,Write,ACK
6.802976500000000,426,0xD0,0x6E,Write,ACK
6.803192750000000,426,0xD0,0x90,Write,ACK
6.803727000000000,427,0xD0,0x6F,Write,ACK
6.804235500000000,428,0xD1,0xAC,Read,ACK
6.804451750000000,428,0xD1,0xDE,Read,ACK
6.804668000000000,428,0xD1,0xF2,Read,ACK
6.804884000000000,428,0xD1,0xCA,Read,ACK
6.805100250000000,428,0xD1,0xF1,Read,ACK
6.805316500000000,428,0xD1,0xB2,Read,ACK
6.805532750000000,428,0xD1,0x8C,Read,ACK
6.805748750000000,428,0xD1,0x02,Read,ACK
6.805965000000000,428,0xD1,0xA9,Read,ACK
6.806181250000000,428,0xD1,0xB6,Read,ACK
6.806397250000000,428,0xD1,0x98,Read,ACK
6.806613500000000,428,0xD1,0x00,Read,ACK
6.806829500000000,428,0xD1,0x89,Read,ACK
6.807045750000000,428,0xD1,0x0E,Read,ACK
6.807262000000000,428,0xD1,0x16,Read,ACK
6.807478250000000,428,0xD1,0x1E,Read,NAK
6.808469000000000,429,0xD0,0x6D,Write,ACK
6.808685250000000,429,0xD0,0x03,Write,ACK
6.809216750000000,430,0xD0,0x6E,Write,ACK
6.809433000000000,430,0xD0,0xA0,Write,ACK
6.810480000000000,431,0xD0,0x6F,Write,ACK
6.810696250000000,431,0xD0,0xB8,Write,ACK
6.810912500000000,431,0xD0,0xA9,Write,ACK
6.811128750000000,431,0xD0,0xB4,Write,ACK
6.811345000000000,431,0xD0,0x99,Write,ACK
6.811561250000000,431,0xD0,0x2C,Write,ACK
6.811777500000000,431,0xD0,0x54,Write,ACK
6.811993500000000,431,0xD0,0x7C,Write,ACK
6.812209750000000,431,0xD0,0xB0,Write,ACK
6.812426000000000,431,0xD0,0x8A,Write,ACK
6.812642250000000,431,0xD0,0xA8,Write,ACK
6.812858250000000,431,0xD0,0x96,Write,ACK
6.813074500000000,431,0xD0,0x36,Write,ACK
6.813290750000000,431,0xD0,0x56,Write,ACK
6.813507000000000,431,0xD0,0x76,Write,ACK
6.813723250000000,431,0xD0,0xF1,Write,ACK
6.813939500000000,431,0xD0,0xB9,Write,ACK
6.814497000000000,432,0xD0,0x6D,Write,ACK
6.814713250000000,432,0xD0,0x03,Write,ACK
6.815245000000000,433,0xD0,0x6E,Write,ACK
6.815461250000000,433,0xD0,0xA0,Write,ACK
6.815995750000000,434,0xD0,0x6F,Write,ACK
6.816504000000000,435,0xD1,0xB8,Read,ACK
6.816720250000000,435,0xD1,0xA9,Read,ACK
6.816936500000000,435,0xD1,0xB4,Read,ACK
6.817152750000000,435,0xD1,0x99,Read,ACK
6.817368750000000,435,0xD1,0x2C,Read,ACK
6.817585000000000,435,0xD1,0x54,Read,ACK
6.817801250000000,435,0xD1,0x7C,Read,ACK
6.818017500000000,435,0xD1,0xB0,Read,ACK
6.818233500000000,435,0xD1,0x8A,Read,ACK
6.818449750000000,435,0xD1,0xA8,Read,ACK
6.818666000000000,435,0xD1,0x96,Read,ACK
6.818882250000000,435,0xD1,0x36,Read,ACK
6.819098250000000,435,0xD1,0x56,Read,ACK
6.819314500000000,435,0xD1,0x76,Read,ACK
6.819530750000000,435,0xD1,0xF1,Read,ACK
6.819746750000000,435,0xD1,0xB9,Read,NAK
6.820737750000000,436,0xD0,0x6D,Write,ACK
6.820954000000000,436,0xD0,0x03,Write,ACK
6.821485500000000,437,0xD0,0x6E,Write,ACK
6.821701500000000,437,0xD0,0xB0,Write,ACK
6.822748500000000,438,0xD0,0x6F,Write,ACK
6.822964500000000,438,0xD0,0xAF,Write,ACK
6.823180750000000,438,0xD0,0xB4,Write,ACK
6.823397000000000,438,0xD0,0xB0,Write,ACK
6.823613250000000,438,0xD0,0x83,Write,ACK
6.823829250000000,438,0xD0,0xC0,Write,ACK
6.824045750000000,438,0xD0,0xB8,Write,ACK
6.824261750000000,438,0xD0,0xA8,Write,ACK
6.824478000000000,438,0xD0,0x97,Write,ACK
6.824694250000000,438,0xD0,0x11,Write,ACK
6.824910500000000,438,0xD0,0xB1,Write,ACK
6.825126500000000,438,0xD0,0x8F,Write,ACK
6.825342750000000,438,0xD0,0x98,Write,ACK
6.825559000000000,438,0xD0,0xB9,Write,ACK
6.825775250000000,438,0xD0,0xAF,Write,ACK
6.825991500000000,438,0xD0,0xF0,Write,ACK
6.826207750000000,438,0xD0,0x24,Write,ACK
6.826765250000000,439,0xD0,0x6D,Write,ACK
6.826981500000000,439,0xD0,0x03,Write,ACK
6.827513000000000,440,0xD0,0x6E,Write,ACK
6.827729250000000,440,0xD0,0xB0,Write,ACK
6.828263500000000,441,0xD0,0x6F,Write,ACK
6.828772000000000,442,0xD1,0xAF,Read,ACK
6.828988000000000,442,0xD1,0xB4,Read,ACK
6.829204250000000,442,0xD1,0xB0,Read,ACK
6.829420500000000,442,0xD1,0x83,Read,ACK
6.829636750000000,442,0xD1,0xC0,Read,ACK
6.829852750000000,442,0xD1,0xB8,Read,ACK
6.830069000000000,442,0xD1,0xA8,Read,ACK
6.830285250000000,442,0xD1,0x97,Read,ACK
6.830501500000000,442,0xD1,0x11,Read,ACK
6.830717500000000,442,0xD1,0xB1,Read,ACK
6.830933750000000,442,0xD1,0x8F,Read,ACK
6.831150000000000,442,0xD1,0x98,Read,ACK
6.831366250000000,442,0xD1,0xB9,Read,ACK
6.831582500000000,442,0xD1,0xAF,Read,ACK
6.831798750000000,442,0xD1,0xF0,Read,ACK
6.832014750000000,442,0xD1,0x24,Read,NAK
6.833005750000000,443,0xD0,0x6D,Write,ACK
6.833222000000000,443,0xD0,0x03,Write,ACK
6.833753750000000,444,0xD0,0x6E,Write,ACK
6.833969750000000,444,0xD0,0xC0,Write,ACK
6.835017000000000,445,0xD0,0x6F,Write,ACK
6.835233250000000,445,0xD0,0x08,Write,ACK
6.835449500000000,445,0xD0,0x44,Write,ACK
6.835665750000000,445,0xD0,0x10,Write,ACK
6.835881750000000,445,0xD0,0x64,Write,ACK
6.836098000000000,445,0xD0,0x18,Write,ACK
6.836314250000000,445,0xD0,0xF1,Write,ACK
6.836530500000000,445,0xD0,0xA3,Write,ACK
6.836746750000000,445,0xD0,0x29,Write,ACK
6.836962750000000,445,0xD0,0x55,Write,ACK
6.837179250000000,445,0xD0,0x7D,Write,ACK
6.837395250000000,445,0xD0,0xAF,Write,ACK
6.837611500000000,445,0xD0,0x83,Write,ACK
6.837827750000000,445,0xD0,0xB5,Write,ACK
6.838044000000000,445,0xD0,0x93,Write,ACK
6.838260000000000,445,0xD0,0xAF,Write,ACK
6.838476250000000,445,0xD0,0xF0,Write,ACK
6.839033750000000,446,0xD0,0x6D,Write,ACK
6.839250000000000,446,0xD0,0x03,Write,ACK
6.839781500000000,447,0xD0,0x6E,Write,ACK
6.839997750000000,447,0xD0,0xC0,Write,ACK
6.840532250000000,448,0xD0,0x6F,Write,ACK
6.841040750000000,449,0xD1,0x08,Read,ACK
6.841256750000000,449,0xD1,0x44,Read,ACK
6.841473000000000,449,0xD1,0x10,Read,ACK
6.841689250000000,449,0xD1,0x64,Read,ACK
6.841905500000000,449,0xD1,0x18,Read,ACK
6.842121500000000,449,0xD1,0xF1,Read,ACK
6.842337750000000,449,0xD1,0xA3,Read,ACK
6.842554000000000,449,0xD1,0x29,Read,ACK
6.842770250000000,449,0xD1,0x55,Read,ACK
6.842986250000000,449,0xD1,0x7D,Read,ACK
6.843202500000000,449,0xD1,0xAF,Read,ACK
6.843418750000000,449,0xD1,0x83,Read,ACK
6.843635000000000,449,0xD1,0xB5,Read,ACK
6.843851000000000,449,0xD1,0x93,Read,ACK
6.844067250000000,449,0xD1,0xAF,Read,ACK
6.844283500000000,449,0xD1,0xF0,Read,NAK
6.845274250000000,450,0xD0,0x6D,Write,ACK
6.845490500000000,450,0xD0,0x03,Write,ACK
6.846022000000000,451,0xD0,0x6E,Write,ACK
6.846238250000000,451,0xD0,0xD0,Write,ACK
6.847285000000000,452,0xD0,0x6F,Write,ACK
6.847501250000000,452,0xD0,0x00,Write,ACK
6.847717500000000,452,0xD0,0x28,Write,ACK
6.847933750000000,452,0xD0,0x50,Write,ACK
6.848150000000000,452,0xD0,0xF1,Write,ACK
6.848366000000000,452,0xD0,0xA3,Write,ACK
6.848582250000000,452,0xD0,0x86,Write,ACK
6.848798500000000,452,0xD0,0x9F,Write,ACK
6.849014750000000,452,0xD0,0x61,Write,ACK
6.849230750000000,452,0xD0,0xA6,Write,ACK
6.849447000000000,452,0xD0,0xDA,Write,ACK
6.849663250000000,452,0xD0,0xDE,Write,ACK
6.849879500000000,452,0xD0,0xDF,Write,ACK
6.850095500000000,452,0xD0,0xD9,Write,ACK
6.850311750000000,452,0xD0,0xFA,Write,ACK
6.850528000000000,452,0xD0,0xA3,Write,ACK
6.850744250000000,452,0xD0,0x86,Write,ACK
6.851301750000000,453,0xD0,0x6D,Write,ACK
6.851518000000000,453,0xD0,0x03,Write,ACK
6.852049250000000,454,0xD0,0x6E,Write,ACK
6.852265500000000,454,0xD0,0xD0,Write,ACK
6.852800000000000,455,0xD0,0x6F,Write,ACK
6.853308500000000,456,0xD1,0x00,Read,ACK
6.853524750000000,456,0xD1,0x28,Read,ACK
6.853740750000000,456,0xD1,0x50,Read,ACK
6.853957000000000,456,0xD1,0xF1,Read,ACK
6.854173250000000,456,0xD1,0xA3,Read,ACK
6.854389250000000,456,0xD1,0x86,Read,ACK
6.854605500000000,456,0xD1,0x9F,Read,ACK
6.854821750000000,456,0xD1,0x61,Read,ACK
6.855038000000000,456,0xD1,0xA6,Read,ACK
6.855254000000000,456,0xD1,0xDA,Read,ACK
6.855470500000000,456,0xD1,0xDE,Read,ACK
6.855686500000000,456,0xD1,0xDF,Read,ACK
6.855902750000000,456,0xD1,0xD9,Read,ACK
6.856119000000000,456,0xD1,0xFA,Read,ACK
6.856335250000000,456,0xD1,0xA3,Read,ACK
6.856551500000000,456,0xD1,0x86,Read,NAK
6.857542250000000,457,0xD0,0x6D,Write,ACK
6.857758500000000,457,0xD0,0x03,Write,ACK
6.858290000000000,458,0xD0,0x6E,Write,ACK
6.858506000000000,458,0xD0,0xE0,Write,ACK
6.859553000000000,459,0xD0,0x6F,Write,ACK
6.859769250000000,459,0xD0,0x96,Write,ACK
6.859985500000000,459,0xD0,0xDB,Write,ACK
6.860201500000000,459,0xD0,0x31,Write,ACK
6.860417750000000,459,0xD0,0xA6,Write,ACK
6.860633750000000,459,0xD0,0xD9,Write,ACK
6.860850000000000,459,0xD0,0xF8,Write,ACK
6.861066250000000,459,0xD0,0xDF,Write,ACK
6.861282250000000,459,0xD0,0xBA,Write,ACK
6.861498500000000,459,0xD0,0xA6,Write,ACK
6.861714750000000,459,0xD0,0x8F,Write,ACK
6.861930750000000,459,0xD0,0xC2,Write,ACK
6.862147000000000,459,0xD0,0xC5,Write,ACK
6.862363000000000,459,0xD0,0xC7,Write,ACK
6.862579250000000,459,0xD0,0xB2,Write,ACK
6.862795500000000,459,0xD0,0x8C,Write,ACK
6.863011500000000,459,0xD0,0xC1,Write,ACK
6.863569000000000,460,0xD0,0x6D,Write,ACK
6.863785000000000,460,0xD0,0x03,Write,ACK
6.864316500000000,461,0xD0,0x6E,Write,ACK
6.864532750000000,461,0xD0,0xE0,Write,ACK
6.865067000000000,462,0xD0,0x6F,Write,ACK
6.865575500000000,463,0xD1,0x96,Read,ACK
6.865791500000000,463,0xD1,0xDB,Read,ACK
6.866007750000000,463,0xD1,0x31,Read,ACK
6.866224000000000,463,0xD1,0xA6,Read,ACK
6.866440250000000,463,0xD1,0xD9,Read,ACK
6.866656250000000,463,0xD1,0xF8,Read,ACK
6.866872500000000,463,0xD1,0xDF,Read,ACK
6.867088750000000,463,0xD1,0xBA,Read,ACK
6.867304750000000,463,0xD1,0xA6,Read,ACK
6.867521000000000,463,0xD1,0x8F,Read,ACK
6.867737000000000,463,0xD1,0xC2,Read,ACK
6.867953250000000,463,0xD1,0xC5,Read,ACK
6.868169500000000,463,0xD1,0xC7,Read,ACK
6.868385500000000,463,0xD1,0xB2,Read,ACK
6.868601750000000,463,0xD1,0x8C,Read,ACK
6.868818000000000,463,0xD1,0xC1,Read,NAK
6.869808750000000,464,0xD0,0x6D,Write,ACK
6.870025000000000,464,0xD0,0x03,Write,ACK
6.870556500000000,465,0xD0,0x6E,Write,ACK
6.870772750000000,465,0xD0,0xF0,Write,ACK
6.871819500000000,466,0xD0,0x6F,Write,ACK
6.872035500000000,466,0xD0,0xB8,Write,ACK
6.872251750000000,466,0xD0,0xA2,Write,ACK
6.872468000000000,466,0xD0,0xDF,Write,ACK
6.872684250000000,466,0xD0,0xDF,Write,ACK
6.872900250000000,466,0xD0,0xDF,Write,ACK
6.873116500000000,466,0xD0,0xA3,Write,ACK
6.873332750000000,466,0xD0,0xDF,Write,ACK
6.873548750000000,466,0xD0,0xDF,Write,ACK
6.873765000000000,466,0xD0,0xDF,Write,ACK
6.873981250000000,466,0xD0,0xD8,Write,ACK
6.874197500000000,466,0xD0,0xD8,Write,ACK
6.874413500000000,466,0xD0,0xF1,Write,ACK
6.874629750000000,466,0xD0,0xB8,Write,ACK
6.874846000000000,466,0xD0,0xA8,Write,ACK
6.875062250000000,466,0xD0,0xB2,Write,ACK
6.875278250000000,466,0xD0,0x86,Write,ACK
6.875835750000000,467,0xD0,0x6D,Write,ACK
6.876052000000000,467,0xD0,0x03,Write,ACK
6.876583250000000,468,0xD0,0x6E,Write,ACK
6.876799500000000,468,0xD0,0xF0,Write,ACK
6.877333750000000,469,0xD0,0x6F,Write,ACK
6.877842250000000,470,0xD1,0xB8,Read,ACK
6.878058250000000,470,0xD1,0xA2,Read,ACK
6.878274500000000,470,0xD1,0xDF,Read,ACK
6.878490750000000,470,0xD1,0xDF,Read,ACK
6.878706750000000,470,0xD1,0xDF,Read,ACK
6.878923000000000,470,0xD1,0xA3,Read,ACK
6.879139250000000,470,0xD1,0xDF,Read,ACK
6.879355250000000,470,0xD1,0xDF,Read,ACK
6.879571500000000,470,0xD1,0xDF,Read,ACK
6.879787500000000,470,0xD1,0xD8,Read,ACK
6.880003750000000,470,0xD1,0xD8,Read,ACK
6.880220000000000,470,0xD1,0xF1,Read,ACK
6.880436250000000,470,0xD1,0xB8,Read,ACK
6.880652250000000,470,0xD1,0xA8,Read,ACK
6.880868500000000,470,0xD1,0xB2,Read,ACK
6.881084500000000,470,0xD1,0x86,Read,NAK
6.882076250000000,471,0xD0,0x6D,Write,ACK
6.882292500000000,471,0xD0,0x04,Write,ACK
6.882824000000000,472,0xD0,0x6E,Write,ACK
6.883040250000000,472,0xD0,0x00,Write,ACK
6.884087000000000,473,0xD0,0x6F,Write,ACK
6.884303000000000,473,0xD0,0xB4,Write,ACK
6.884519250000000,473,0xD0,0x98,Write,ACK
6.884735500000000,473,0xD0,0x0D,Write,ACK
6.884951750000000,473,0xD0,0x35,Write,ACK
6.885167750000000,473,0xD0,0x5D,Write,ACK
6.885384000000000,473,0xD0,0xB8,Write,ACK
6.885600250000000,473,0xD0,0xAA,Write,ACK
6.885816500000000,473,0xD0,0x98,Write,ACK
6.886032500000000,473,0xD0,0xB0,Write,ACK
6.886248750000000,473,0xD0,0x87,Write,ACK
6.886465000000000,473,0xD0,0x2D,Write,ACK
6.886681250000000,473,0xD0,0x35,Write,ACK
6.886897250000000,473,0xD0,0x3D,Write,ACK
6.887113500000000,473,0xD0,0xB2,Write,ACK
6.887329750000000,473,0xD0,0xB6,Write,ACK
6.887545750000000,473,0xD0,0xBA,Write,ACK
6.888103500000000,474,0xD0,0x6D,Write,ACK
6.888319750000000,474,0xD0,0x04,Write,ACK
6.888851000000000,475,0xD0,0x6E,Write,ACK
6.889067250000000,475,0xD0,0x00,Write,ACK
6.889601750000000,476,0xD0,0x6F,Write,ACK
6.890110000000000,477,0xD1,0xB4,Read,ACK
6.890326000000000,477,0xD1,0x98,Read,ACK
6.890542250000000,477,0xD1,0x0D,Read,ACK
6.890758500000000,477,0xD1,0x35,Read,ACK
6.890974500000000,477,0xD1,0x5D,Read,ACK
6.891190750000000,477,0xD1,0xB8,Read,ACK
6.891406750000000,477,0xD1,0xAA,Read,ACK
6.891623000000000,477,0xD1,0x98,Read,ACK
6.891839000000000,477,0xD1,0xB0,Read,ACK
6.892055250000000,477,0xD1,0x87,Read,ACK
6.892271250000000,477,0xD1,0x2D,Read,ACK
6.892487500000000,477,0xD1,0x35,Read,ACK
6.892703500000000,477,0xD1,0x3D,Read,ACK
6.892919750000000,477,0xD1,0xB2,Read,ACK
6.893135750000000,477,0xD1,0xB6,Read,ACK
6.893352000000000,477,0xD1,0xBA,Read,NAK
6.894342500000000,478,0xD0,0x6D,Write,ACK
6.894558500000000,478,0xD0,0x04,Write,ACK
6.895089750000000,479,0xD0,0x6E,Write,ACK
6.895306000000000,479,0xD0,0x10,Write,ACK
6.896352500000000,480,0xD0,0x6F,Write,ACK
6.896568750000000,480,0xD0,0xAF,Write,ACK
6.896784750000000,480,0xD0,0x8C,Write,ACK
6.897001000000000,480,0xD0,0x96,Write,ACK
6.897217000000000,480,0xD0,0x19,Write,ACK
6.897433000000000,480,0xD0,0x8F,Write,ACK
6.897649250000000,480,0xD0,0x9F,Write,ACK
6.897865500000000,480,0xD0,0xA7,Write,ACK
6.898081500000000,480,0xD0,0x0E,Write,ACK
6.898297500000000,480,0xD0,0x16,Write,ACK
6.898513750000000,480,0xD0,0x1E,Write,ACK
6.898729750000000,480,0xD0,0xB4,Write,ACK
6.898945750000000,480,0xD0,0x9A,Write,ACK
6.899162000000000,480,0xD0,0xB8,Write,ACK
6.899378250000000,480,0xD0,0xAA,Write,ACK
6.899594250000000,480,0xD0,0x87,Write,ACK
6.899810500000000,480,0xD0,0x2C,Write,ACK
6.900367750000000,481,0xD0,0x6D,Write,ACK
6.900584000000000,481,0xD0,0x04,Write,ACK
6.901115500000000,482,0xD0,0x6E,Write,ACK
6.901331750000000,482,0xD0,0x10,Write,ACK
6.901866250000000,483,0xD0,0x6F,Write,ACK
6.902374500000000,484,0xD1,0xAF,Read,ACK
6.902590500000000,484,0xD1,0x8C,Read,ACK
6.902806750000000,484,0xD1,0x96,Read,ACK
6.903023000000000,484,0xD1,0x19,Read,ACK
6.903239250000000,484,0xD1,0x8F,Read,ACK
6.903455500000000,484,0xD1,0x9F,Read,ACK
6.903671500000000,484,0xD1,0xA7,Read,ACK
6.903887750000000,484,0xD1,0x0E,Read,ACK
6.904103750000000,484,0xD1,0x16,Read,ACK
6.904320000000000,484,0xD1,0x1E,Read,ACK
6.904536000000000,484,0xD1,0xB4,Read,ACK
6.904752250000000,484,0xD1,0x9A,Read,ACK
6.904968500000000,484,0xD1,0xB8,Read,ACK
6.905184500000000,484,0xD1,0xAA,Read,ACK
6.905400750000000,484,0xD1,0x87,Read,ACK
6.905617000000000,484,0xD1,0x2C,Read,NAK
6.906607750000000,485,0xD0,0x6D,Write,ACK
6.906824000000000,485,0xD0,0x04,Write,ACK
6.907355250000000,486,0xD0,0x6E,Write,ACK
6.907571500000000,486,0xD0,0x20,Write,ACK
6.908618250000000,487,0xD0,0x6F,Write,ACK
6.908834250000000,487,0xD0,0x54,Write,ACK
6.909050500000000,487,0xD0,0x7C,Write,ACK
6.909266750000000,487,0xD0,0xB9,Write,ACK
6.909482750000000,487,0xD0,0xA3,Write,ACK
6.909699000000000,487,0xD0,0xDE,Write,ACK
6.909915250000000,487,0xD0,0xDF,Write,ACK
6.910131500000000,487,0xD0,0xDF,Write,ACK
6.910347750000000,487,0xD0,0xA3,Write,ACK
6.910563750000000,487,0xD0,0xB1,Write,ACK
6.910780000000000,487,0xD0,0x80,Write,ACK
6.910996250000000,487,0xD0,0xF2,Write,ACK
6.911212250000000,487,0xD0,0xC4,Write,ACK
6.911428500000000,487,0xD0,0xCD,Write,ACK
6.911644750000000,487,0xD0,0xC9,Write,ACK
6.911860750000000,487,0xD0,0xF1,Write,ACK
6.912077000000000,487,0xD0,0xB8,Write,ACK
6.912634250000000,488,0xD0,0x6D,Write,ACK
6.912850500000000,488,0xD0,0x04,Write,ACK
6.913382000000000,489,0xD0,0x6E,Write,ACK
6.913598250000000,489,0xD0,0x20,Write,ACK
6.914132750000000,490,0xD0,0x6F,Write,ACK
6.914641000000000,491,0xD1,0x54,Read,ACK
6.914857250000000,491,0xD1,0x7C,Read,ACK
6.915073500000000,491,0xD1,0xB9,Read,ACK
6.915289500000000,491,0xD1,0xA3,Read,ACK
6.915505750000000,491,0xD1,0xDE,Read,ACK
6.915722000000000,491,0xD1,0xDF,Read,ACK
6.915938000000000,491,0xD1,0xDF,Read,ACK
6.916154250000000,491,0xD1,0xA3,Read,ACK
6.916370500000000,491,0xD1,0xB1,Read,ACK
6.916586500000000,491,0xD1,0x80,Read,ACK
6.916802750000000,491,0xD1,0xF2,Read,ACK
6.917019000000000,491,0xD1,0xC4,Read,ACK
6.917235000000000,491,0xD1,0xCD,Read,ACK
6.917451250000000,491,0xD1,0xC9,Read,ACK
6.917667250000000,491,0xD1,0xF1,Read,ACK
6.917883500000000,491,0xD1,0xB8,Read,NAK
6.918874250000000,492,0xD0,0x6D,Write,ACK
6.919090500000000,492,0xD0,0x04,Write,ACK
6.919622000000000,493,0xD0,0x6E,Write,ACK
6.919838250000000,493,0xD0,0x30,Write,ACK
6.920885000000000,494,0xD0,0x6F,Write,ACK
6.921101250000000,494,0xD0,0xA9,Write,ACK
6.921317250000000,494,0xD0,0xB4,Write,ACK
6.921533500000000,494,0xD0,0x99,Write,ACK
6.921749750000000,494,0xD0,0x83,Write,ACK
6.921966000000000,494,0xD0,0x0D,Write,ACK
6.922182000000000,494,0xD0,0x35,Write,ACK
6.922398250000000,494,0xD0,0x5D,Write,ACK
6.922614500000000,494,0xD0,0x89,Write,ACK
6.922830750000000,494,0xD0,0xB9,Write,ACK
6.923046750000000,494,0xD0,0xA3,Write,ACK
6.923263000000000,494,0xD0,0x2D,Write,ACK
6.923479250000000,494,0xD0,0x55,Write,ACK
6.923695500000000,494,0xD0,0x7D,Write,ACK
6.923911500000000,494,0xD0,0xB5,Write,ACK
6.924127750000000,494,0xD0,0x93,Write,ACK
6.924344000000000,494,0xD0,0xA3,Write,ACK
6.924901500000000,495,0xD0,0x6D,Write,ACK
6.925117750000000,495,0xD0,0x04,Write,ACK
6.925649250000000,496,0xD0,0x6E,Write,ACK
6.925865250000000,496,0xD0,0x30,Write,ACK
6.926399750000000,497,0xD0,0x6F,Write,ACK
6.926908000000000,498,0xD1,0xA9,Read,ACK
6.927124000000000,498,0xD1,0xB4,Read,ACK
6.927340250000000,498,0xD1,0x99,Read,ACK
6.927556500000000,498,0xD1,0x83,Read,ACK
6.927772750000000,498,0xD1,0x0D,Read,ACK
6.927988750000000,498,0xD1,0x35,Read,ACK
6.928205000000000,498,0xD1,0x5D,Read,ACK
6.928421250000000,498,0xD1,0x89,Read,ACK
6.928637250000000,498,0xD1,0xB9,Read,ACK
6.928853500000000,498,0xD1,0xA3,Read,ACK
6.929069500000000,498,0xD1,0x2D,Read,ACK
6.929285750000000,498,0xD1,0x55,Read,ACK
6.929502000000000,498,0xD1,0x7D,Read,ACK
6.929718000000000,498,0xD1,0xB5,Read,ACK
6.929934250000000,498,0xD1,0x93,Read,ACK
6.930150500000000,498,0xD1,0xA3,Read,NAK
6.931141250000000,499,0xD0,0x6D,Write,ACK
6.931357500000000,499,0xD0,0x04,Write,ACK
6.931888750000000,500,0xD0,0x6E,Write,ACK
6.932105000000000,500,0xD0,0x40,Write,ACK
6.933152000000000,501,0xD0,0x6F,Write,ACK
6.933368250000000,501,0xD0,0x0E,Write,ACK
6.933584500000000,501,0xD0,0x16,Write,ACK
6.933800750000000,501,0xD0,0x1E,Write,ACK
6.934016750000000,501,0xD0,0xA9,Write,ACK
6.934233000000000,501,0xD0,0x2C,Write,ACK
6.934449000000000,501,0xD0,0x54,Write,ACK
6.934665500000000,501,0xD0,0x7C,Write,ACK
6.934881500000000,501,0xD0,0xB8,Write,ACK
6.935097750000000,501,0xD0,0xB4,Write,ACK
6.935313750000000,501,0xD0,0xB0,Write,ACK
6.935530000000000,501,0xD0,0xF1,Write,ACK
6.935746250000000,501,0xD0,0x97,Write,ACK
6.935962500000000,501,0xD0,0x83,Write,ACK
6.936178750000000,501,0xD0,0xA8,Write,ACK
6.936395000000000,501,0xD0,0x11,Write,ACK
6.936611250000000,501,0xD0,0x84,Write,ACK
6.937168500000000,502,0xD0,0x6D,Write,ACK
6.937384750000000,502,0xD0,0x04,Write,ACK
6.937916250000000,503,0xD0,0x6E,Write,ACK
6.938132500000000,503,0xD0,0x40,Write,ACK
6.938667000000000,504,0xD0,0x6F,Write,ACK
6.939175250000000,505,0xD1,0x0E,Read,ACK
6.939391500000000,505,0xD1,0x16,Read,ACK
6.939607500000000,505,0xD1,0x1E,Read,ACK
6.939824000000000,505,0xD1,0xA9,Read,ACK
6.940040000000000,505,0xD1,0x2C,Read,ACK
6.940256250000000,505,0xD1,0x54,Read,ACK
6.940472500000000,505,0xD1,0x7C,Read,ACK
6.940688750000000,505,0xD1,0xB8,Read,ACK
6.940904750000000,505,0xD1,0xB4,Read,ACK
6.941121000000000,505,0xD1,0xB0,Read,ACK
6.941337000000000,505,0xD1,0xF1,Read,ACK
6.941553500000000,505,0xD1,0x97,Read,ACK
6.941769500000000,505,0xD1,0x83,Read,ACK
6.941985750000000,505,0xD1,0xA8,Read,ACK
6.942202000000000,505,0xD1,0x11,Read,ACK
6.942418250000000,505,0xD1,0x84,Read,NAK
6.943409000000000,506,0xD0,0x6D,Write,ACK
6.943625250000000,506,0xD0,0x04,Write,ACK
6.944156750000000,507,0xD0,0x6E,Write,ACK
6.944372750000000,507,0xD0,0x50,Write,ACK
6.945419750000000,508,0xD0,0x6F,Write,ACK
6.945636000000000,508,0xD0,0xA5,Write,ACK
6.945852000000000,508,0xD0,0x09,Write,ACK
6.946068500000000,508,0xD0,0x98,Write,ACK
6.946284500000000,508,0xD0,0xA3,Write,ACK
6.946500750000000,508,0xD0,0x83,Write,ACK
6.946717000000000,508,0xD0,0xF0,Write,ACK
6.946933250000000,508,0xD0,0xDA,Write,ACK
6.947149500000000,508,0xD0,0x24,Write,ACK
6.947365750000000,508,0xD0,0x08,Write,ACK
6.947582000000000,508,0xD0,0x44,Write,ACK
6.947798250000000,508,0xD0,0x10,Write,ACK
6.948014500000000,508,0xD0,0x64,Write,ACK
6.948230750000000,508,0xD0,0x18,Write,ACK
6.948447000000000,508,0xD0,0xD8,Write,ACK
6.948663250000000,508,0xD0,0xF1,Write,ACK
6.948879500000000,508,0xD0,0xA5,Write,ACK
6.949437000000000,509,0xD0,0x6D,Write,ACK
6.949653250000000,509,0xD0,0x04,Write,ACK
6.950184750000000,510,0xD0,0x6E,Write,ACK
6.950401000000000,510,0xD0,0x50,Write,ACK
6.950935500000000,511,0xD0,0x6F,Write,ACK
6.951444000000000,512,0xD1,0xA5,Read,ACK
6.951660000000000,512,0xD1,0x09,Read,ACK
6.951876250000000,512,0xD1,0x98,Read,ACK
6.952092500000000,512,0xD1,0xA3,Read,ACK
6.952308750000000,512,0xD1,0x83,Read,ACK
6.952524750000000,512,0xD1,0xF0,Read,ACK
6.952741000000000,512,0xD1,0xDA,Read,ACK
6.952957250000000,512,0xD1,0x24,Read,ACK
6.953173500000000,512,0xD1,0x08,Read,ACK
6.953389750000000,512,0xD1,0x44,Read,ACK
6.953605750000000,512,0xD1,0x10,Read,ACK
6.953822000000000,512,0xD1,0x64,Read,ACK
6.954038250000000,512,0xD1,0x18,Read,ACK
6.954254500000000,512,0xD1,0xD8,Read,ACK
6.954470500000000,512,0xD1,0xF1,Read,ACK
6.954686750000000,512,0xD1,0xA5,Read,NAK
6.955677500000000,513,0xD0,0x6D,Write,ACK
6.955893500000000,513,0xD0,0x04,Write,ACK
6.956425000000000,514,0xD0,0x6E,Write,ACK
6.956641000000000,514,0xD0,0x60,Write,ACK
6.957687750000000,515,0xD0,0x6F,Write,ACK
6.957904000000000,515,0xD0,0x29,Write,ACK
6.958120000000000,515,0xD0,0x55,Write,ACK
6.958336250000000,515,0xD0,0x7D,Write,ACK
6.958552250000000,515,0xD0,0xA5,Write,ACK
6.958768500000000,515,0xD0,0x85,Write,ACK
6.958984500000000,515,0xD0,0x95,Write,ACK
6.959200750000000,515,0xD0,0x02,Write,ACK
6.959416750000000,515,0xD0,0x1A,Write,ACK
6.959633000000000,515,0xD0,0x2E,Write,ACK
6.959849000000000,515,0xD0,0x3A,Write,ACK
6.960065250000000,515,0xD0,0x56,Write,ACK
6.960281250000000,515,0xD0,0x5A,Write,ACK
6.960497250000000,515,0xD0,0x40,Write,ACK
6.960713500000000,515,0xD0,0x48,Write,ACK
6.960929500000000,515,0xD0,0xF9,Write,ACK
6.961145750000000,515,0xD0,0xF3,Write,ACK
6.961703000000000,516,0xD0,0x6D,Write,ACK
6.961919250000000,516,0xD0,0x04,Write,ACK
6.962450500000000,517,0xD0,0x6E,Write,ACK
6.962666750000000,517,0xD0,0x60,Write,ACK
6.963201250000000,518,0xD0,0x6F,Write,ACK
6.963709750000000,519,0xD1,0x29,Read,ACK
6.963925750000000,519,0xD1,0x55,Read,ACK
6.964142000000000,519,0xD1,0x7D,Read,ACK
6.964358000000000,519,0xD1,0xA5,Read,ACK
6.964574250000000,519,0xD1,0x85,Read,ACK
6.964790500000000,519,0xD1,0x95,Read,ACK
6.965006500000000,519,0xD1,0x02,Read,ACK
6.965222750000000,519,0xD1,0x1A,Read,ACK
6.965438750000000,519,0xD1,0x2E,Read,ACK
6.965655000000000,519,0xD1,0x3A,Read,ACK
6.965871000000000,519,0xD1,0x56,Read,ACK
6.966087250000000,519,0xD1,0x5A,Read,ACK
6.966303500000000,519,0xD1,0x40,Read,ACK
6.966519750000000,519,0xD1,0x48,Read,ACK
6.966735750000000,519,0xD1,0xF9,Read,ACK
6.966952000000000,519,0xD1,0xF3,Read,NAK
6.967942750000000,520,0xD0,0x6D,Write,ACK
6.968159000000000,520,0xD0,0x04,Write,ACK
6.968690500000000,521,0xD0,0x6E,Write,ACK
6.968906500000000,521,0xD0,0x70,Write,ACK
6.969953500000000,522,0xD0,0x6F,Write,ACK
6.970169500000000,522,0xD0,0xA3,Write,ACK
6.970385750000000,522,0xD0,0xD9,Write,ACK
6.970602000000000,522,0xD0,0xF8,Write,ACK
6.970818250000000,522,0xD0,0xF0,Write,ACK
6.971034500000000,522,0xD0,0x98,Write,ACK
6.971250500000000,522,0xD0,0x83,Write,ACK
6.971466750000000,522,0xD0,0x24,Write,ACK
6.971683000000000,522,0xD0,0x08,Write,ACK
6.971899250000000,522,0xD0,0x44,Write,ACK
6.972115250000000,522,0xD0,0x10,Write,ACK
6.972331500000000,522,0xD0,0x64,Write,ACK
6.972547750000000,522,0xD0,0x18,Write,ACK
6.972764000000000,522,0xD0,0x97,Write,ACK
6.972980250000000,522,0xD0,0x82,Write,ACK
6.973196500000000,522,0xD0,0xA8,Write,ACK
6.973412750000000,522,0xD0,0xF1,Write,ACK
6.973970000000000,523,0xD0,0x6D,Write,ACK
6.974186250000000,523,0xD0,0x04,Write,ACK
6.974717750000000,524,0xD0,0x6E,Write,ACK
6.974934000000000,524,0xD0,0x70,Write,ACK
6.975468500000000,525,0xD0,0x6F,Write,ACK
6.975977000000000,526,0xD1,0xA3,Read,ACK
6.976193250000000,526,0xD1,0xD9,Read,ACK
6.976409500000000,526,0xD1,0xF8,Read,ACK
6.976625500000000,526,0xD1,0xF0,Read,ACK
6.976841750000000,526,0xD1,0x98,Read,ACK
6.977058000000000,526,0xD1,0x83,Read,ACK
6.977274250000000,526,0xD1,0x24,Read,ACK
6.977490250000000,526,0xD1,0x08,Read,ACK
6.977706500000000,526,0xD1,0x44,Read,ACK
6.977922750000000,526,0xD1,0x10,Read,ACK
6.978139000000000,526,0xD1,0x64,Read,ACK
6.978355000000000,526,0xD1,0x18,Read,ACK
6.978571500000000,526,0xD1,0x97,Read,ACK
6.978787500000000,526,0xD1,0x82,Read,ACK
6.979003750000000,526,0xD1,0xA8,Read,ACK
6.979220000000000,526,0xD1,0xF1,Read,NAK
6.980210750000000,527,0xD0,0x6D,Write,ACK
6.980427000000000,527,0xD0,0x04,Write,ACK
6.980958750000000,528,0xD0,0x6E,Write,ACK
6.981175000000000,528,0xD0,0x80,Write,ACK
6.982221750000000,529,0xD0,0x6F,Write,ACK
6.982438000000000,529,0xD0,0x11,Write,ACK
6.982654250000000,529,0xD0,0xF0,Write,ACK
6.982870250000000,529,0xD0,0x98,Write,ACK
6.983086750000000,529,0xD0,0xA2,Write,ACK
6.983302750000000,529,0xD0,0x24,Write,ACK
6.983519000000000,529,0xD0,0x08,Write,ACK
6.983735000000000,529,0xD0,0x44,Write,ACK
6.983951500000000,529,0xD0,0x10,Write,ACK
6.984167500000000,529,0xD0,0x64,Write,ACK
6.984383750000000,529,0xD0,0x18,Write,ACK
6.984599750000000,529,0xD0,0xDA,Write,ACK
6.984816000000000,529,0xD0,0xF3,Write,ACK
6.985032250000000,529,0xD0,0xDE,Write,ACK
6.985248500000000,529,0xD0,0xD8,Write,ACK
6.985464500000000,529,0xD0,0x83,Write,ACK
6.985680750000000,529,0xD0,0xA5,Write,ACK
6.986238250000000,530,0xD0,0x6D,Write,ACK
6.986454500000000,530,0xD0,0x04,Write,ACK
6.986985750000000,531,0xD0,0x6E,Write,ACK
6.987202000000000,531,0xD0,0x80,Write,ACK
6.987736500000000,532,0xD0,0x6F,Write,ACK
6.988245000000000,533,0xD1,0x11,Read,ACK
6.988461000000000,533,0xD1,0xF0,Read,ACK
6.988677250000000,533,0xD1,0x98,Read,ACK
6.988893500000000,533,0xD1,0xA2,Read,ACK
6.989109750000000,533,0xD1,0x24,Read,ACK
6.989325750000000,533,0xD1,0x08,Read,ACK
6.989542000000000,533,0xD1,0x44,Read,ACK
6.989758000000000,533,0xD1,0x10,Read,ACK
6.989974250000000,533,0xD1,0x64,Read,ACK
6.990190500000000,533,0xD1,0x18,Read,ACK
6.990406750000000,533,0xD1,0xDA,Read,ACK
6.990622750000000,533,0xD1,0xF3,Read,ACK
6.990839000000000,533,0xD1,0xDE,Read,ACK
6.991055250000000,533,0xD1,0xD8,Read,ACK
6.991271500000000,533,0xD1,0x83,Read,ACK
6.991487750000000,533,0xD1,0xA5,Read,NAK
6.992478750000000,534,0xD0,0x6D,Write,ACK
6.992695000000000,534,0xD0,0x04,Write,ACK
6.993226500000000,535,0xD0,0x6E,Write,ACK
6.993442750000000,535,0xD0,0x90,Write,ACK
6.994489750000000,536,0xD0,0x6F,Write,ACK
6.994706000000000,536,0xD0,0x94,Write,ACK
6.994922000000000,536,0xD0,0x01,Write,ACK
6.995138250000000,536,0xD0,0xD9,Write,ACK
6.995354500000000,536,0xD0,0xA3,Write,ACK
6.995570750000000,536,0xD0,0x02,Write,ACK
6.995786750000000,536,0xD0,0xF1,Write,ACK
6.996003000000000,536,0xD0,0xA2,Write,ACK
6.996219250000000,536,0xD0,0xC3,Write,ACK
6.996435500000000,536,0xD0,0xC5,Write,ACK
6.996651750000000,536,0xD0,0xC7,Write,ACK
6.996867750000000,536,0xD0,0xD8,Write,ACK
6.997084000000000,536,0xD0,0xF1,Write,ACK
6.997300250000000,536,0xD0,0x84,Write,ACK
6.997516500000000,536,0xD0,0x92,Write,ACK
6.997732750000000,536,0xD0,0xA2,Write,ACK
6.997949000000000,536,0xD0,0x4D,Write,ACK
6.998506250000000,537,0xD0,0x6D,Write,ACK
6.998722750000000,537,0xD0,0x04,Write,ACK
6.999254250000000,538,0xD0,0x6E,Write,ACK
6.999470250000000,538,0xD0,0x90,Write,ACK
7.000005000000000,539,0xD0,0x6F,Write,ACK
7.000513250000000,540,0xD1,0x94,Read,ACK
7.000729500000000,540,0xD1,0x01,Read,ACK
7.000945500000000,540,0xD1,0xD9,Read,ACK
7.001161750000000,540,0xD1,0xA3,Read,ACK
7.001378000000000,540,0xD1,0x02,Read,ACK
7.001594000000000,540,0xD1,0xF1,Read,ACK
7.001810250000000,540,0xD1,0xA2,Read,ACK
7.002026500000000,540,0xD1,0xC3,Read,ACK
7.002242750000000,540,0xD1,0xC5,Read,ACK
7.002458750000000,540,0xD1,0xC7,Read,ACK
7.002675000000000,540,0xD1,0xD8,Read,ACK
7.002891000000000,540,0xD1,0xF1,Read,ACK
7.003107250000000,540,0xD1,0x84,Read,ACK
7.003323500000000,540,0xD1,0x92,Read,ACK
7.003539750000000,540,0xD1,0xA2,Read,ACK
7.003755750000000,540,0xD1,0x4D,Read,NAK
7.004746750000000,541,0xD0,0x6D,Write,ACK
7.004963000000000,541,0xD0,0x04,Write,ACK
7.005494500000000,542,0xD0,0x6E,Write,ACK
7.005710500000000,542,0xD0,0xA0,Write,ACK
7.006757750000000,543,0xD0,0x6F,Write,ACK
7.006973750000000,543,0xD0,0xDA,Write,ACK
7.007190000000000,543,0xD0,0x2A,Write,ACK
7.007406250000000,543,0xD0,0xD8,Write,ACK
7.007622500000000,543,0xD0,0x48,Write,ACK
7.007838750000000,543,0xD0,0x69,Write,ACK
7.008054750000000,543,0xD0,0xD9,Write,ACK
7.008271000000000,543,0xD0,0x2A,Write,ACK
7.008487250000000,543,0xD0,0xD8,Write,ACK
7.008703500000000,543,0xD0,0x68,Write,ACK
7.008919500000000,543,0xD0,0x55,Write,ACK
7.009135750000000,543,0xD0,0xDA,Write,ACK
7.009352000000000,543,0xD0,0x32,Write,ACK
7.009568250000000,543,0xD0,0xD8,Write,ACK
7.009784250000000,543,0xD0,0x50,Write,ACK
7.010000500000000,543,0xD0,0x71,Write,ACK
7.010216750000000,543,0xD0,0xD9,Write,ACK
7.010774250000000,544,0xD0,0x6D,Write,ACK
7.010990500000000,544,0xD0,0x04,Write,ACK
7.011522000000000,545,0xD0,0x6E,Write,ACK
7.011738000000000,545,0xD0,0xA0,Write,ACK
7.012272500000000,546,0xD0,0x6F,Write,ACK
7.012781000000000,547,0xD1,0xDA,Read,ACK
7.012997250000000,547,0xD1,0x2A,Read,ACK
7.013213250000000,547,0xD1,0xD8,Read,ACK
7.013429500000000,547,0xD1,0x48,Read,ACK
7.013645750000000,547,0xD1,0x69,Read,ACK
7.013862000000000,547,0xD1,0xD9,Read,ACK
7.014078000000000,547,0xD1,0x2A,Read,ACK
7.014294250000000,547,0xD1,0xD8,Read,ACK
7.014510500000000,547,0xD1,0x68,Read,ACK
7.014726750000000,547,0xD1,0x55,Read,ACK
7.014942750000000,547,0xD1,0xDA,Read,ACK
7.015159000000000,547,0xD1,0x32,Read,ACK
7.015375250000000,547,0xD1,0xD8,Read,ACK
7.015591500000000,547,0xD1,0x50,Read,ACK
7.015807750000000,547,0xD1,0x71,Read,ACK
7.016023750000000,547,0xD1,0xD9,Read,NAK
7.017014750000000,548,0xD0,0x6D,Write,ACK
7.017231000000000,548,0xD0,0x04,Write,ACK
7.017762500000000,549,0xD0,0x6E,Write,ACK
7.017978500000000,549,0xD0,0xB0,Write,ACK
7.019025500000000,550,0xD0,0x6F,Write,ACK
7.019241750000000,550,0xD0,0x32,Write,ACK
7.019457750000000,550,0xD0,0xD8,Write,ACK
7.019674000000000,550,0xD0,0x70,Write,ACK
7.019890250000000,550,0xD0,0x5D,Write,ACK
7.020106500000000,550,0xD0,0xDA,Write,ACK
7.020322750000000,550,0xD0,0x3A,Write,ACK
7.020539000000000,550,0xD0,0xD8,Write,ACK
7.020755250000000,550,0xD0,0x58,Write,ACK
7.020971250000000,550,0xD0,0x79,Write,ACK
7.021187500000000,550,0xD0,0xD9,Write,ACK
7.021403750000000,550,0xD0,0x3A,Write,ACK
7.021620000000000,550,0xD0,0xD8,Write,ACK
7.021836000000000,550,0xD0,0x78,Write,ACK
7.022052250000000,550,0xD0,0x93,Write,ACK
7.022268500000000,550,0xD0,0xA3,Write,ACK
7.022484750000000,550,0xD0,0x4D,Write,ACK
7.023042250000000,551,0xD0,0x6D,Write,ACK
7.023258500000000,551,0xD0,0x04,Write,ACK
7.023790000000000,552,0xD0,0x6E,Write,ACK
7.024006000000000,552,0xD0,0xB0,Write,ACK
7.024540500000000,553,0xD0,0x6F,Write,ACK
7.025049000000000,554,0xD1,0x32,Read,ACK
7.025265000000000,554,0xD1,0xD8,Read,ACK
7.025481250000000,554,0xD1,0x70,Read,ACK
7.025697250000000,554,0xD1,0x5D,Read,ACK
7.025913500000000,554,0xD1,0xDA,Read,ACK
7.026129750000000,554,0xD1,0x3A,Read,ACK
7.026345750000000,554,0xD1,0xD8,Read,ACK
7.026562000000000,554,0xD1,0x58,Read,ACK
7.026778250000000,554,0xD1,0x79,Read,ACK
7.026994250000000,554,0xD1,0xD9,Read,ACK
7.027210500000000,554,0xD1,0x3A,Read,ACK
7.027426750000000,554,0xD1,0xD8,Read,ACK
7.027643000000000,554,0xD1,0x78,Read,ACK
7.027859000000000,554,0xD1,0x93,Read,ACK
7.028075250000000,554,0xD1,0xA3,Read,ACK
7.028291250000000,554,0xD1,0x4D,Read,NAK
7.029282000000000,555,0xD0,0x6D,Write,ACK
7.029498250000000,555,0xD0,0x04,Write,ACK
7.030029500000000,556,0xD0,0x6E,Write,ACK
7.030245750000000,556,0xD0,0xC0,Write,ACK
7.031292500000000,557,0xD0,0x6F,Write,ACK
7.031508750000000,557,0xD0,0xDA,Write,ACK
7.031725000000000,557,0xD0,0x2A,Write,ACK
7.031941000000000,557,0xD0,0xD8,Write,ACK
7.032157250000000,557,0xD0,0x48,Write,ACK
7.032373500000000,557,0xD0,0x69,Write,ACK
7.032589500000000,557,0xD0,0xD9,Write,ACK
7.032805750000000,557,0xD0,0x2A,Write,ACK
7.033022000000000,557,0xD0,0xD8,Write,ACK
7.033238250000000,557,0xD0,0x68,Write,ACK
7.033454500000000,557,0xD0,0x55,Write,ACK
7.033670500000000,557,0xD0,0xDA,Write,ACK
7.033886750000000,557,0xD0,0x32,Write,ACK
7.034103000000000,557,0xD0,0xD8,Write,ACK
7.034319250000000,557,0xD0,0x50,Write,ACK
7.034535500000000,557,0xD0,0x71,Write,ACK
7.034751750000000,557,0xD0,0xD9,Write,ACK
7.035309250000000,558,0xD0,0x6D,Write,ACK
7.035525500000000,558,0xD0,0x04,Write,ACK
7.036057000000000,559,0xD0,0x6E,Write,ACK
7.036273000000000,559,0xD0,0xC0,Write,ACK
7.036807500000000,560,0xD0,0x6F,Write,ACK
7.037316250000000,561,0xD1,0xDA,Read,ACK
7.037532500000000,561,0xD1,0x2A,Read,ACK
7.037748500000000,561,0xD1,0xD8,Read,ACK
7.037964750000000,561,0xD1,0x48,Read,ACK
7.038181000000000,561,0xD1,0x69,Read,ACK
7.038397000000000,561,0xD1,0xD9,Read,ACK
7.038613250000000,561,0xD1,0x2A,Read,ACK
7.038829500000000,561,0xD1,0xD8,Read,ACK
7.039045750000000,561,0xD1,0x68,Read,ACK
7.039261750000000,561,0xD1,0x55,Read,ACK
7.039478000000000,561,0xD1,0xDA,Read,ACK
7.039694000000000,561,0xD1,0x32,Read,ACK
7.039910250000000,561,0xD1,0xD8,Read,ACK
7.040126500000000,561,0xD1,0x50,Read,ACK
7.040342750000000,561,0xD1,0x71,Read,ACK
7.040558750000000,561,0xD1,0xD9,Read,NAK
7.041549500000000,562,0xD0,0x6D,Write,ACK
7.041765750000000,562,0xD0,0x04,Write,ACK
7.042297000000000,563,0xD0,0x6E,Write,ACK
7.042513250000000,563,0xD0,0xD0,Write,ACK
7.043560250000000,564,0xD0,0x6F,Write,ACK
7.043776250000000,564,0xD0,0x32,Write,ACK
7.043992500000000,564,0xD0,0xD8,Write,ACK
7.044208750000000,564,0xD0,0x70,Write,ACK
7.044425000000000,564,0xD0,0x5D,Write,ACK
7.044641000000000,564,0xD0,0xDA,Write,ACK
7.044857250000000,564,0xD0,0x3A,Write,ACK
7.045073500000000,564,0xD0,0xD8,Write,ACK
7.045289750000000,564,0xD0,0x58,Write,ACK
7.045505750000000,564,0xD0,0x79,Write,ACK
7.045722000000000,564,0xD0,0xD9,Write,ACK
7.045938000000000,564,0xD0,0x3A,Write,ACK
7.046154250000000,564,0xD0,0xD8,Write,ACK
7.046370500000000,564,0xD0,0x78,Write,ACK
7.046586750000000,564,0xD0,0xA8,Write,ACK
7.046802750000000,564,0xD0,0x8A,Write,ACK
7.047019000000000,564,0xD0,0x9A,Write,ACK
7.047576500000000,565,0xD0,0x6D,Write,ACK
7.047792750000000,565,0xD0,0x04,Write,ACK
7.048324250000000,566,0xD0,0x6E,Write,ACK
7.048540500000000,566,0xD0,0xD0,Write,ACK
7.049075000000000,567,0xD0,0x6F,Write,ACK
7.049583500000000,568,0xD1,0x32,Read,ACK
7.049799750000000,568,0xD1,0xD8,Read,ACK
7.050015750000000,568,0xD1,0x70,Read,ACK
7.050232000000000,568,0xD1,0x5D,Read,ACK
7.050448000000000,568,0xD1,0xDA,Read,ACK
7.050664250000000,568,0xD1,0x3A,Read,ACK
7.050880250000000,568,0xD1,0xD8,Read,ACK
7.051096500000000,568,0xD1,0x58,Read,ACK
7.051312500000000,568,0xD1,0x79,Read,ACK
7.051528750000000,568,0xD1,0xD9,Read,ACK
7.051744750000000,568,0xD1,0x3A,Read,ACK
7.051961000000000,568,0xD1,0xD8,Read,ACK
7.052177000000000,568,0xD1,0x78,Read,ACK
7.052393250000000,568,0xD1,0xA8,Read,ACK
7.052609500000000,568,0xD1,0x8A,Read,ACK
7.052825500000000,568,0xD1,0x9A,Read,NAK
7.053816000000000,569,0xD0,0x6D,Write,ACK
7.054032250000000,569,0xD0,0x04,Write,ACK
7.054563750000000,570,0xD0,0x6E,Write,ACK
7.054779750000000,570,0xD0,0xE0,Write,ACK
7.055826500000000,571,0xD0,0x6F,Write,ACK
7.056042750000000,571,0xD0,0xF0,Write,ACK
7.056258750000000,571,0xD0,0x28,Write,ACK
7.056475000000000,571,0xD0,0x50,Write,ACK
7.056691000000000,571,0xD0,0x78,Write,ACK
7.056907250000000,571,0xD0,0x9E,Write,ACK
7.057123250000000,571,0xD0,0xF3,Write,ACK
7.057339500000000,571,0xD0,0x88,Write,ACK
7.057555500000000,571,0xD0,0x18,Write,ACK
7.057771750000000,571,0xD0,0xF1,Write,ACK
7.057987750000000,571,0xD0,0x9F,Write,ACK
7.058204000000000,571,0xD0,0x1D,Write,ACK
7.058420250000000,571,0xD0,0x98,Write,ACK
7.058636250000000,571,0xD0,0xA8,Write,ACK
7.058852500000000,571,0xD0,0xD9,Write,ACK
7.059068500000000,571,0xD0,0x08,Write,ACK
7.059284750000000,571,0xD0,0xD8,Write,ACK
7.059842000000000,572,0xD0,0x6D,Write,ACK
7.060058250000000,572,0xD0,0x04,Write,ACK
7.060589750000000,573,0xD0,0x6E,Write,ACK
7.060805750000000,573,0xD0,0xE0,Write,ACK
7.061340250000000,574,0xD0,0x6F,Write,ACK
7.061848750000000,575,0xD1,0xF0,Read,ACK
7.062065000000000,575,0xD1,0x28,Read,ACK
7.062281000000000,575,0xD1,0x50,Read,ACK
7.062497250000000,575,0xD1,0x78,Read,ACK
7.062713250000000,575,0xD1,0x9E,Read,ACK
7.062929500000000,575,0xD1,0xF3,Read,ACK
7.063145750000000,575,0xD1,0x88,Read,ACK
7.063361750000000,575,0xD1,0x18,Read,ACK
7.063578000000000,575,0xD1,0xF1,Read,ACK
7.063794250000000,575,0xD1,0x9F,Read,ACK
7.064010250000000,575,0xD1,0x1D,Read,ACK
7.064226500000000,575,0xD1,0x98,Read,ACK
7.064442500000000,575,0xD1,0xA8,Read,ACK
7.064658750000000,575,0xD1,0xD9,Read,ACK
7.064875000000000,575,0xD1,0x08,Read,ACK
7.065091000000000,575,0xD1,0xD8,Read,NAK
7.066081750000000,576,0xD0,0x6D,Write,ACK
7.066298000000000,576,0xD0,0x04,Write,ACK
7.066829500000000,577,0xD0,0x6E,Write,ACK
7.067045500000000,577,0xD0,0xF0,Write,ACK
7.068092250000000,578,0xD0,0x6F,Write,ACK
7.068308500000000,578,0xD0,0xC8,Write,ACK
7.068524750000000,578,0xD0,0x9F,Write,ACK
7.068740750000000,578,0xD0,0x12,Write,ACK
7.068957000000000,578,0xD0,0x9E,Write,ACK
7.069173250000000,578,0xD0,0xF3,Write,ACK
7.069389250000000,578,0xD0,0x15,Write,ACK
7.069605500000000,578,0xD0,0xA8,Write,ACK
7.069821750000000,578,0xD0,0xDA,Write,ACK
7.070038000000000,578,0xD0,0x12,Write,ACK
7.070254000000000,578,0xD0,0x10,Write,ACK
7.070470250000000,578,0xD0,0xD8,Write,ACK
7.070686500000000,578,0xD0,0xF1,Write,ACK
7.070902750000000,578,0xD0,0xAF,Write,ACK
7.071118750000000,578,0xD0,0xC8,Write,ACK
7.071335000000000,578,0xD0,0x97,Write,ACK
7.071551250000000,578,0xD0,0x87,Write,ACK
7.072108500000000,579,0xD0,0x6D,Write,ACK
7.072324750000000,579,0xD0,0x04,Write,ACK
7.072856250000000,580,0xD0,0x6E,Write,ACK
7.073072250000000,580,0xD0,0xF0,Write,ACK
7.073606750000000,581,0xD0,0x6F,Write,ACK
7.074115000000000,582,0xD1,0xC8,Read,ACK
7.074331250000000,582,0xD1,0x9F,Read,ACK
7.074547500000000,582,0xD1,0x12,Read,ACK
7.074763500000000,582,0xD1,0x9E,Read,ACK
7.074979750000000,582,0xD1,0xF3,Read,ACK
7.075196000000000,582,0xD1,0x15,Read,ACK
7.075412000000000,582,0xD1,0xA8,Read,ACK
7.075628250000000,582,0xD1,0xDA,Read,ACK
7.075844250000000,582,0xD1,0x12,Read,ACK
7.076060500000000,582,0xD1,0x10,Read,ACK
7.076276750000000,582,0xD1,0xD8,Read,ACK
7.076492750000000,582,0xD1,0xF1,Read,ACK
7.076709000000000,582,0xD1,0xAF,Read,ACK
7.076925250000000,582,0xD1,0xC8,Read,ACK
7.077141250000000,582,0xD1,0x97,Read,ACK
7.077357500000000,582,0xD1,0x87,Read,NAK
7.078349000000000,583,0xD0,0x6D,Write,ACK
7.078565250000000,583,0xD0,0x05,Write,ACK
7.079096500000000,584,0xD0,0x6E,Write,ACK
7.079312500000000,584,0xD0,0x00,Write,ACK
7.080359250000000,585,0xD0,0x6F,Write,ACK
7.080575500000000,585,0xD0,0x34,Write,ACK
7.080791500000000,585,0xD0,0xB5,Write,ACK
7.081007750000000,585,0xD0,0xB9,Write,ACK
7.081223750000000,585,0xD0,0x94,Write,ACK
7.081440000000000,585,0xD0,0xA4,Write,ACK
7.081656000000000,585,0xD0,0x21,Write,ACK
7.081872250000000,585,0xD0,0xF3,Write,ACK
7.082088500000000,585,0xD0,0xD9,Write,ACK
7.082304750000000,585,0xD0,0x22,Write,ACK
7.082520750000000,585,0xD0,0xD8,Write,ACK
7.082737000000000,585,0xD0,0xF2,Write,ACK
7.082953000000000,585,0xD0,0x2D,Write,ACK
7.083169250000000,585,0xD0,0xF3,Write,ACK
7.083385500000000,585,0xD0,0xD9,Write,ACK
7.083601500000000,585,0xD0,0x2A,Write,ACK
7.083817500000000,585,0xD0,0xD8,Write,ACK
7.084375000000000,586,0xD0,0x6D,Write,ACK
7.084591250000000,586,0xD0,0x05,Write,ACK
7.085122500000000,587,0xD0,0x6E,Write,ACK
7.085338750000000,587,0xD0,0x00,Write,ACK
7.085873000000000,588,0xD0,0x6F,Write,ACK
7.086381250000000,589,0xD1,0x34,Read,ACK
7.086597500000000,589,0xD1,0xB5,Read,ACK
7.086813500000000,589,0xD1,0xB9,Read,ACK
7.087029500000000,589,0xD1,0x94,Read,ACK
7.087245750000000,589,0xD1,0xA4,Read,ACK
7.087461750000000,589,0xD1,0x21,Read,ACK
7.087678000000000,589,0xD1,0xF3,Read,ACK
7.087894000000000,589,0xD1,0xD9,Read,ACK
7.088110250000000,589,0xD1,0x22,Read,ACK
7.088326250000000,589,0xD1,0xD8,Read,ACK
7.088542500000000,589,0xD1,0xF2,Read,ACK
7.088758500000000,589,0xD1,0x2D,Read,ACK
7.088974750000000,589,0xD1,0xF3,Read,ACK
7.089190750000000,589,0xD1,0xD9,Read,ACK
7.089407000000000,589,0xD1,0x2A,Read,ACK
7.089623000000000,589,0xD1,0xD8,Read,NAK
7.090613750000000,590,0xD0,0x6D,Write,ACK
7.090829750000000,590,0xD0,0x05,Write,ACK
7.091361000000000,591,0xD0,0x6E,Write,ACK
7.091577250000000,591,0xD0,0x10,Write,ACK
7.092623750000000,592,0xD0,0x6F,Write,ACK
7.092840000000000,592,0xD0,0xF2,Write,ACK
7.093056000000000,592,0xD0,0x35,Write,ACK
7.093272250000000,592,0xD0,0xF3,Write,ACK
7.093488250000000,592,0xD0,0xD9,Write,ACK
7.093704500000000,592,0xD0,0x32,Write,ACK
7.093920500000000,592,0xD0,0xD8,Write,ACK
7.094136750000000,592,0xD0,0x81,Write,ACK
7.094352750000000,592,0xD0,0xA4,Write,ACK
7.094569000000000,592,0xD0,0x60,Write,ACK
7.094785000000000,592,0xD0,0x60,Write,ACK
7.095001250000000,592,0xD0,0x61,Write,ACK
7.095217250000000,592,0xD0,0xD9,Write,ACK
7.095433500000000,592,0xD0,0x61,Write,ACK
7.095649500000000,592,0xD0,0xD8,Write,ACK
7.095865500000000,592,0xD0,0x6C,Write,ACK
7.096081750000000,592,0xD0,0x68,Write,ACK
7.096639000000000,593,0xD0,0x6D,Write,ACK
7.096855250000000,593,0xD0,0x05,Write,ACK
7.097386500000000,594,0xD0,0x6E,Write,ACK
7.097602500000000,594,0xD0,0x10,Write,ACK
7.098136750000000,595,0xD0,0x6F,Write,ACK
7.098645000000000,596,0xD1,0xF2,Read,ACK
7.098861250000000,596,0xD1,0x35,Read,ACK
7.099077250000000,596,0xD1,0xF3,Read,ACK
7.099293250000000,596,0xD1,0xD9,Read,ACK
7.099509250000000,596,0xD1,0x32,Read,ACK
7.099725500000000,596,0xD1,0xD8,Read,ACK
7.099941500000000,596,0xD1,0x81,Read,ACK
7.100157750000000,596,0xD1,0xA4,Read,ACK
7.100373750000000,596,0xD1,0x60,Read,ACK
7.100590000000000,596,0xD1,0x60,Read,ACK
7.100806000000000,596,0xD1,0x61,Read,ACK
7.101022000000000,596,0xD1,0xD9,Read,ACK
7.101238000000000,596,0xD1,0x61,Read,ACK
7.101454250000000,596,0xD1,0xD8,Read,ACK
7.101670250000000,596,0xD1,0x6C,Read,ACK
7.101886500000000,596,0xD1,0x68,Read,NAK
7.102877000000000,597,0xD0,0x6D,Write,ACK
7.103093000000000,597,0xD0,0x05,Write,ACK
7.103624500000000,598,0xD0,0x6E,Write,ACK
7.103840500000000,598,0xD0,0x20,Write,ACK
7.104887000000000,599,0xD0,0x6F,Write,ACK
7.105103250000000,599,0xD0,0x69,Write,ACK
7.105319250000000,599,0xD0,0xD9,Write,ACK
7.105535250000000,599,0xD0,0x69,Write,ACK
7.105751500000000,599,0xD0,0xD8,Write,ACK
7.105967750000000,599,0xD0,0x74,Write,ACK
7.106183750000000,599,0xD0,0x70,Write,ACK
7.106400000000000,599,0xD0,0x71,Write,ACK
7.106616250000000,599,0xD0,0xD9,Write,ACK
7.106832250000000,599,0xD0,0x71,Write,ACK
7.107048500000000,599,0xD0,0xD8,Write,ACK
7.107264500000000,599,0xD0,0xB1,Write,ACK
7.107480500000000,599,0xD0,0xA3,Write,ACK
7.107696750000000,599,0xD0,0x84,Write,ACK
7.107913000000000,599,0xD0,0x19,Write,ACK
7.108129000000000,599,0xD0,0x3D,Write,ACK
7.108345000000000,599,0xD0,0x5D,Write,ACK
7.108902500000000,600,0xD0,0x6D,Write,ACK
7.109118500000000,600,0xD0,0x05,Write,ACK
7.109650000000000,601,0xD0,0x6E,Write,ACK
7.109866000000000,601,0xD0,0x20,Write,ACK
7.110400500000000,602,0xD0,0x6F,Write,ACK
7.110908750000000,603,0xD1,0x69,Read,ACK
7.111125000000000,603,0xD1,0xD9,Read,ACK
7.111341250000000,603,0xD1,0x69,Read,ACK
7.111557250000000,603,0xD1,0xD8,Read,ACK
7.111773250000000,603,0xD1,0x74,Read,ACK
7.111989500000000,603,0xD1,0x70,Read,ACK
7.112205500000000,603,0xD1,0x71,Read,ACK
7.112421750000000,603,0xD1,0xD9,Read,ACK
7.112637750000000,603,0xD1,0x71,Read,ACK
7.112854000000000,603,0xD1,0xD8,Read,ACK
7.113070000000000,603,0xD1,0xB1,Read,ACK
7.113286250000000,603,0xD1,0xA3,Read,ACK
7.113502250000000,603,0xD1,0x84,Read,ACK
7.113718500000000,603,0xD1,0x19,Read,ACK
7.113934500000000,603,0xD1,0x3D,Read,ACK
7.114150750000000,603,0xD1,0x5D,Read,NAK
7.115141250000000,604,0xD0,0x6D,Write,ACK
7.115357500000000,604,0xD0,0x05,Write,ACK
7.115889000000000,605,0xD0,0x6E,Write,ACK
7.116105000000000,605,0xD0,0x30,Write,ACK
7.117151750000000,606,0xD0,0x6F,Write,ACK
7.117367750000000,606,0xD0,0xA3,Write,ACK
7.117584000000000,606,0xD0,0x83,Write,ACK
7.117800000000000,606,0xD0,0x1A,Write,ACK
7.118016250000000,606,0xD0,0x3E,Write,ACK
7.118232250000000,606,0xD0,0x5E,Write,ACK
7.118448500000000,606,0xD0,0x93,Write,ACK
7.118664500000000,606,0xD0,0x10,Write,ACK
7.118880750000000,606,0xD0,0x30,Write,ACK
7.119097000000000,606,0xD0,0x81,Write,ACK
7.119313000000000,606,0xD0,0x10,Write,ACK
7.119529250000000,606,0xD0,0x11,Write,ACK
7.119745250000000,606,0xD0,0xB8,Write,ACK
7.119961500000000,606,0xD0,0xB0,Write,ACK
7.120177750000000,606,0xD0,0xAF,Write,ACK
7.120393750000000,606,0xD0,0x8F,Write,ACK
7.120609750000000,606,0xD0,0x94,Write,ACK
7.121167250000000,607,0xD0,0x6D,Write,ACK
7.121383250000000,607,0xD0,0x05,Write,ACK
7.121914750000000,608,0xD0,0x6E,Write,ACK
7.122130750000000,608,0xD0,0x30,Write,ACK
7.122665250000000,609,0xD0,0x6F,Write,ACK
7.123173500000000,610,0xD1,0xA3,Read,ACK
7.123389750000000,610,0xD1,0x83,Read,ACK
7.123605750000000,610,0xD1,0x1A,Read,ACK
7.123822000000000,610,0xD1,0x3E,Read,ACK
7.124038000000000,610,0xD1,0x5E,Read,ACK
7.124254250000000,610,0xD1,0x93,Read,ACK
7.124470500000000,610,0xD1,0x10,Read,ACK
7.124686500000000,610,0xD1,0x30,Read,ACK
7.124902750000000,610,0xD1,0x81,Read,ACK
7.125119000000000,610,0xD1,0x10,Read,ACK
7.125335000000000,610,0xD1,0x11,Read,ACK
7.125551250000000,610,0xD1,0xB8,Read,ACK
7.125767500000000,610,0xD1,0xB0,Read,ACK
7.125983750000000,610,0xD1,0xAF,Read,ACK
7.126199750000000,610,0xD1,0x8F,Read,ACK
7.126416000000000,610,0xD1,0x94,Read,NAK
7.127406750000000,611,0xD0,0x6D,Write,ACK
7.127622750000000,611,0xD0,0x05,Write,ACK
7.128154250000000,612,0xD0,0x6E,Write,ACK
7.128370500000000,612,0xD0,0x40,Write,ACK
7.129417500000000,613,0xD0,0x6F,Write,ACK
7.129633750000000,613,0xD0,0xF2,Write,ACK
7.129850000000000,613,0xD0,0xDA,Write,ACK
7.130066000000000,613,0xD0,0x3E,Write,ACK
7.130282250000000,613,0xD0,0xD8,Write,ACK
7.130498500000000,613,0xD0,0xB4,Write,ACK
7.130714500000000,613,0xD0,0x9A,Write,ACK
7.130930750000000,613,0xD0,0xA8,Write,ACK
7.131147000000000,613,0xD0,0x87,Write,ACK
7.131363250000000,613,0xD0,0x29,Write,ACK
7.131579250000000,613,0xD0,0xDA,Write,ACK
7.131795500000000,613,0xD0,0xF8,Write,ACK
7.132011500000000,613,0xD0,0xD8,Write,ACK
7.132227750000000,613,0xD0,0x87,Write,ACK
7.132444000000000,613,0xD0,0x9A,Write,ACK
7.132660000000000,613,0xD0,0x35,Write,ACK
7.132876250000000,613,0xD0,0xDA,Write,ACK
7.133433750000000,614,0xD0,0x6D,Write,ACK
7.133649750000000,614,0xD0,0x05,Write,ACK
7.134181250000000,615,0xD0,0x6E,Write,ACK
7.134397500000000,615,0xD0,0x40,Write,ACK
7.134932000000000,616,0xD0,0x6F,Write,ACK
7.135440250000000,617,0xD1,0xF2,Read,ACK
7.135656500000000,617,0xD1,0xDA,Read,ACK
7.135872750000000,617,0xD1,0x3E,Read,ACK
7.136089000000000,617,0xD1,0xD8,Read,ACK
7.136305000000000,617,0xD1,0xB4,Read,ACK
7.136521250000000,617,0xD1,0x9A,Read,ACK
7.136737500000000,617,0xD1,0xA8,Read,ACK
7.136953500000000,617,0xD1,0x87,Read,ACK
7.137169750000000,617,0xD1,0x29,Read,ACK
7.137385750000000,617,0xD1,0xDA,Read,ACK
7.137602000000000,617,0xD1,0xF8,Read,ACK
7.137818250000000,617,0xD1,0xD8,Read,ACK
7.138034250000000,617,0xD1,0x87,Read,ACK
7.138250500000000,617,0xD1,0x9A,Read,ACK
7.138466750000000,617,0xD1,0x35,Read,ACK
7.138682750000000,617,0xD1,0xDA,Read,NAK
7.139673500000000,618,0xD0,0x6D,Write,ACK
7.139889750000000,618,0xD0,0x05,Write,ACK
7.140421250000000,619,0xD0,0x6E,Write,ACK
7.140637250000000,619,0xD0,0x50,Write,ACK
7.141684000000000,620,0xD0,0x6F,Write,ACK
7.141900250000000,620,0xD0,0xF8,Write,ACK
7.142116500000000,620,0xD0,0xD8,Write,ACK
7.142332750000000,620,0xD0,0x87,Write,ACK
7.142548750000000,620,0xD0,0x9A,Write,ACK
7.142765000000000,620,0xD0,0x3D,Write,ACK
7.142981250000000,620,0xD0,0xDA,Write,ACK
7.143197500000000,620,0xD0,0xF8,Write,ACK
7.143413750000000,620,0xD0,0xD8,Write,ACK
7.143630000000000,620,0xD0,0xB1,Write,ACK
7.143846250000000,620,0xD0,0xB9,Write,ACK
7.144062500000000,620,0xD0,0xA4,Write,ACK
7.144278500000000,620,0xD0,0x98,Write,ACK
7.144494750000000,620,0xD0,0x85,Write,ACK
7.144711000000000,620,0xD0,0x02,Write,ACK
7.144927250000000,620,0xD0,0x2E,Write,ACK
7.145143250000000,620,0xD0,0x56,Write,ACK
7.145701000000000,621,0xD0,0x6D,Write,ACK
7.145917000000000,621,0xD0,0x05,Write,ACK
7.146448500000000,622,0xD0,0x6E,Write,ACK
7.146664750000000,622,0xD0,0x50,Write,ACK
7.147199250000000,623,0xD0,0x6F,Write,ACK
7.147707500000000,624,0xD1,0xF8,Read,ACK
7.147923750000000,624,0xD1,0xD8,Read,ACK
7.148140000000000,624,0xD1,0x87,Read,ACK
7.148356250000000,624,0xD1,0x9A,Read,ACK
7.148572500000000,624,0xD1,0x3D,Read,ACK
7.148788500000000,624,0xD1,0xDA,Read,ACK
7.149005000000000,624,0xD1,0xF8,Read,ACK
7.149221000000000,624,0xD1,0xD8,Read,ACK
7.149437250000000,624,0xD1,0xB1,Read,ACK
7.149653500000000,624,0xD1,0xB9,Read,ACK
7.149869750000000,624,0xD1,0xA4,Read,ACK
7.150085750000000,624,0xD1,0x98,Read,ACK
7.150302000000000,624,0xD1,0x85,Read,ACK
7.150518250000000,624,0xD1,0x02,Read,ACK
7.150734500000000,624,0xD1,0x2E,Read,ACK
7.150950750000000,624,0xD1,0x56,Read,NAK
7.151941500000000,625,0xD0,0x6D,Write,ACK
7.152157750000000,625,0xD0,0x05,Write,ACK
7.152689250000000,626,0xD0,0x6E,Write,ACK
7.152905250000000,626,0xD0,0x60,Write,ACK
7.153952250000000,627,0xD0,0x6F,Write,ACK
7.154168500000000,627,0xD0,0xA5,Write,ACK
7.154384750000000,627,0xD0,0x81,Write,ACK
7.154600750000000,627,0xD0,0x00,Write,ACK
7.154817000000000,627,0xD0,0x0C,Write,ACK
7.155033250000000,627,0xD0,0x14,Write,ACK
7.155249500000000,627,0xD0,0xA3,Write,ACK
7.155465750000000,627,0xD0,0x97,Write,ACK
7.155681750000000,627,0xD0,0xB0,Write,ACK
7.155898000000000,627,0xD0,0x8A,Write,ACK
7.156114250000000,627,0xD0,0xF1,Write,ACK
7.156330500000000,627,0xD0,0x2D,Write,ACK
7.156546750000000,627,0xD0,0xD9,Write,ACK
7.156762750000000,627,0xD0,0x28,Write,ACK
7.156979000000000,627,0xD0,0xD8,Write,ACK
7.157195250000000,627,0xD0,0x4D,Write,ACK
7.157411500000000,627,0xD0,0xD9,Write,ACK
7.157969000000000,628,0xD0,0x6D,Write,ACK
7.158185250000000,628,0xD0,0x05,Write,ACK
7.158716750000000,629,0xD0,0x6E,Write,ACK
7.158933000000000,629,0xD0,0x60,Write,ACK
7.159467500000000,630,0xD0,0x6F,Write,ACK
7.159976000000000,631,0xD1,0xA5,Read,ACK
7.160192250000000,631,0xD1,0x81,Read,ACK
7.160408250000000,631,0xD1,0x00,Read,ACK
7.160624500000000,631,0xD1,0x0C,Read,ACK
7.160840500000000,631,0xD1,0x14,Read,ACK
7.161056750000000,631,0xD1,0xA3,Read,ACK
7.161273000000000,631,0xD1,0x97,Read,ACK
7.161489250000000,631,0xD1,0xB0,Read,ACK
7.161705250000000,631,0xD1,0x8A,Read,ACK
7.161921500000000,631,0xD1,0xF1,Read,ACK
7.162137750000000,631,0xD1,0x2D,Read,ACK
7.162354000000000,631,0xD1,0xD9,Read,ACK
7.162570000000000,631,0xD1,0x28,Read,ACK
7.162786250000000,631,0xD1,0xD8,Read,ACK
7.163002500000000,631,0xD1,0x4D,Read,ACK
7.163218500000000,631,0xD1,0xD9,Read,NAK
7.164209250000000,632,0xD0,0x6D,Write,ACK
7.164425500000000,632,0xD0,0x05,Write,ACK
7.164957000000000,633,0xD0,0x6E,Write,ACK
7.165173250000000,633,0xD0,0x70,Write,ACK
7.166220000000000,634,0xD0,0x6F,Write,ACK
7.166436250000000,634,0xD0,0x48,Write,ACK
7.166652500000000,634,0xD0,0xD8,Write,ACK
7.166868750000000,634,0xD0,0x6D,Write,ACK
7.167084750000000,634,0xD0,0xD9,Write,ACK
7.167301000000000,634,0xD0,0x68,Write,ACK
7.167517250000000,634,0xD0,0xD8,Write,ACK
7.167733500000000,634,0xD0,0xB1,Write,ACK
7.167949500000000,634,0xD0,0x84,Write,ACK
7.168165750000000,634,0xD0,0x0D,Write,ACK
7.168382000000000,634,0xD0,0xDA,Write,ACK
7.168598250000000,634,0xD0,0x0E,Write,ACK
7.168814250000000,634,0xD0,0xD8,Write,ACK
7.169030500000000,634,0xD0,0xA3,Write,ACK
7.169246750000000,634,0xD0,0x29,Write,ACK
7.169463000000000,634,0xD0,0x83,Write,ACK
7.169679250000000,634,0xD0,0xDA,Write,ACK
7.170236750000000,635,0xD0,0x6D,Write,ACK
7.170453000000000,635,0xD0,0x05,Write,ACK
7.170984500000000,636,0xD0,0x6E,Write,ACK
7.171200750000000,636,0xD0,0x70,Write,ACK
7.171735250000000,637,0xD0,0x6F,Write,ACK
7.172243500000000,638,0xD1,0x48,Read,ACK
7.172459750000000,638,0xD1,0xD8,Read,ACK
7.172676000000000,638,0xD1,0x6D,Read,ACK
7.172892000000000,638,0xD1,0xD9,Read,ACK
7.173108250000000,638,0xD1,0x68,Read,ACK
7.173324500000000,638,0xD1,0xD8,Read,ACK
7.173540750000000,638,0xD1,0xB1,Read,ACK
7.173756750000000,638,0xD1,0x84,Read,ACK
7.173973000000000,638,0xD1,0x0D,Read,ACK
7.174189250000000,638,0xD1,0xDA,Read,ACK
7.174405500000000,638,0xD1,0x0E,Read,ACK
7.174621500000000,638,0xD1,0xD8,Read,ACK
7.174837750000000,638,0xD1,0xA3,Read,ACK
7.175054000000000,638,0xD1,0x29,Read,ACK
7.175270250000000,638,0xD1,0x83,Read,ACK
7.175486250000000,638,0xD1,0xDA,Read,NAK
7.176477250000000,639,0xD0,0x6D,Write,ACK
7.176693500000000,639,0xD0,0x05,Write,ACK
7.177225000000000,640,0xD0,0x6E,Write,ACK
7.177441250000000,640,0xD0,0x80,Write,ACK
7.178488000000000,641,0xD0,0x6F,Write,ACK
7.178704250000000,641,0xD0,0x2C,Write,ACK
7.178920500000000,641,0xD0,0x0E,Write,ACK
7.179136750000000,641,0xD0,0xD8,Write,ACK
7.179353000000000,641,0xD0,0xA3,Write,ACK
7.179569250000000,641,0xD0,0x84,Write,ACK
7.179785500000000,641,0xD0,0x49,Write,ACK
7.180001500000000,641,0xD0,0x83,Write,ACK
7.180217750000000,641,0xD0,0xDA,Write,ACK
7.180433750000000,641,0xD0,0x2C,Write,ACK
7.180650000000000,641,0xD0,0x4C,Write,ACK
7.180866250000000,641,0xD0,0x0E,Write,ACK
7.181082250000000,641,0xD0,0xD8,Write,ACK
7.181298500000000,641,0xD0,0xB8,Write,ACK
7.181514750000000,641,0xD0,0xB0,Write,ACK
7.181731000000000,641,0xD0,0xA8,Write,ACK
7.181947250000000,641,0xD0,0x8A,Write,ACK
7.182504750000000,642,0xD0,0x6D,Write,ACK
7.182721000000000,642,0xD0,0x05,Write,ACK
7.183252500000000,643,0xD0,0x6E,Write,ACK
7.183468750000000,643,0xD0,0x80,Write,ACK
7.184003250000000,644,0xD0,0x6F,Write,ACK
7.184511750000000,645,0xD1,0x2C,Read,ACK
7.184727750000000,645,0xD1,0x0E,Read,ACK
7.184944000000000,645,0xD1,0xD8,Read,ACK
7.185160250000000,645,0xD1,0xA3,Read,ACK
7.185376500000000,645,0xD1,0x84,Read,ACK
7.185592750000000,645,0xD1,0x49,Read,ACK
7.185809000000000,645,0xD1,0x83,Read,ACK
7.186025250000000,645,0xD1,0xDA,Read,ACK
7.186241250000000,645,0xD1,0x2C,Read,ACK
7.186457500000000,645,0xD1,0x4C,Read,ACK
7.186673750000000,645,0xD1,0x0E,Read,ACK
7.186889750000000,645,0xD1,0xD8,Read,ACK
7.187106000000000,645,0xD1,0xB8,Read,ACK
7.187322250000000,645,0xD1,0xB0,Read,ACK
7.187538500000000,645,0xD1,0xA8,Read,ACK
7.187754750000000,645,0xD1,0x8A,Read,NAK
7.188745500000000,646,0xD0,0x6D,Write,ACK
7.188961750000000,646,0xD0,0x05,Write,ACK
7.189493250000000,647,0xD0,0x6E,Write,ACK
7.189709500000000,647,0xD0,0x90,Write,ACK
7.190756500000000,648,0xD0,0x6F,Write,ACK
7.190972750000000,648,0xD0,0x9A,Write,ACK
7.191189000000000,648,0xD0,0xF5,Write,ACK
7.191405000000000,648,0xD0,0x20,Write,ACK
7.191621250000000,648,0xD0,0xAA,Write,ACK
7.191837250000000,648,0xD0,0xDA,Write,ACK
7.192053500000000,648,0xD0,0xDF,Write,ACK
7.192269750000000,648,0xD0,0xD8,Write,ACK
7.192486000000000,648,0xD0,0xA8,Write,ACK
7.192702000000000,648,0xD0,0x40,Write,ACK
7.192918250000000,648,0xD0,0xAA,Write,ACK
7.193134500000000,648,0xD0,0xD0,Write,ACK
7.193350750000000,648,0xD0,0xDA,Write,ACK
7.193567000000000,648,0xD0,0xDE,Write,ACK
7.193783250000000,648,0xD0,0xD8,Write,ACK
7.193999250000000,648,0xD0,0xA8,Write,ACK
7.194215500000000,648,0xD0,0x60,Write,ACK
7.194773000000000,649,0xD0,0x6D,Write,ACK
7.194989250000000,649,0xD0,0x05,Write,ACK
7.195520750000000,650,0xD0,0x6E,Write,ACK
7.195737000000000,650,0xD0,0x90,Write,ACK
7.196271250000000,651,0xD0,0x6F,Write,ACK
7.196779750000000,652,0xD1,0x9A,Read,ACK
7.196996000000000,652,0xD1,0xF5,Read,ACK
7.197212250000000,652,0xD1,0x20,Read,ACK
7.197428500000000,652,0xD1,0xAA,Read,ACK
7.197644500000000,652,0xD1,0xDA,Read,ACK
7.197860750000000,652,0xD1,0xDF,Read,ACK
7.198077000000000,652,0xD1,0xD8,Read,ACK
7.198293000000000,652,0xD1,0xA8,Read,ACK
7.198509250000000,652,0xD1,0x40,Read,ACK
7.198725500000000,652,0xD1,0xAA,Read,ACK
7.198941750000000,652,0xD1,0xD0,Read,ACK
7.199158000000000,652,0xD1,0xDA,Read,ACK
7.199374250000000,652,0xD1,0xDE,Read,ACK
7.199590500000000,652,0xD1,0xD8,Read,ACK
7.199806750000000,652,0xD1,0xA8,Read,ACK
7.200022750000000,652,0xD1,0x60,Read,NAK
7.201013500000000,653,0xD0,0x6D,Write,ACK
7.201229750000000,653,0xD0,0x05,Write,ACK
7.201761250000000,654,0xD0,0x6E,Write,ACK
7.201977500000000,654,0xD0,0xA0,Write,ACK
7.203024250000000,655,0xD0,0x6F,Write,ACK
7.203240250000000,655,0xD0,0xAA,Write,ACK
7.203456500000000,655,0xD0,0xDA,Write,ACK
7.203672750000000,655,0xD0,0xD0,Write,ACK
7.203888750000000,655,0xD0,0xDF,Write,ACK
7.204105000000000,655,0xD0,0xD8,Write,ACK
7.204321250000000,655,0xD0,0xF1,Write,ACK
7.204537500000000,655,0xD0,0x97,Write,ACK
7.204753500000000,655,0xD0,0x86,Write,ACK
7.204969750000000,655,0xD0,0xA8,Write,ACK
7.205186000000000,655,0xD0,0x31,Write,ACK
7.205402000000000,655,0xD0,0x9B,Write,ACK
7.205618250000000,655,0xD0,0x06,Write,ACK
7.205834500000000,655,0xD0,0x99,Write,ACK
7.206050750000000,655,0xD0,0x07,Write,ACK
7.206266750000000,655,0xD0,0xAB,Write,ACK
7.206483000000000,655,0xD0,0x97,Write,ACK
7.207040500000000,656,0xD0,0x6D,Write,ACK
7.207256500000000,656,0xD0,0x05,Write,ACK
7.207788000000000,657,0xD0,0x6E,Write,ACK
7.208004250000000,657,0xD0,0xA0,Write,ACK
7.208538750000000,658,0xD0,0x6F,Write,ACK
7.209047250000000,659,0xD1,0xAA,Read,ACK
7.209263500000000,659,0xD1,0xDA,Read,ACK
7.209479750000000,659,0xD1,0xD0,Read,ACK
7.209695750000000,659,0xD1,0xDF,Read,ACK
7.209912000000000,659,0xD1,0xD8,Read,ACK
7.210128000000000,659,0xD1,0xF1,Read,ACK
7.210344250000000,659,0xD1,0x97,Read,ACK
7.210560500000000,659,0xD1,0x86,Read,ACK
7.210776500000000,659,0xD1,0xA8,Read,ACK
7.210992750000000,659,0xD1,0x31,Read,ACK
7.211209000000000,659,0xD1,0x9B,Read,ACK
7.211425250000000,659,0xD1,0x06,Read,ACK
7.211641250000000,659,0xD1,0x99,Read,ACK
7.211857500000000,659,0xD1,0x07,Read,ACK
7.212073750000000,659,0xD1,0xAB,Read,ACK
7.212289750000000,659,0xD1,0x97,Read,NAK
7.213280250000000,660,0xD0,0x6D,Write,ACK
7.213496500000000,660,0xD0,0x05,Write,ACK
7.214027750000000,661,0xD0,0x6E,Write,ACK
7.214243750000000,661,0xD0,0xB0,Write,ACK
7.215290500000000,662,0xD0,0x6F,Write,ACK
7.215506500000000,662,0xD0,0x28,Write,ACK
7.215722750000000,662,0xD0,0x88,Write,ACK
7.215938750000000,662,0xD0,0x9B,Write,ACK
7.216155000000000,662,0xD0,0xF0,Write,ACK
7.216371000000000,662,0xD0,0x0C,Write,ACK
7.216587250000000,662,0xD0,0x20,Write,ACK
7.216803500000000,662,0xD0,0x14,Write,ACK
7.217019500000000,662,0xD0,0x40,Write,ACK
7.217235750000000,662,0xD0,0xB8,Write,ACK
7.217451750000000,662,0xD0,0xB0,Write,ACK
7.217668000000000,662,0xD0,0xB4,Write,ACK
7.217884000000000,662,0xD0,0xA8,Write,ACK
7.218100250000000,662,0xD0,0x8C,Write,ACK
7.218316250000000,662,0xD0,0x9C,Write,ACK
7.218532500000000,662,0xD0,0xF0,Write,ACK
7.218748750000000,662,0xD0,0x04,Write,ACK
7.219306250000000,663,0xD0,0x6D,Write,ACK
7.219522250000000,663,0xD0,0x05,Write,ACK
7.220053750000000,664,0xD0,0x6E,Write,ACK
7.220270000000000,664,0xD0,0xB0,Write,ACK
7.220804750000000,665,0xD0,0x6F,Write,ACK
7.221313000000000,666,0xD1,0x28,Read,ACK
7.221529250000000,666,0xD1,0x88,Read,ACK
7.221745500000000,666,0xD1,0x9B,Read,ACK
7.221961750000000,666,0xD1,0xF0,Read,ACK
7.222177750000000,666,0xD1,0x0C,Read,ACK
7.222394000000000,666,0xD1,0x20,Read,ACK
7.222610250000000,666,0xD1,0x14,Read,ACK
7.222826250000000,666,0xD1,0x40,Read,ACK
7.223042500000000,666,0xD1,0xB8,Read,ACK
7.223258750000000,666,0xD1,0xB0,Read,ACK
7.223475000000000,666,0xD1,0xB4,Read,ACK
7.223691000000000,666,0xD1,0xA8,Read,ACK
7.223907250000000,666,0xD1,0x8C,Read,ACK
7.224123250000000,666,0xD1,0x9C,Read,ACK
7.224339500000000,666,0xD1,0xF0,Read,ACK
7.224555750000000,666,0xD1,0x04,Read,NAK
7.225546250000000,667,0xD0,0x6D,Write,ACK
7.225762250000000,667,0xD0,0x05,Write,ACK
7.226293750000000,668,0xD0,0x6E,Write,ACK
7.226510000000000,668,0xD0,0xC0,Write,ACK
7.227556750000000,669,0xD0,0x6F,Write,ACK
7.227773000000000,669,0xD0,0x28,Write,ACK
7.227989250000000,669,0xD0,0x51,Write,ACK
7.228205250000000,669,0xD0,0x79,Write,ACK
7.228421500000000,669,0xD0,0x1D,Write,ACK
7.228637750000000,669,0xD0,0x30,Write,ACK
7.228854000000000,669,0xD0,0x14,Write,ACK
7.229070250000000,669,0xD0,0x38,Write,ACK
7.229286250000000,669,0xD0,0xB2,Write,ACK
7.229502500000000,669,0xD0,0x82,Write,ACK
7.229718750000000,669,0xD0,0xAB,Write,ACK
7.229934750000000,669,0xD0,0xD0,Write,ACK
7.230151000000000,669,0xD0,0x98,Write,ACK
7.230367250000000,669,0xD0,0x2C,Write,ACK
7.230583500000000,669,0xD0,0x50,Write,ACK
7.230799750000000,669,0xD0,0x50,Write,ACK
7.231016000000000,669,0xD0,0x78,Write,ACK
7.231573500000000,670,0xD0,0x6D,Write,ACK
7.231789750000000,670,0xD0,0x05,Write,ACK
7.232321000000000,671,0xD0,0x6E,Write,ACK
7.232537250000000,671,0xD0,0xC0,Write,ACK
7.233071750000000,672,0xD0,0x6F,Write,ACK
7.233580000000000,673,0xD1,0x28,Read,ACK
7.233796250000000,673,0xD1,0x51,Read,ACK
7.234012250000000,673,0xD1,0x79,Read,ACK
7.234228500000000,673,0xD1,0x1D,Read,ACK
7.234444500000000,673,0xD1,0x30,Read,ACK
7.234660750000000,673,0xD1,0x14,Read,ACK
7.234876750000000,673,0xD1,0x38,Read,ACK
7.235093000000000,673,0xD1,0xB2,Read,ACK
7.235309250000000,673,0xD1,0x82,Read,ACK
7.235525250000000,673,0xD1,0xAB,Read,ACK
7.235741500000000,673,0xD1,0xD0,Read,ACK
7.235957500000000,673,0xD1,0x98,Read,ACK
7.236173750000000,673,0xD1,0x2C,Read,ACK
7.236390000000000,673,0xD1,0x50,Read,ACK
7.236606000000000,673,0xD1,0x50,Read,ACK
7.236822250000000,673,0xD1,0x78,Read,NAK
7.237813250000000,674,0xD0,0x6D,Write,ACK
7.238029500000000,674,0xD0,0x05,Write,ACK
7.238561000000000,675,0xD0,0x6E,Write,ACK
7.238777250000000,675,0xD0,0xD0,Write,ACK
7.239824500000000,676,0xD0,0x6F,Write,ACK
7.240040750000000,676,0xD0,0x78,Write,ACK
7.240257000000000,676,0xD0,0x9B,Write,ACK
7.240473000000000,676,0xD0,0xF1,Write,ACK
7.240689250000000,676,0xD0,0x1A,Write,ACK
7.240905500000000,676,0xD0,0xB0,Write,ACK
7.241121750000000,676,0xD0,0xF0,Write,ACK
7.241338000000000,676,0xD0,0x8A,Write,ACK
7.241554000000000,676,0xD0,0x9C,Write,ACK
7.241770250000000,676,0xD0,0xA8,Write,ACK
7.241986500000000,676,0xD0,0x29,Write,ACK
7.242202750000000,676,0xD0,0x51,Write,ACK
7.242419000000000,676,0xD0,0x79,Write,ACK
7.242635000000000,676,0xD0,0x8B,Write,ACK
7.242851500000000,676,0xD0,0x29,Write,ACK
7.243067500000000,676,0xD0,0x51,Write,ACK
7.243283750000000,676,0xD0,0x79,Write,ACK
7.243841250000000,677,0xD0,0x6D,Write,ACK
7.244057500000000,677,0xD0,0x05,Write,ACK
7.244589000000000,678,0xD0,0x6E,Write,ACK
7.244805250000000,678,0xD0,0xD0,Write,ACK
7.245339750000000,679,0xD0,0x6F,Write,ACK
7.245848250000000,680,0xD1,0x78,Read,ACK
7.246064500000000,680,0xD1,0x9B,Read,ACK
7.246280500000000,680,0xD1,0xF1,Read,ACK
7.246496750000000,680,0xD1,0x1A,Read,ACK
7.246713000000000,680,0xD1,0xB0,Read,ACK
7.246929000000000,680,0xD1,0xF0,Read,ACK
7.247145250000000,680,0xD1,0x8A,Read,ACK
7.247361500000000,680,0xD1,0x9C,Read,ACK
7.247577750000000,680,0xD1,0xA8,Read,ACK
7.247793750000000,680,0xD1,0x29,Read,ACK
7.248010000000000,680,0xD1,0x51,Read,ACK
7.248226250000000,680,0xD1,0x79,Read,ACK
7.248442500000000,680,0xD1,0x8B,Read,ACK
7.248658750000000,680,0xD1,0x29,Read,ACK
7.248875000000000,680,0xD1,0x51,Read,ACK
7.249091250000000,680,0xD1,0x79,Read,NAK
7.250082000000000,681,0xD0,0x6D,Write,ACK
7.250298250000000,681,0xD0,0x05,Write,ACK
7.250829750000000,682,0xD0,0x6E,Write,ACK
7.251046000000000,682,0xD0,0xE0,Write,ACK
7.252092750000000,683,0xD0,0x6F,Write,ACK
7.252309000000000,683,0xD0,0x8A,Write,ACK
7.252525000000000,683,0xD0,0x24,Write,ACK
7.252741250000000,683,0xD0,0x70,Write,ACK
7.252957500000000,683,0xD0,0x59,Write,ACK
7.253173500000000,683,0xD0,0x8B,Write,ACK
7.253389750000000,683,0xD0,0x20,Write,ACK
7.253606000000000,683,0xD0,0x58,Write,ACK
7.253822250000000,683,0xD0,0x71,Write,ACK
7.254038500000000,683,0xD0,0x8A,Write,ACK
7.254254750000000,683,0xD0,0x44,Write,ACK
7.254471000000000,683,0xD0,0x69,Write,ACK
7.254687250000000,683,0xD0,0x38,Write,ACK
7.254903250000000,683,0xD0,0x8B,Write,ACK
7.255119500000000,683,0xD0,0x39,Write,ACK
7.255335750000000,683,0xD0,0x40,Write,ACK
7.255551750000000,683,0xD0,0x68,Write,ACK
7.256109250000000,684,0xD0,0x6D,Write,ACK
7.256325500000000,684,0xD0,0x05,Write,ACK
7.256856750000000,685,0xD0,0x6E,Write,ACK
7.257072750000000,685,0xD0,0xE0,Write,ACK
7.257607250000000,686,0xD0,0x6F,Write,ACK
7.258115500000000,687,0xD1,0x8A,Read,ACK
7.258331750000000,687,0xD1,0x24,Read,ACK
7.258547750000000,687,0xD1,0x70,Read,ACK
7.258764000000000,687,0xD1,0x59,Read,ACK
7.258980250000000,687,0xD1,0x8B,Read,ACK
7.259196500000000,687,0xD1,0x20,Read,ACK
7.259412500000000,687,0xD1,0x58,Read,ACK
7.259629000000000,687,0xD1,0x71,Read,ACK
7.259845000000000,687,0xD1,0x8A,Read,ACK
7.260061250000000,687,0xD1,0x44,Read,ACK
7.260277500000000,687,0xD1,0x69,Read,ACK
7.260493750000000,687,0xD1,0x38,Read,ACK
7.260709750000000,687,0xD1,0x8B,Read,ACK
7.260926000000000,687,0xD1,0x39,Read,ACK
7.261142250000000,687,0xD1,0x40,Read,ACK
7.261358500000000,687,0xD1,0x68,Read,NAK
7.262349250000000,688,0xD0,0x6D,Write,ACK
7.262565500000000,688,0xD0,0x05,Write,ACK
7.263097000000000,689,0xD0,0x6E,Write,ACK
7.263313250000000,689,0xD0,0xF0,Write,ACK
7.264359750000000,690,0xD0,0x6F,Write,ACK
7.264576000000000,690,0xD0,0x8A,Write,ACK
7.264792000000000,690,0xD0,0x64,Write,ACK
7.265008250000000,690,0xD0,0x48,Write,ACK
7.265224500000000,690,0xD0,0x31,Write,ACK
7.265440500000000,690,0xD0,0x8B,Write,ACK
7.265656750000000,690,0xD0,0x30,Write,ACK
7.265873000000000,690,0xD0,0x49,Write,ACK
7.266089250000000,690,0xD0,0x60,Write,ACK
7.266305250000000,690,0xD0,0xA5,Write,ACK
7.266521500000000,690,0xD0,0x88,Write,ACK
7.266737750000000,690,0xD0,0x20,Write,ACK
7.266954000000000,690,0xD0,0x09,Write,ACK
7.267170000000000,690,0xD0,0x71,Write,ACK
7.267386250000000,690,0xD0,0x58,Write,ACK
7.267602500000000,690,0xD0,0x44,Write,ACK
7.267818750000000,690,0xD0,0x68,Write,ACK
7.268376250000000,691,0xD0,0x6D,Write,ACK
7.268592500000000,691,0xD0,0x05,Write,ACK
7.269123750000000,692,0xD0,0x6E,Write,ACK
7.269340000000000,692,0xD0,0xF0,Write,ACK
7.269874500000000,693,0xD0,0x6F,Write,ACK
7.270382750000000,694,0xD1,0x8A,Read,ACK
7.270599000000000,694,0xD1,0x64,Read,ACK
7.270815250000000,694,0xD1,0x48,Read,ACK
7.271031500000000,694,0xD1,0x31,Read,ACK
7.271247500000000,694,0xD1,0x8B,Read,ACK
7.271463750000000,694,0xD1,0x30,Read,ACK
7.271680000000000,694,0xD1,0x49,Read,ACK
7.271896250000000,694,0xD1,0x60,Read,ACK
7.272112250000000,694,0xD1,0xA5,Read,ACK
7.272328500000000,694,0xD1,0x88,Read,ACK
7.272544500000000,694,0xD1,0x20,Read,ACK
7.272760750000000,694,0xD1,0x09,Read,ACK
7.272977000000000,694,0xD1,0x71,Read,ACK
7.273193000000000,694,0xD1,0x58,Read,ACK
7.273409250000000,694,0xD1,0x44,Read,ACK
7.273625500000000,694,0xD1,0x68,Read,NAK
7.274617000000000,695,0xD0,0x6D,Write,ACK
7.274833250000000,695,0xD0,0x06,Write,ACK
7.275364750000000,696,0xD0,0x6E,Write,ACK
7.275581000000000,696,0xD0,0x00,Write,ACK
7.276627750000000,697,0xD0,0x6F,Write,ACK
7.276844000000000,697,0xD0,0x11,Write,ACK
7.277060000000000,697,0xD0,0x39,Write,ACK
7.277276250000000,697,0xD0,0x64,Write,ACK
7.277492500000000,697,0xD0,0x49,Write,ACK
7.277708750000000,697,0xD0,0x30,Write,ACK
7.277924750000000,697,0xD0,0x19,Write,ACK
7.278141000000000,697,0xD0,0xF1,Write,ACK
7.278357250000000,697,0xD0,0xAC,Write,ACK
7.278573500000000,697,0xD0,0x00,Write,ACK
7.278789500000000,697,0xD0,0x2C,Write,ACK
7.279005750000000,697,0xD0,0x54,Write,ACK
7.279222000000000,697,0xD0,0x7C,Write,ACK
7.279438250000000,697,0xD0,0xF0,Write,ACK
7.279654250000000,697,0xD0,0x8C,Write,ACK
7.279870500000000,697,0xD0,0xA8,Write,ACK
7.280086750000000,697,0xD0,0x04,Write,ACK
7.280644250000000,698,0xD0,0x6D,Write,ACK
7.280860250000000,698,0xD0,0x06,Write,ACK
7.281391750000000,699,0xD0,0x6E,Write,ACK
7.281608000000000,699,0xD0,0x00,Write,ACK
7.282142500000000,700,0xD0,0x6F,Write,ACK
7.282650750000000,701,0xD1,0x11,Read,ACK
7.282867000000000,701,0xD1,0x39,Read,ACK
7.283083000000000,701,0xD1,0x64,Read,ACK
7.283299500000000,701,0xD1,0x49,Read,ACK
7.283515750000000,701,0xD1,0x30,Read,ACK
7.283731750000000,701,0xD1,0x19,Read,ACK
7.283948000000000,701,0xD1,0xF1,Read,ACK
7.284164250000000,701,0xD1,0xAC,Read,ACK
7.284380500000000,701,0xD1,0x00,Read,ACK
7.284596500000000,701,0xD1,0x2C,Read,ACK
7.284812750000000,701,0xD1,0x54,Read,ACK
7.285029000000000,701,0xD1,0x7C,Read,ACK
7.285245000000000,701,0xD1,0xF0,Read,ACK
7.285461250000000,701,0xD1,0x8C,Read,ACK
7.285677500000000,701,0xD1,0xA8,Read,ACK
7.285893750000000,701,0xD1,0x04,Read,NAK
7.286884500000000,702,0xD0,0x6D,Write,ACK
7.287100500000000,702,0xD0,0x06,Write,ACK
7.287632000000000,703,0xD0,0x6E,Write,ACK
7.287848250000000,703,0xD0,0x10,Write,ACK
7.288895000000000,704,0xD0,0x6F,Write,ACK
7.289111250000000,704,0xD0,0x28,Write,ACK
7.289327250000000,704,0xD0,0x50,Write,ACK
7.289543500000000,704,0xD0,0x78,Write,ACK
7.289759750000000,704,0xD0,0xF1,Write,ACK
7.289975750000000,704,0xD0,0x88,Write,ACK
7.290192000000000,704,0xD0,0x97,Write,ACK
7.290408250000000,704,0xD0,0x26,Write,ACK
7.290624500000000,704,0xD0,0xA8,Write,ACK
7.290840500000000,704,0xD0,0x59,Write,ACK
7.291056750000000,704,0xD0,0x98,Write,ACK
7.291273000000000,704,0xD0,0xAC,Write,ACK
7.291489000000000,704,0xD0,0x8C,Write,ACK
7.291705250000000,704,0xD0,0x02,Write,ACK
7.291921500000000,704,0xD0,0x26,Write,ACK
7.292137500000000,704,0xD0,0x46,Write,ACK
7.292353750000000,704,0xD0,0x66,Write,ACK
7.292911250000000,705,0xD0,0x6D,Write,ACK
7.293127250000000,705,0xD0,0x06,Write,ACK
7.293658750000000,706,0xD0,0x6E,Write,ACK
7.293875000000000,706,0xD0,0x10,Write,ACK
7.294409500000000,707,0xD0,0x6F,Write,ACK
7.294917750000000,708,0xD1,0x28,Read,ACK
7.295134000000000,708,0xD1,0x50,Read,ACK
7.295350250000000,708,0xD1,0x78,Read,ACK
7.295566500000000,708,0xD1,0xF1,Read,ACK
7.295782500000000,708,0xD1,0x88,Read,ACK
7.295998750000000,708,0xD1,0x97,Read,ACK
7.296214750000000,708,0xD1,0x26,Read,ACK
7.296431000000000,708,0xD1,0xA8,Read,ACK
7.296647250000000,708,0xD1,0x59,Read,ACK
7.296863250000000,708,0xD1,0x98,Read,ACK
7.297079500000000,708,0xD1,0xAC,Read,ACK
7.297295750000000,708,0xD1,0x8C,Read,ACK
7.297511750000000,708,0xD1,0x02,Read,ACK
7.297728000000000,708,0xD1,0x26,Read,ACK
7.297944000000000,708,0xD1,0x46,Read,ACK
7.298160250000000,708,0xD1,0x66,Read,NAK
7.299151000000000,709,0xD0,0x6D,Write,ACK
7.299367000000000,709,0xD0,0x06,Write,ACK
7.299898500000000,710,0xD0,0x6E,Write,ACK
7.300114750000000,710,0xD0,0x20,Write,ACK
7.301161500000000,711,0xD0,0x6F,Write,ACK
7.301377750000000,711,0xD0,0xF0,Write,ACK
7.301593750000000,711,0xD0,0x89,Write,ACK
7.301810000000000,711,0xD0,0x9C,Write,ACK
7.302026250000000,711,0xD0,0xA8,Write,ACK
7.302242500000000,711,0xD0,0x29,Write,ACK
7.302458500000000,711,0xD0,0x51,Write,ACK
7.302674750000000,711,0xD0,0x79,Write,ACK
7.302891000000000,711,0xD0,0x24,Write,ACK
7.303107000000000,711,0xD0,0x70,Write,ACK
7.303323250000000,711,0xD0,0x59,Write,ACK
7.303539500000000,711,0xD0,0x44,Write,ACK
7.303755500000000,711,0xD0,0x69,Write,ACK
7.303971750000000,711,0xD0,0x38,Write,ACK
7.304188000000000,711,0xD0,0x64,Write,ACK
7.304404250000000,711,0xD0,0x48,Write,ACK
7.304620250000000,711,0xD0,0x31,Write,ACK
7.305177750000000,712,0xD0,0x6D,Write,ACK
7.305394000000000,712,0xD0,0x06,Write,ACK
7.305925500000000,713,0xD0,0x6E,Write,ACK
7.306141500000000,713,0xD0,0x20,Write,ACK
7.306676000000000,714,0xD0,0x6F,Write,ACK
7.307184500000000,715,0xD1,0xF0,Read,ACK
7.307400500000000,715,0xD1,0x89,Read,ACK
7.307616750000000,715,0xD1,0x9C,Read,ACK
7.307833000000000,715,0xD1,0xA8,Read,ACK
7.308049000000000,715,0xD1,0x29,Read,ACK
7.308265250000000,715,0xD1,0x51,Read,ACK
7.308481250000000,715,0xD1,0x79,Read,ACK
7.308697500000000,715,0xD1,0x24,Read,ACK
7.308913750000000,715,0xD1,0x70,Read,ACK
7.309129750000000,715,0xD1,0x59,Read,ACK
7.309346000000000,715,0xD1,0x44,Read,ACK
7.309562250000000,715,0xD1,0x69,Read,ACK
7.309778250000000,715,0xD1,0x38,Read,ACK
7.309994500000000,715,0xD1,0x64,Read,ACK
7.310210500000000,715,0xD1,0x48,Read,ACK
7.310427000000000,715,0xD1,0x31,Read,NAK
7.311417750000000,716,0xD0,0x6D,Write,ACK
7.311633750000000,716,0xD0,0x06,Write,ACK
7.312165250000000,717,0xD0,0x6E,Write,ACK
7.312381500000000,717,0xD0,0x30,Write,ACK
7.313428500000000,718,0xD0,0x6F,Write,ACK
7.313644500000000,718,0xD0,0xA9,Write,ACK
7.313860750000000,718,0xD0,0x88,Write,ACK
7.314077000000000,718,0xD0,0x09,Write,ACK
7.314293250000000,718,0xD0,0x20,Write,ACK
7.314509250000000,718,0xD0,0x59,Write,ACK
7.314725500000000,718,0xD0,0x70,Write,ACK
7.314941750000000,718,0xD0,0xAB,Write,ACK
7.315158000000000,718,0xD0,0x11,Write,ACK
7.315374000000000,718,0xD0,0x38,Write,ACK
7.315590250000000,718,0xD0,0x40,Write,ACK
7.315806500000000,718,0xD0,0x69,Write,ACK
7.316022750000000,718,0xD0,0xA8,Write,ACK
7.316238750000000,718,0xD0,0x19,Write,ACK
7.316455000000000,718,0xD0,0x31,Write,ACK
7.316671250000000,718,0xD0,0x48,Write,ACK
7.316887250000000,718,0xD0,0x60,Write,ACK
7.317444750000000,719,0xD0,0x6D,Write,ACK
7.317661000000000,719,0xD0,0x06,Write,ACK
7.318192500000000,720,0xD0,0x6E,Write,ACK
7.318408500000000,720,0xD0,0x30,Write,ACK
7.318943000000000,721,0xD0,0x6F,Write,ACK
7.319451500000000,722,0xD1,0xA9,Read,ACK
7.319667750000000,722,0xD1,0x88,Read,ACK
7.319883750000000,722,0xD1,0x09,Read,ACK
7.320100000000000,722,0xD1,0x20,Read,ACK
7.320316250000000,722,0xD1,0x59,Read,ACK
7.320532250000000,722,0xD1,0x70,Read,ACK
7.320748500000000,722,0xD1,0xAB,Read,ACK
7.320964750000000,722,0xD1,0x11,Read,ACK
7.321180750000000,722,0xD1,0x38,Read,ACK
7.321397000000000,722,0xD1,0x40,Read,ACK
7.321613000000000,722,0xD1,0x69,Read,ACK
7.321829250000000,722,0xD1,0xA8,Read,ACK
7.322045250000000,722,0xD1,0x19,Read,ACK
7.322261500000000,722,0xD1,0x31,Read,ACK
7.322477500000000,722,0xD1,0x48,Read,ACK
7.322693750000000,722,0xD1,0x60,Read,NAK
7.323684500000000,723,0xD0,0x6D,Write,ACK
7.323900500000000,723,0xD0,0x06,Write,ACK
7.324432000000000,724,0xD0,0x6E,Write,ACK
7.324648250000000,724,0xD0,0x40,Write,ACK
7.325695000000000,725,0xD0,0x6F,Write,ACK
7.325911000000000,725,0xD0,0x8C,Write,ACK
7.326127250000000,725,0xD0,0xA8,Write,ACK
7.326343500000000,725,0xD0,0x3C,Write,ACK
7.326559750000000,725,0xD0,0x41,Write,ACK
7.326775750000000,725,0xD0,0x5C,Write,ACK
7.326992000000000,725,0xD0,0x20,Write,ACK
7.327208250000000,725,0xD0,0x7C,Write,ACK
7.327424500000000,725,0xD0,0x00,Write,ACK
7.327640500000000,725,0xD0,0xF1,Write,ACK
7.327856750000000,725,0xD0,0x87,Write,ACK
7.328073000000000,725,0xD0,0x98,Write,ACK
7.328289250000000,725,0xD0,0x19,Write,ACK
7.328505500000000,725,0xD0,0x86,Write,ACK
7.328721500000000,725,0xD0,0xA8,Write,ACK
7.328937750000000,725,0xD0,0x6E,Write,ACK
7.329154000000000,725,0xD0,0x76,Write,ACK
7.329711500000000,726,0xD0,0x6D,Write,ACK
7.329927750000000,726,0xD0,0x06,Write,ACK
7.330459000000000,727,0xD0,0x6E,Write,ACK
7.330675250000000,727,0xD0,0x40,Write,ACK
7.331209750000000,728,0xD0,0x6F,Write,ACK
7.331718250000000,729,0xD1,0x8C,Read,ACK
7.331934500000000,729,0xD1,0xA8,Read,ACK
7.332150750000000,729,0xD1,0x3C,Read,ACK
7.332366750000000,729,0xD1,0x41,Read,ACK
7.332583000000000,729,0xD1,0x5C,Read,ACK
7.332799250000000,729,0xD1,0x20,Read,ACK
7.333015250000000,729,0xD1,0x7C,Read,ACK
7.333231500000000,729,0xD1,0x00,Read,ACK
7.333447750000000,729,0xD1,0xF1,Read,ACK
7.333664000000000,729,0xD1,0x87,Read,ACK
7.333880000000000,729,0xD1,0x98,Read,ACK
7.334096250000000,729,0xD1,0x19,Read,ACK
7.334312250000000,729,0xD1,0x86,Read,ACK
7.334528500000000,729,0xD1,0xA8,Read,ACK
7.334744750000000,729,0xD1,0x6E,Read,ACK
7.334960750000000,729,0xD1,0x76,Read,NAK
7.335951500000000,730,0xD0,0x6D,Write,ACK
7.336167750000000,730,0xD0,0x06,Write,ACK
7.336699000000000,731,0xD0,0x6E,Write,ACK
7.336915250000000,731,0xD0,0x50,Write,ACK
7.337962250000000,732,0xD0,0x6F,Write,ACK
7.338178250000000,732,0xD0,0x7E,Write,ACK
7.338394500000000,732,0xD0,0xA9,Write,ACK
7.338610750000000,732,0xD0,0x99,Write,ACK
7.338827000000000,732,0xD0,0x88,Write,ACK
7.339043000000000,732,0xD0,0x2D,Write,ACK
7.339259250000000,732,0xD0,0x55,Write,ACK
7.339475500000000,732,0xD0,0x7D,Write,ACK
7.339691500000000,732,0xD0,0x9E,Write,ACK
7.339907750000000,732,0xD0,0xB9,Write,ACK
7.340123750000000,732,0xD0,0xA3,Write,ACK
7.340340000000000,732,0xD0,0x8A,Write,ACK
7.340556250000000,732,0xD0,0x22,Write,ACK
7.340772500000000,732,0xD0,0x8A,Write,ACK
7.340988500000000,732,0xD0,0x6E,Write,ACK
7.341204750000000,732,0xD0,0x8A,Write,ACK
7.341421000000000,732,0xD0,0x56,Write,ACK
7.341978500000000,733,0xD0,0x6D,Write,ACK
7.342194750000000,733,0xD0,0x06,Write,ACK
7.342726250000000,734,0xD0,0x6E,Write,ACK
7.342942500000000,734,0xD0,0x50,Write,ACK
7.343477250000000,735,0xD0,0x6F,Write,ACK
7.343985500000000,736,0xD1,0x7E,Read,ACK
7.344201750000000,736,0xD1,0xA9,Read,ACK
7.344418000000000,736,0xD1,0x99,Read,ACK
7.344634000000000,736,0xD1,0x88,Read,ACK
7.344850250000000,736,0xD1,0x2D,Read,ACK
7.345066500000000,736,0xD1,0x55,Read,ACK
7.345282500000000,736,0xD1,0x7D,Read,ACK
7.345498750000000,736,0xD1,0x9E,Read,ACK
7.345714750000000,736,0xD1,0xB9,Read,ACK
7.345931000000000,736,0xD1,0xA3,Read,ACK
7.346147000000000,736,0xD1,0x8A,Read,ACK
7.346363250000000,736,0xD1,0x22,Read,ACK
7.346579500000000,736,0xD1,0x8A,Read,ACK
7.346795750000000,736,0xD1,0x6E,Read,ACK
7.347011750000000,736,0xD1,0x8A,Read,ACK
7.347228000000000,736,0xD1,0x56,Read,NAK
7.348218750000000,737,0xD0,0x6D,Write,ACK
7.348435000000000,737,0xD0,0x06,Write,ACK
7.348966250000000,738,0xD0,0x6E,Write,ACK
7.349182500000000,738,0xD0,0x60,Write,ACK
7.350229500000000,739,0xD0,0x6F,Write,ACK
7.350445500000000,739,0xD0,0x8A,Write,ACK
7.350661750000000,739,0xD0,0x5E,Write,ACK
7.350878000000000,739,0xD0,0x9F,Write,ACK
7.351094250000000,739,0xD0,0xB1,Write,ACK
7.351310250000000,739,0xD0,0x83,Write,ACK
7.351526500000000,739,0xD0,0x06,Write,ACK
7.351742750000000,739,0xD0,0x26,Write,ACK
7.351959000000000,739,0xD0,0x46,Write,ACK
7.352175000000000,739,0xD0,0x66,Write,ACK
7.352391250000000,739,0xD0,0x0E,Write,ACK
7.352607250000000,739,0xD0,0x2E,Write,ACK
7.352823500000000,739,0xD0,0x4E,Write,ACK
7.353039750000000,739,0xD0,0x6E,Write,ACK
7.353256000000000,739,0xD0,0x9D,Write,ACK
7.353472000000000,739,0xD0,0xB8,Write,ACK
7.353688250000000,739,0xD0,0xAD,Write,ACK
7.354245750000000,740,0xD0,0x6D,Write,ACK
7.354462000000000,740,0xD0,0x06,Write,ACK
7.354993500000000,741,0xD0,0x6E,Write,ACK
7.355209500000000,741,0xD0,0x60,Write,ACK
7.355744250000000,742,0xD0,0x6F,Write,ACK
7.356252500000000,743,0xD1,0x8A,Read,ACK
7.356468750000000,743,0xD1,0x5E,Read,ACK
7.356684750000000,743,0xD1,0x9F,Read,ACK
7.356901000000000,743,0xD1,0xB1,Read,ACK
7.357117000000000,743,0xD1,0x83,Read,ACK
7.357333250000000,743,0xD1,0x06,Read,ACK
7.357549250000000,743,0xD1,0x26,Read,ACK
7.357765500000000,743,0xD1,0x46,Read,ACK
7.357981500000000,743,0xD1,0x66,Read,ACK
7.358197750000000,743,0xD1,0x0E,Read,ACK
7.358413750000000,743,0xD1,0x2E,Read,ACK
7.358629750000000,743,0xD1,0x4E,Read,ACK
7.358846000000000,743,0xD1,0x6E,Read,ACK
7.359062250000000,743,0xD1,0x9D,Read,ACK
7.359278250000000,743,0xD1,0xB8,Read,ACK
7.359494500000000,743,0xD1,0xAD,Read,NAK
7.360485250000000,744,0xD0,0x6D,Write,ACK
7.360701500000000,744,0xD0,0x06,Write,ACK
7.361232750000000,745,0xD0,0x6E,Write,ACK
7.361449000000000,745,0xD0,0x70,Write,ACK
7.362496000000000,746,0xD0,0x6F,Write,ACK
7.362712250000000,746,0xD0,0x00,Write,ACK
7.362928500000000,746,0xD0,0x2C,Write,ACK
7.363144750000000,746,0xD0,0x54,Write,ACK
7.363361000000000,746,0xD0,0x7C,Write,ACK
7.363577250000000,746,0xD0,0xF2,Write,ACK
7.363793250000000,746,0xD0,0xB1,Write,ACK
7.364009500000000,746,0xD0,0x8C,Write,ACK
7.364225750000000,746,0xD0,0xB4,Write,ACK
7.364442000000000,746,0xD0,0x99,Write,ACK
7.364658000000000,746,0xD0,0xB9,Write,ACK
7.364874250000000,746,0xD0,0xA3,Write,ACK
7.365090500000000,746,0xD0,0x2D,Write,ACK
7.365306750000000,746,0xD0,0x55,Write,ACK
7.365522750000000,746,0xD0,0x7D,Write,ACK
7.365739000000000,746,0xD0,0x81,Write,ACK
7.365955250000000,746,0xD0,0x91,Write,ACK
7.366512500000000,747,0xD0,0x6D,Write,ACK
7.366728750000000,747,0xD0,0x06,Write,ACK
7.367260250000000,748,0xD0,0x6E,Write,ACK
7.367476500000000,748,0xD0,0x70,Write,ACK
7.368011000000000,749,0xD0,0x6F,Write,ACK
7.368519250000000,750,0xD1,0x00,Read,ACK
7.368735500000000,750,0xD1,0x2C,Read,ACK
7.368951500000000,750,0xD1,0x54,Read,ACK
7.369167750000000,750,0xD1,0x7C,Read,ACK
7.369384000000000,750,0xD1,0xF2,Read,ACK
7.369600000000000,750,0xD1,0xB1,Read,ACK
7.369816250000000,750,0xD1,0x8C,Read,ACK
7.370032250000000,750,0xD1,0xB4,Read,ACK
7.370248500000000,750,0xD1,0x99,Read,ACK
7.370464750000000,750,0xD1,0xB9,Read,ACK
7.370680750000000,750,0xD1,0xA3,Read,ACK
7.370896750000000,750,0xD1,0x2D,Read,ACK
7.371113000000000,750,0xD1,0x55,Read,ACK
7.371329250000000,750,0xD1,0x7D,Read,ACK
7.371545250000000,750,0xD1,0x81,Read,ACK
7.371761500000000,750,0xD1,0x91,Read,NAK
7.372752000000000,751,0xD0,0x6D,Write,ACK
7.372968500000000,751,0xD0,0x06,Write,ACK
7.373499750000000,752,0xD0,0x6E,Write,ACK
7.373716000000000,752,0xD0,0x80,Write,ACK
7.374763000000000,753,0xD0,0x6F,Write,ACK
7.374979000000000,753,0xD0,0xAC,Write,ACK
7.375195250000000,753,0xD0,0x38,Write,ACK
7.375411500000000,753,0xD0,0xAD,Write,ACK
7.375627750000000,753,0xD0,0x3A,Write,ACK
7.375843750000000,753,0xD0,0xB5,Write,ACK
7.376060000000000,753,0xD0,0x83,Write,ACK
7.376276250000000,753,0xD0,0x91,Write,ACK
7.376492500000000,753,0xD0,0xAC,Write,ACK
7.376708500000000,753,0xD0,0x2D,Write,ACK
7.376924750000000,753,0xD0,0xD9,Write,ACK
7.377141000000000,753,0xD0,0x28,Write,ACK
7.377357250000000,753,0xD0,0xD8,Write,ACK
7.377573250000000,753,0xD0,0x4D,Write,ACK
7.377789500000000,753,0xD0,0xD9,Write,ACK
7.378005750000000,753,0xD0,0x48,Write,ACK
7.378222000000000,753,0xD0,0xD8,Write,ACK
7.378779500000000,754,0xD0,0x6D,Write,ACK
7.378995500000000,754,0xD0,0x06,Write,ACK
7.379527000000000,755,0xD0,0x6E,Write,ACK
7.379743250000000,755,0xD0,0x80,Write,ACK
7.380277750000000,756,0xD0,0x6F,Write,ACK
7.380786250000000,757,0xD1,0xAC,Read,ACK
7.381002500000000,757,0xD1,0x38,Read,ACK
7.381218750000000,757,0xD1,0xAD,Read,ACK
7.381434750000000,757,0xD1,0x3A,Read,ACK
7.381651000000000,757,0xD1,0xB5,Read,ACK
7.381867250000000,757,0xD1,0x83,Read,ACK
7.382083500000000,757,0xD1,0x91,Read,ACK
7.382299500000000,757,0xD1,0xAC,Read,ACK
7.382516000000000,757,0xD1,0x2D,Read,ACK
7.382732000000000,757,0xD1,0xD9,Read,ACK
7.382948250000000,757,0xD1,0x28,Read,ACK
7.383164500000000,757,0xD1,0xD8,Read,ACK
7.383380750000000,757,0xD1,0x4D,Read,ACK
7.383596750000000,757,0xD1,0xD9,Read,ACK
7.383813000000000,757,0xD1,0x48,Read,ACK
7.384029000000000,757,0xD1,0xD8,Read,NAK
7.385019750000000,758,0xD0,0x6D,Write,ACK
7.385236000000000,758,0xD0,0x06,Write,ACK
7.385767500000000,759,0xD0,0x6E,Write,ACK
7.385983750000000,759,0xD0,0x90,Write,ACK
7.387030500000000,760,0xD0,0x6F,Write,ACK
7.387246750000000,760,0xD0,0x6D,Write,ACK
7.387462750000000,760,0xD0,0xD9,Write,ACK
7.387679000000000,760,0xD0,0x68,Write,ACK
7.387895250000000,760,0xD0,0xD8,Write,ACK
7.388111250000000,760,0xD0,0x8C,Write,ACK
7.388327500000000,760,0xD0,0x9D,Write,ACK
7.388543750000000,760,0xD0,0xAE,Write,ACK
7.388760000000000,760,0xD0,0x29,Write,ACK
7.388976000000000,760,0xD0,0xD9,Write,ACK
7.389192250000000,760,0xD0,0x04,Write,ACK
7.389408250000000,760,0xD0,0xAE,Write,ACK
7.389624500000000,760,0xD0,0xD8,Write,ACK
7.389840750000000,760,0xD0,0x51,Write,ACK
7.390057000000000,760,0xD0,0xD9,Write,ACK
7.390273250000000,760,0xD0,0x04,Write,ACK
7.390489500000000,760,0xD0,0xAE,Write,ACK
7.391047000000000,761,0xD0,0x6D,Write,ACK
7.391263000000000,761,0xD0,0x06,Write,ACK
7.391794500000000,762,0xD0,0x6E,Write,ACK
7.392010750000000,762,0xD0,0x90,Write,ACK
7.392545000000000,763,0xD0,0x6F,Write,ACK
7.393053500000000,764,0xD1,0x6D,Read,ACK
7.393269750000000,764,0xD1,0xD9,Read,ACK
7.393485750000000,764,0xD1,0x68,Read,ACK
7.393702000000000,764,0xD1,0xD8,Read,ACK
7.393918250000000,764,0xD1,0x8C,Read,ACK
7.394134250000000,764,0xD1,0x9D,Read,ACK
7.394350500000000,764,0xD1,0xAE,Read,ACK
7.394566750000000,764,0xD1,0x29,Read,ACK
7.394783000000000,764,0xD1,0xD9,Read,ACK
7.394999000000000,764,0xD1,0x04,Read,ACK
7.395215250000000,764,0xD1,0xAE,Read,ACK
7.395431250000000,764,0xD1,0xD8,Read,ACK
7.395647500000000,764,0xD1,0x51,Read,ACK
7.395863500000000,764,0xD1,0xD9,Read,ACK
7.396079750000000,764,0xD1,0x04,Read,ACK
7.396296000000000,764,0xD1,0xAE,Read,NAK
7.397286750000000,765,0xD0,0x6D,Write,ACK
7.397503000000000,765,0xD0,0x06,Write,ACK
7.398034500000000,766,0xD0,0x6E,Write,ACK
7.398250750000000,766,0xD0,0xA0,Write,ACK
7.399297500000000,767,0xD0,0x6F,Write,ACK
7.399513750000000,767,0xD0,0xD8,Write,ACK
7.399730000000000,767,0xD0,0x79,Write,ACK
7.399946250000000,767,0xD0,0xD9,Write,ACK
7.400162500000000,767,0xD0,0x04,Write,ACK
7.400378500000000,767,0xD0,0xD8,Write,ACK
7.400594750000000,767,0xD0,0x81,Write,ACK
7.400810750000000,767,0xD0,0xF3,Write,ACK
7.401027000000000,767,0xD0,0x9D,Write,ACK
7.401243250000000,767,0xD0,0xAD,Write,ACK
7.401459500000000,767,0xD0,0x00,Write,ACK
7.401675750000000,767,0xD0,0x8D,Write,ACK
7.401892000000000,767,0xD0,0xAE,Write,ACK
7.402108250000000,767,0xD0,0x19,Write,ACK
7.402324250000000,767,0xD0,0x81,Write,ACK
7.402540500000000,767,0xD0,0xAD,Write,ACK
7.402756750000000,767,0xD0,0xD9,Write,ACK
7.403314250000000,768,0xD0,0x6D,Write,ACK
7.403530250000000,768,0xD0,0x06,Write,ACK
7.404062000000000,769,0xD0,0x6E,Write,ACK
7.404278250000000,769,0xD0,0xA0,Write,ACK
7.404812750000000,770,0xD0,0x6F,Write,ACK
7.405321000000000,771,0xD1,0xD8,Read,ACK
7.405537250000000,771,0xD1,0x79,Read,ACK
7.405753250000000,771,0xD1,0xD9,Read,ACK
7.405969500000000,771,0xD1,0x04,Read,ACK
7.406185750000000,771,0xD1,0xD8,Read,ACK
7.406401750000000,771,0xD1,0x81,Read,ACK
7.406617750000000,771,0xD1,0xF3,Read,ACK
7.406834000000000,771,0xD1,0x9D,Read,ACK
7.407050250000000,771,0xD1,0xAD,Read,ACK
7.407266250000000,771,0xD1,0x00,Read,ACK
7.407482500000000,771,0xD1,0x8D,Read,ACK
7.407698750000000,771,0xD1,0xAE,Read,ACK
7.407915000000000,771,0xD1,0x19,Read,ACK
7.408131000000000,771,0xD1,0x81,Read,ACK
7.408347250000000,771,0xD1,0xAD,Read,ACK
7.408563250000000,771,0xD1,0xD9,Read,NAK
7.409554000000000,772,0xD0,0x6D,Write,ACK
7.409770250000000,772,0xD0,0x06,Write,ACK
7.410301500000000,773,0xD0,0x6E,Write,ACK
7.410517750000000,773,0xD0,0xB0,Write,ACK
7.411564750000000,774,0xD0,0x6F,Write,ACK
7.411780750000000,774,0xD0,0x01,Write,ACK
7.411997000000000,774,0xD0,0xD8,Write,ACK
7.412213000000000,774,0xD0,0xF2,Write,ACK
7.412429250000000,774,0xD0,0xAE,Write,ACK
7.412645500000000,774,0xD0,0xDA,Write,ACK
7.412861500000000,774,0xD0,0x26,Write,ACK
7.413077750000000,774,0xD0,0xD8,Write,ACK
7.413294000000000,774,0xD0,0x8E,Write,ACK
7.413510000000000,774,0xD0,0x91,Write,ACK
7.413726250000000,774,0xD0,0x29,Write,ACK
7.413942250000000,774,0xD0,0x83,Write,ACK
7.414158500000000,774,0xD0,0xA7,Write,ACK
7.414374750000000,774,0xD0,0xD9,Write,ACK
7.414590750000000,774,0xD0,0xAD,Write,ACK
7.414807000000000,774,0xD0,0xAD,Write,ACK
7.415023250000000,774,0xD0,0xAD,Write,ACK
7.415580750000000,775,0xD0,0x6D,Write,ACK
7.415796750000000,775,0xD0,0x06,Write,ACK
7.416328250000000,776,0xD0,0x6E,Write,ACK
7.416544500000000,776,0xD0,0xB0,Write,ACK
7.417079000000000,777,0xD0,0x6F,Write,ACK
7.417587250000000,778,0xD1,0x01,Read,ACK
7.417803500000000,778,0xD1,0xD8,Read,ACK
7.418019750000000,778,0xD1,0xF2,Read,ACK
7.418235750000000,778,0xD1,0xAE,Read,ACK
7.418452000000000,778,0xD1,0xDA,Read,ACK
7.418668250000000,778,0xD1,0x26,Read,ACK
7.418884250000000,778,0xD1,0xD8,Read,ACK
7.419100500000000,778,0xD1,0x8E,Read,ACK
7.419316500000000,778,0xD1,0x91,Read,ACK
7.419532750000000,778,0xD1,0x29,Read,ACK
7.419748750000000,778,0xD1,0x83,Read,ACK
7.419965000000000,778,0xD1,0xA7,Read,ACK
7.420181250000000,778,0xD1,0xD9,Read,ACK
7.420397250000000,778,0xD1,0xAD,Read,ACK
7.420613500000000,778,0xD1,0xAD,Read,ACK
7.420829500000000,778,0xD1,0xAD,Read,NAK
7.421820500000000,779,0xD0,0x6D,Write,ACK
7.422036750000000,779,0xD0,0x06,Write,ACK
7.422568000000000,780,0xD0,0x6E,Write,ACK
7.422784250000000,780,0xD0,0xC0,Write,ACK
7.423831000000000,781,0xD0,0x6F,Write,ACK
7.424047250000000,781,0xD0,0xAD,Write,ACK
7.424263250000000,781,0xD0,0xF3,Write,ACK
7.424479500000000,781,0xD0,0x2A,Write,ACK
7.424695750000000,781,0xD0,0xD8,Write,ACK
7.424911750000000,781,0xD0,0xD8,Write,ACK
7.425128000000000,781,0xD0,0xF1,Write,ACK
7.425344000000000,781,0xD0,0xB0,Write,ACK
7.425560250000000,781,0xD0,0xAC,Write,ACK
7.425776500000000,781,0xD0,0x89,Write,ACK
7.425992750000000,781,0xD0,0x91,Write,ACK
7.426208750000000,781,0xD0,0x3E,Write,ACK
7.426425000000000,781,0xD0,0x5E,Write,ACK
7.426641250000000,781,0xD0,0x76,Write,ACK
7.426857250000000,781,0xD0,0xF3,Write,ACK
7.427073500000000,781,0xD0,0xAC,Write,ACK
7.427289750000000,781,0xD0,0x2E,Write,ACK
7.427847000000000,782,0xD0,0x6D,Write,ACK
7.428063250000000,782,0xD0,0x06,Write,ACK
7.428594750000000,783,0xD0,0x6E,Write,ACK
7.428811000000000,783,0xD0,0xC0,Write,ACK
7.429345250000000,784,0xD0,0x6F,Write,ACK
7.429853750000000,785,0xD1,0xAD,Read,ACK
7.430070000000000,785,0xD1,0xF3,Read,ACK
7.430286000000000,785,0xD1,0x2A,Read,ACK
7.430502250000000,785,0xD1,0xD8,Read,ACK
7.430718500000000,785,0xD1,0xD8,Read,ACK
7.430934500000000,785,0xD1,0xF1,Read,ACK
7.431150750000000,785,0xD1,0xB0,Read,ACK
7.431367000000000,785,0xD1,0xAC,Read,ACK
7.431583000000000,785,0xD1,0x89,Read,ACK
7.431799250000000,785,0xD1,0x91,Read,ACK
7.432015500000000,785,0xD1,0x3E,Read,ACK
7.432231500000000,785,0xD1,0x5E,Read,ACK
7.432447750000000,785,0xD1,0x76,Read,ACK
7.432664000000000,785,0xD1,0xF3,Read,ACK
7.432880000000000,785,0xD1,0xAC,Read,ACK
7.433096250000000,785,0xD1,0x2E,Read,NAK
7.434087000000000,786,0xD0,0x6D,Write,ACK
7.434303250000000,786,0xD0,0x06,Write,ACK
7.434834750000000,787,0xD0,0x6E,Write,ACK
7.435050750000000,787,0xD0,0xD0,Write,ACK
7.436097500000000,788,0xD0,0x6F,Write,ACK
7.436313750000000,788,0xD0,0x2E,Write,ACK
7.436529750000000,788,0xD0,0xF1,Write,ACK
7.436746000000000,788,0xD0,0xB1,Write,ACK
7.436962000000000,788,0xD0,0x8C,Write,ACK
7.437178250000000,788,0xD0,0x5A,Write,ACK
7.437394500000000,788,0xD0,0x9C,Write,ACK
7.437610500000000,788,0xD0,0xAC,Write,ACK
7.437826750000000,788,0xD0,0x2C,Write,ACK
7.438043000000000,788,0xD0,0x28,Write,ACK
7.438259250000000,788,0xD0,0x28,Write,ACK
7.438475250000000,788,0xD0,0x28,Write,ACK
7.438691500000000,788,0xD0,0x9C,Write,ACK
7.438907750000000,788,0xD0,0xAC,Write,ACK
7.439123750000000,788,0xD0,0x30,Write,ACK
7.439340000000000,788,0xD0,0x18,Write,ACK
7.439556250000000,788,0xD0,0xA8,Write,ACK
7.440113750000000,789,0xD0,0x6D,Write,ACK
7.440329750000000,789,0xD0,0x06,Write,ACK
7.440861250000000,790,0xD0,0x6E,Write,ACK
7.441077500000000,790,0xD0,0xD0,Write,ACK
7.441611750000000,791,0xD0,0x6F,Write,ACK
7.442120250000000,792,0xD1,0x2E,Read,ACK
7.442336500000000,792,0xD1,0xF1,Read,ACK
7.442552500000000,792,0xD1,0xB1,Read,ACK
7.442768750000000,792,0xD1,0x8C,Read,ACK
7.442985000000000,792,0xD1,0x5A,Read,ACK
7.443201250000000,792,0xD1,0x9C,Read,ACK
7.443417250000000,792,0xD1,0xAC,Read,ACK
7.443633500000000,792,0xD1,0x2C,Read,ACK
7.443849500000000,792,0xD1,0x28,Read,ACK
7.444065750000000,792,0xD1,0x28,Read,ACK
7.444282000000000,792,0xD1,0x28,Read,ACK
7.444498000000000,792,0xD1,0x9C,Read,ACK
7.444714250000000,792,0xD1,0xAC,Read,ACK
7.444930250000000,792,0xD1,0x30,Read,ACK
7.445146500000000,792,0xD1,0x18,Read,ACK
7.445362750000000,792,0xD1,0xA8,Read,NAK
7.446353500000000,793,0xD0,0x6D,Write,ACK
7.446569750000000,793,0xD0,0x06,Write,ACK
7.447101250000000,794,0xD0,0x6E,Write,ACK
7.447317250000000,794,0xD0,0xE0,Write,ACK
7.448364250000000,795,0xD0,0x6F,Write,ACK
7.448580500000000,795,0xD0,0x98,Write,ACK
7.448796500000000,795,0xD0,0x81,Write,ACK
7.449012750000000,795,0xD0,0x28,Write,ACK
7.449229000000000,795,0xD0,0x34,Write,ACK
7.449445250000000,795,0xD0,0x3C,Write,ACK
7.449661250000000,795,0xD0,0x97,Write,ACK
7.449877500000000,795,0xD0,0x24,Write,ACK
7.450093500000000,795,0xD0,0xA7,Write,ACK
7.450309750000000,795,0xD0,0x28,Write,ACK
7.450526000000000,795,0xD0,0x34,Write,ACK
7.450742250000000,795,0xD0,0x3C,Write,ACK
7.450958250000000,795,0xD0,0x9C,Write,ACK
7.451174500000000,795,0xD0,0x24,Write,ACK
7.451390750000000,795,0xD0,0xF2,Write,ACK
7.451607000000000,795,0xD0,0xB0,Write,ACK
7.451823000000000,795,0xD0,0x89,Write,ACK
7.452380500000000,796,0xD0,0x6D,Write,ACK
7.452596750000000,796,0xD0,0x06,Write,ACK
7.453128250000000,797,0xD0,0x6E,Write,ACK
7.453344250000000,797,0xD0,0xE0,Write,ACK
7.453878750000000,798,0xD0,0x6F,Write,ACK
7.454387250000000,799,0xD1,0x98,Read,ACK
7.454603250000000,799,0xD1,0x81,Read,ACK
7.454819500000000,799,0xD1,0x28,Read,ACK
7.455035500000000,799,0xD1,0x34,Read,ACK
7.455251750000000,799,0xD1,0x3C,Read,ACK
7.455468000000000,799,0xD1,0x97,Read,ACK
7.455684000000000,799,0xD1,0x24,Read,ACK
7.455900000000000,799,0xD1,0xA7,Read,ACK
7.456116250000000,799,0xD1,0x28,Read,ACK
7.456332500000000,799,0xD1,0x34,Read,ACK
7.456548500000000,799,0xD1,0x3C,Read,ACK
7.456764750000000,799,0xD1,0x9C,Read,ACK
7.456980750000000,799,0xD1,0x24,Read,ACK
7.457197000000000,799,0xD1,0xF2,Read,ACK
7.457413250000000,799,0xD1,0xB0,Read,ACK
7.457629250000000,799,0xD1,0x89,Read,NAK
7.458620000000000,800,0xD0,0x6D,Write,ACK
7.458836250000000,800,0xD0,0x06,Write,ACK
7.459367750000000,801,0xD0,0x6E,Write,ACK
7.459583750000000,801,0xD0,0xF0,Write,ACK
7.460630750000000,802,0xD0,0x6F,Write,ACK
7.460847000000000,802,0xD0,0xAC,Write,ACK
7.461063000000000,802,0xD0,0x91,Write,ACK
7.461279250000000,802,0xD0,0x2C,Write,ACK
7.461495500000000,802,0xD0,0x4C,Write,ACK
7.461711750000000,802,0xD0,0x6C,Write,ACK
7.461928000000000,802,0xD0,0x8A,Write,ACK
7.462144000000000,802,0xD0,0x9B,Write,ACK
7.462360250000000,802,0xD0,0x2D,Write,ACK
7.462576500000000,802,0xD0,0xD9,Write,ACK
7.462792750000000,802,0xD0,0xD8,Write,ACK
7.463009000000000,802,0xD0,0xD8,Write,ACK
7.463225000000000,802,0xD0,0x51,Write,ACK
7.463441250000000,802,0xD0,0xD9,Write,ACK
7.463657500000000,802,0xD0,0xD8,Write,ACK
7.463873750000000,802,0xD0,0xD8,Write,ACK
7.464089750000000,802,0xD0,0x79,Write,ACK
7.464647250000000,803,0xD0,0x6D,Write,ACK
7.464863500000000,803,0xD0,0x06,Write,ACK
7.465394750000000,804,0xD0,0x6E,Write,ACK
7.465611000000000,804,0xD0,0xF0,Write,ACK
7.466145250000000,805,0xD0,0x6F,Write,ACK
7.466653500000000,806,0xD1,0xAC,Read,ACK
7.466869750000000,806,0xD1,0x91,Read,ACK
7.467085750000000,806,0xD1,0x2C,Read,ACK
7.467302000000000,806,0xD1,0x4C,Read,ACK
7.467518000000000,806,0xD1,0x6C,Read,ACK
7.467734250000000,806,0xD1,0x8A,Read,ACK
7.467950250000000,806,0xD1,0x9B,Read,ACK
7.468166250000000,806,0xD1,0x2D,Read,ACK
7.468382500000000,806,0xD1,0xD9,Read,ACK
7.468598750000000,806,0xD1,0xD8,Read,ACK
7.468814750000000,806,0xD1,0xD8,Read,ACK
7.469030750000000,806,0xD1,0x51,Read,ACK
7.469247000000000,806,0xD1,0xD9,Read,ACK
7.469463250000000,806,0xD1,0xD8,Read,ACK
7.469679250000000,806,0xD1,0xD8,Read,ACK
7.469895500000000,806,0xD1,0x79,Read,NAK
7.470887250000000,807,0xD0,0x6D,Write,ACK
7.471103500000000,807,0xD0,0x07,Write,ACK
7.471635000000000,808,0xD0,0x6E,Write,ACK
7.471851250000000,808,0xD0,0x00,Write,ACK
7.472898250000000,809,0xD0,0x6F,Write,ACK
7.473114500000000,809,0xD0,0xD9,Write,ACK
7.473330500000000,809,0xD0,0xD8,Write,ACK
7.473546750000000,809,0xD0,0xD8,Write,ACK
7.473763000000000,809,0xD0,0xF1,Write,ACK
7.473979250000000,809,0xD0,0x9E,Write,ACK
7.474195250000000,809,0xD0,0x88,Write,ACK
7.474411500000000,809,0xD0,0xA3,Write,ACK
7.474627750000000,809,0xD0,0x31,Write,ACK
7.474844000000000,809,0xD0,0xDA,Write,ACK
7.475060000000000,809,0xD0,0xD8,Write,ACK
7.475276250000000,809,0xD0,0xD8,Write,ACK
7.475492500000000,809,0xD0,0x91,Write,ACK
7.475708500000000,809,0xD0,0x2D,Write,ACK
7.475924750000000,809,0xD0,0xD9,Write,ACK
7.476141000000000,809,0xD0,0x28,Write,ACK
7.476357000000000,809,0xD0,0xD8,Write,ACK
7.476914500000000,810,0xD0,0x6D,Write,ACK
7.477130750000000,810,0xD0,0x07,Write,ACK
7.477662250000000,811,0xD0,0x6E,Write,ACK
7.477878250000000,811,0xD0,0x00,Write,ACK
7.478412750000000,812,0xD0,0x6F,Write,ACK
7.478921250000000,813,0xD1,0xD9,Read,ACK
7.479137250000000,813,0xD1,0xD8,Read,ACK
7.479353500000000,813,0xD1,0xD8,Read,ACK
7.479569750000000,813,0xD1,0xF1,Read,ACK
7.479785750000000,813,0xD1,0x9E,Read,ACK
7.480002000000000,813,0xD1,0x88,Read,ACK
7.480218000000000,813,0xD1,0xA3,Read,ACK
7.480434250000000,813,0xD1,0x31,Read,ACK
7.480650500000000,813,0xD1,0xDA,Read,ACK
7.480866500000000,813,0xD1,0xD8,Read,ACK
7.481082750000000,813,0xD1,0xD8,Read,ACK
7.481299000000000,813,0xD1,0x91,Read,ACK
7.481515000000000,813,0xD1,0x2D,Read,ACK
7.481731250000000,813,0xD1,0xD9,Read,ACK
7.481947500000000,813,0xD1,0x28,Read,ACK
7.482163500000000,813,0xD1,0xD8,Read,NAK
7.483154500000000,814,0xD0,0x6D,Write,ACK
7.483370750000000,814,0xD0,0x07,Write,ACK
7.483902250000000,815,0xD0,0x6E,Write,ACK
7.484118500000000,815,0xD0,0x10,Write,ACK
7.485165500000000,816,0xD0,0x6F,Write,ACK
7.485381750000000,816,0xD0,0x4D,Write,ACK
7.485597750000000,816,0xD0,0xD9,Write,ACK
7.485814000000000,816,0xD0,0x48,Write,ACK
7.486030250000000,816,0xD0,0xD8,Write,ACK
7.486246500000000,816,0xD0,0x6D,Write,ACK
7.486462500000000,816,0xD0,0xD9,Write,ACK
7.486678750000000,816,0xD0,0x68,Write,ACK
7.486894750000000,816,0xD0,0xD8,Write,ACK
7.487111250000000,816,0xD0,0xB1,Write,ACK
7.487327250000000,816,0xD0,0x83,Write,ACK
7.487543250000000,816,0xD0,0x93,Write,ACK
7.487759500000000,816,0xD0,0x35,Write,ACK
7.487975750000000,816,0xD0,0x3D,Write,ACK
7.488192000000000,816,0xD0,0x80,Write,ACK
7.488408000000000,816,0xD0,0x25,Write,ACK
7.488624250000000,816,0xD0,0xDA,Write,ACK
7.489181500000000,817,0xD0,0x6D,Write,ACK
7.489397750000000,817,0xD0,0x07,Write,ACK
7.489929250000000,818,0xD0,0x6E,Write,ACK
7.490145250000000,818,0xD0,0x10,Write,ACK
7.490679750000000,819,0xD0,0x6F,Write,ACK
7.491188250000000,820,0xD1,0x4D,Read,ACK
7.491404250000000,820,0xD1,0xD9,Read,ACK
7.491620500000000,820,0xD1,0x48,Read,ACK
7.491836500000000,820,0xD1,0xD8,Read,ACK
7.492052750000000,820,0xD1,0x6D,Read,ACK
7.492269000000000,820,0xD1,0xD9,Read,ACK
7.492485000000000,820,0xD1,0x68,Read,ACK
7.492701250000000,820,0xD1,0xD8,Read,ACK
7.492917250000000,820,0xD1,0xB1,Read,ACK
7.493133500000000,820,0xD1,0x83,Read,ACK
7.493349750000000,820,0xD1,0x93,Read,ACK
7.493565750000000,820,0xD1,0x35,Read,ACK
7.493781750000000,820,0xD1,0x3D,Read,ACK
7.493998000000000,820,0xD1,0x80,Read,ACK
7.494214000000000,820,0xD1,0x25,Read,ACK
7.494430250000000,820,0xD1,0xDA,Read,NAK
7.495420750000000,821,0xD0,0x6D,Write,ACK
7.495636750000000,821,0xD0,0x07,Write,ACK
7.496168250000000,822,0xD0,0x6E,Write,ACK
7.496384500000000,822,0xD0,0x20,Write,ACK
7.497431250000000,823,0xD0,0x6F,Write,ACK
7.497647500000000,823,0xD0,0xD8,Write,ACK
7.497863750000000,823,0xD0,0xD8,Write,ACK
7.498080000000000,823,0xD0,0x85,Write,ACK
7.498296000000000,823,0xD0,0x69,Write,ACK
7.498512250000000,823,0xD0,0xDA,Write,ACK
7.498728500000000,823,0xD0,0xD8,Write,ACK
7.498944500000000,823,0xD0,0xD8,Write,ACK
7.499160500000000,823,0xD0,0xB4,Write,ACK
7.499377000000000,823,0xD0,0x93,Write,ACK
7.499593000000000,823,0xD0,0x81,Write,ACK
7.499809250000000,823,0xD0,0xA3,Write,ACK
7.500025250000000,823,0xD0,0x28,Write,ACK
7.500241500000000,823,0xD0,0x34,Write,ACK
7.500457750000000,823,0xD0,0x3C,Write,ACK
7.500673750000000,823,0xD0,0xF3,Write,ACK
7.500890000000000,823,0xD0,0xAB,Write,ACK
7.501447250000000,824,0xD0,0x6D,Write,ACK
7.501663500000000,824,0xD0,0x07,Write,ACK
7.502195000000000,825,0xD0,0x6E,Write,ACK
7.502411000000000,825,0xD0,0x20,Write,ACK
7.502945250000000,826,0xD0,0x6F,Write,ACK
7.503453750000000,827,0xD1,0xD8,Read,ACK
7.503669750000000,827,0xD1,0xD8,Read,ACK
7.503886000000000,827,0xD1,0x85,Read,ACK
7.504102250000000,827,0xD1,0x69,Read,ACK
7.504318250000000,827,0xD1,0xDA,Read,ACK
7.504534500000000,827,0xD1,0xD8,Read,ACK
7.504750750000000,827,0xD1,0xD8,Read,ACK
7.504966750000000,827,0xD1,0xB4,Read,ACK
7.505183000000000,827,0xD1,0x93,Read,ACK
7.505399000000000,827,0xD1,0x81,Read,ACK
7.505615250000000,827,0xD1,0xA3,Read,ACK
7.505831500000000,827,0xD1,0x28,Read,ACK
7.506047500000000,827,0xD1,0x34,Read,ACK
7.506263750000000,827,0xD1,0x3C,Read,ACK
7.506480000000000,827,0xD1,0xF3,Read,ACK
7.506696000000000,827,0xD1,0xAB,Read,NAK
7.507686750000000,828,0xD0,0x6D,Write,ACK
7.507902750000000,828,0xD0,0x07,Write,ACK
7.508434250000000,829,0xD0,0x6E,Write,ACK
7.508650500000000,829,0xD0,0x30,Write,ACK
7.509697000000000,830,0xD0,0x6F,Write,ACK
7.509913500000000,830,0xD0,0x8B,Write,ACK
7.510129500000000,830,0xD0,0xF8,Write,ACK
7.510345750000000,830,0xD0,0xA3,Write,ACK
7.510562000000000,830,0xD0,0x91,Write,ACK
7.510778250000000,830,0xD0,0xB6,Write,ACK
7.510994250000000,830,0xD0,0x09,Write,ACK
7.511210500000000,830,0xD0,0xB4,Write,ACK
7.511426750000000,830,0xD0,0xD9,Write,ACK
7.511643000000000,830,0xD0,0xAB,Write,ACK
7.511859000000000,830,0xD0,0xDE,Write,ACK
7.512075250000000,830,0xD0,0xFA,Write,ACK
7.512291500000000,830,0xD0,0xB0,Write,ACK
7.512507500000000,830,0xD0,0x87,Write,ACK
7.512723750000000,830,0xD0,0x9C,Write,ACK
7.512940000000000,830,0xD0,0xB9,Write,ACK
7.513156000000000,830,0xD0,0xA3,Write,ACK
7.513713500000000,831,0xD0,0x6D,Write,ACK
7.513929500000000,831,0xD0,0x07,Write,ACK
7.514461000000000,832,0xD0,0x6E,Write,ACK
7.514677250000000,832,0xD0,0x30,Write,ACK
7.515211500000000,833,0xD0,0x6F,Write,ACK
7.515719750000000,834,0xD1,0x8B,Read,ACK
7.515936000000000,834,0xD1,0xF8,Read,ACK
7.516152250000000,834,0xD1,0xA3,Read,ACK
7.516368500000000,834,0xD1,0x91,Read,ACK
7.516584500000000,834,0xD1,0xB6,Read,ACK
7.516800750000000,834,0xD1,0x09,Read,ACK
7.517016750000000,834,0xD1,0xB4,Read,ACK
7.517233000000000,834,0xD1,0xD9,Read,ACK
7.517449000000000,834,0xD1,0xAB,Read,ACK
7.517665250000000,834,0xD1,0xDE,Read,ACK
7.517881500000000,834,0xD1,0xFA,Read,ACK
7.518097500000000,834,0xD1,0xB0,Read,ACK
7.518313750000000,834,0xD1,0x87,Read,ACK
7.518529750000000,834,0xD1,0x9C,Read,ACK
7.518746000000000,834,0xD1,0xB9,Read,ACK
7.518962000000000,834,0xD1,0xA3,Read,NAK
7.519952750000000,835,0xD0,0x6D,Write,ACK
7.520168750000000,835,0xD0,0x07,Write,ACK
7.520700250000000,836,0xD0,0x6E,Write,ACK
7.520916250000000,836,0xD0,0x40,Write,ACK
7.521963000000000,837,0xD0,0x6F,Write,ACK
7.522179250000000,837,0xD0,0xDD,Write,ACK
7.522395500000000,837,0xD0,0xF1,Write,ACK
7.522611500000000,837,0xD0,0xA3,Write,ACK
7.522827750000000,837,0xD0,0xA3,Write,ACK
7.523043750000000,837,0xD0,0xA3,Write,ACK
7.523260000000000,837,0xD0,0xA3,Write,ACK
7.523476250000000,837,0xD0,0x95,Write,ACK
7.523692250000000,837,0xD0,0xF1,Write,ACK
7.523908500000000,837,0xD0,0xA3,Write,ACK
7.524124750000000,837,0xD0,0xA3,Write,ACK
7.524340750000000,837,0xD0,0xA3,Write,ACK
7.524557000000000,837,0xD0,0x9D,Write,ACK
7.524773250000000,837,0xD0,0xF1,Write,ACK
7.524989250000000,837,0xD0,0xA3,Write,ACK
7.525205500000000,837,0xD0,0xA3,Write,ACK
7.525421500000000,837,0xD0,0xA3,Write,ACK
7.525979000000000,838,0xD0,0x6D,Write,ACK
7.526195000000000,838,0xD0,0x07,Write,ACK
7.526726250000000,839,0xD0,0x6E,Write,ACK
7.526942500000000,839,0xD0,0x40,Write,ACK
7.527476750000000,840,0xD0,0x6F,Write,ACK
7.527985000000000,841,0xD1,0xDD,Read,ACK
7.528201250000000,841,0xD1,0xF1,Read,ACK
7.528417250000000,841,0xD1,0xA3,Read,ACK
7.528633500000000,841,0xD1,0xA3,Read,ACK
7.528849750000000,841,0xD1,0xA3,Read,ACK
7.529065750000000,841,0xD1,0xA3,Read,ACK
7.529282000000000,841,0xD1,0x95,Read,ACK
7.529498250000000,841,0xD1,0xF1,Read,ACK
7.529714250000000,841,0xD1,0xA3,Read,ACK
7.529930500000000,841,0xD1,0xA3,Read,ACK
7.530146750000000,841,0xD1,0xA3,Read,ACK
7.530363000000000,841,0xD1,0x9D,Read,ACK
7.530579000000000,841,0xD1,0xF1,Read,ACK
7.530795250000000,841,0xD1,0xA3,Read,ACK
7.531011250000000,841,0xD1,0xA3,Read,ACK
7.531227500000000,841,0xD1,0xA3,Read,NAK
7.532218000000000,842,0xD0,0x6D,Write,ACK
7.532434250000000,842,0xD0,0x07,Write,ACK
7.532965500000000,843,0xD0,0x6E,Write,ACK
7.533181750000000,843,0xD0,0x50,Write,ACK
7.534228500000000,844,0xD0,0x6F,Write,ACK
7.534444750000000,844,0xD0,0xA3,Write,ACK
7.534661000000000,844,0xD0,0xF2,Write,ACK
7.534877250000000,844,0xD0,0xA3,Write,ACK
7.535093250000000,844,0xD0,0xB4,Write,ACK
7.535309500000000,844,0xD0,0x90,Write,ACK
7.535525750000000,844,0xD0,0x80,Write,ACK
7.535742000000000,844,0xD0,0xF2,Write,ACK
7.535958000000000,844,0xD0,0xA3,Write,ACK
7.536174250000000,844,0xD0,0xA3,Write,ACK
7.536390250000000,844,0xD0,0xA3,Write,ACK
7.536606500000000,844,0xD0,0xA3,Write,ACK
7.536822500000000,844,0xD0,0xA3,Write,ACK
7.537038750000000,844,0xD0,0xA3,Write,ACK
7.537255000000000,844,0xD0,0xA3,Write,ACK
7.537471250000000,844,0xD0,0xA3,Write,ACK
7.537687250000000,844,0xD0,0xA3,Write,ACK
7.538244750000000,845,0xD0,0x6D,Write,ACK
7.538460750000000,845,0xD0,0x07,Write,ACK
7.538992250000000,846,0xD0,0x6E,Write,ACK
7.539208500000000,846,0xD0,0x50,Write,ACK
7.539742750000000,847,0xD0,0x6F,Write,ACK
7.540251000000000,848,0xD1,0xA3,Read,ACK
7.540467250000000,848,0xD1,0xF2,Read,ACK
7.540683500000000,848,0xD1,0xA3,Read,ACK
7.540899500000000,848,0xD1,0xB4,Read,ACK
7.541115750000000,848,0xD1,0x90,Read,ACK
7.541331750000000,848,0xD1,0x80,Read,ACK
7.541548000000000,848,0xD1,0xF2,Read,ACK
7.541764000000000,848,0xD1,0xA3,Read,ACK
7.541980250000000,848,0xD1,0xA3,Read,ACK
7.542196250000000,848,0xD1,0xA3,Read,ACK
7.542412500000000,848,0xD1,0xA3,Read,ACK
7.542628750000000,848,0xD1,0xA3,Read,ACK
7.542844750000000,848,0xD1,0xA3,Read,ACK
7.543061000000000,848,0xD1,0xA3,Read,ACK
7.543277250000000,848,0xD1,0xA3,Read,ACK
7.543493250000000,848,0xD1,0xA3,Read,NAK
7.544484000000000,849,0xD0,0x6D,Write,ACK
7.544700000000000,849,0xD0,0x07,Write,ACK
7.545231500000000,850,0xD0,0x6E,Write,ACK
7.545447500000000,850,0xD0,0x60,Write,ACK
7.546494250000000,851,0xD0,0x6F,Write,ACK
7.546710250000000,851,0xD0,0xA3,Write,ACK
7.546926500000000,851,0xD0,0xB2,Write,ACK
7.547142750000000,851,0xD0,0xA3,Write,ACK
7.547358750000000,851,0xD0,0xA3,Write,ACK
7.547574750000000,851,0xD0,0xA3,Write,ACK
7.547791000000000,851,0xD0,0xA3,Write,ACK
7.548007250000000,851,0xD0,0xA3,Write,ACK
7.548223250000000,851,0xD0,0xA3,Write,ACK
7.548439500000000,851,0xD0,0xB0,Write,ACK
7.548655750000000,851,0xD0,0x87,Write,ACK
7.548872000000000,851,0xD0,0xB5,Write,ACK
7.549088000000000,851,0xD0,0x99,Write,ACK
7.549304250000000,851,0xD0,0xF1,Write,ACK
7.549520500000000,851,0xD0,0xA3,Write,ACK
7.549736500000000,851,0xD0,0xA3,Write,ACK
7.549952750000000,851,0xD0,0xA3,Write,ACK
7.550510250000000,852,0xD0,0x6D,Write,ACK
7.550726500000000,852,0xD0,0x07,Write,ACK
7.551257750000000,853,0xD0,0x6E,Write,ACK
7.551474000000000,853,0xD0,0x60,Write,ACK
7.552008500000000,854,0xD0,0x6F,Write,ACK
7.552516750000000,855,0xD1,0xA3,Read,ACK
7.552732750000000,855,0xD1,0xB2,Read,ACK
7.552949000000000,855,0xD1,0xA3,Read,ACK
7.553165000000000,855,0xD1,0xA3,Read,ACK
7.553381250000000,855,0xD1,0xA3,Read,ACK
7.553597250000000,855,0xD1,0xA3,Read,ACK
7.553813750000000,855,0xD1,0xA3,Read,ACK
7.554029750000000,855,0xD1,0xA3,Read,ACK
7.554245750000000,855,0xD1,0xB0,Read,ACK
7.554462000000000,855,0xD1,0x87,Read,ACK
7.554678250000000,855,0xD1,0xB5,Read,ACK
7.554894250000000,855,0xD1,0x99,Read,ACK
7.555110250000000,855,0xD1,0xF1,Read,ACK
7.555326500000000,855,0xD1,0xA3,Read,ACK
7.555542750000000,855,0xD1,0xA3,Read,ACK
7.555758750000000,855,0xD1,0xA3,Read,NAK
7.556749500000000,856,0xD0,0x6D,Write,ACK
7.556965750000000,856,0xD0,0x07,Write,ACK
7.557497250000000,857,0xD0,0x6E,Write,ACK
7.557713250000000,857,0xD0,0x70,Write,ACK
7.558760000000000,858,0xD0,0x6F,Write,ACK
7.558976250000000,858,0xD0,0x98,Write,ACK
7.559192500000000,858,0xD0,0xF1,Write,ACK
7.559408750000000,858,0xD0,0xA3,Write,ACK
7.559624750000000,858,0xD0,0xA3,Write,ACK
7.559841000000000,858,0xD0,0xA3,Write,ACK
7.560057250000000,858,0xD0,0xA3,Write,ACK
7.560273250000000,858,0xD0,0x97,Write,ACK
7.560489500000000,858,0xD0,0xA3,Write,ACK
7.560705500000000,858,0xD0,0xA3,Write,ACK
7.560921750000000,858,0xD0,0xA3,Write,ACK
7.561138000000000,858,0xD0,0xA3,Write,ACK
7.561354000000000,858,0xD0,0xF3,Write,ACK
7.561570000000000,858,0xD0,0x9B,Write,ACK
7.561786250000000,858,0xD0,0xA3,Write,ACK
7.562002500000000,858,0xD0,0xA3,Write,ACK
7.562218500000000,858,0xD0,0xDC,Write,ACK
7.562776000000000,859,0xD0,0x6D,Write,ACK
7.562992000000000,859,0xD0,0x07,Write,ACK
7.563523500000000,860,0xD0,0x6E,Write,ACK
7.563739750000000,860,0xD0,0x70,Write,ACK
7.564274000000000,861,0xD0,0x6F,Write,ACK
7.564782250000000,862,0xD1,0x98,Read,ACK
7.564998500000000,862,0xD1,0xF1,Read,ACK
7.565214750000000,862,0xD1,0xA3,Read,ACK
7.565430750000000,862,0xD1,0xA3,Read,ACK
7.565647000000000,862,0xD1,0xA3,Read,ACK
7.565863000000000,862,0xD1,0xA3,Read,ACK
7.566079250000000,862,0xD1,0x97,Read,ACK
7.566295250000000,862,0xD1,0xA3,Read,ACK
7.566511500000000,862,0xD1,0xA3,Read,ACK
7.566727500000000,862,0xD1,0xA3,Read,ACK
7.566943750000000,862,0xD1,0xA3,Read,ACK
7.567160000000000,862,0xD1,0xF3,Read,ACK
7.567376000000000,862,0xD1,0x9B,Read,ACK
7.567592000000000,862,0xD1,0xA3,Read,ACK
7.567808250000000,862,0xD1,0xA3,Read,ACK
7.568024500000000,862,0xD1,0xDC,Read,NAK
7.569015250000000,863,0xD0,0x6D,Write,ACK
7.569231250000000,863,0xD0,0x07,Write,ACK
7.569762750000000,864,0xD0,0x6E,Write,ACK
7.569979000000000,864,0xD0,0x80,Write,ACK
7.570824500000000,865,0xD0,0x6F,Write,ACK
7.571040750000000,865,0xD0,0xB9,Write,ACK
7.571256750000000,865,0xD0,0xA7,Write,ACK
7.571473000000000,865,0xD0,0xF1,Write,ACK
7.571689000000000,865,0xD0,0x26,Write,ACK
7.571905250000000,865,0xD0,0x26,Write,ACK
7.572121500000000,865,0xD0,0x26,Write,ACK
7.572337500000000,865,0xD0,0xD8,Write,ACK
7.572553750000000,865,0xD0,0xD8,Write,ACK
7.572770000000000,865,0xD0,0xFF,Write,ACK
7.573327250000000,866,0xD0,0x6D,Write,ACK
7.573543500000000,866,0xD0,0x07,Write,ACK
7.574074750000000,867,0xD0,0x6E,Write,ACK
7.574291000000000,867,0xD0,0x80,Write,ACK
7.574825250000000,868,0xD0,0x6F,Write,ACK
7.575333750000000,869,0xD1,0xB9,Read,ACK
7.575549750000000,869,0xD1,0xA7,Read,ACK
7.575766000000000,869,0xD1,0xF1,Read,ACK
7.575982000000000,869,0xD1,0x26,Read,ACK
7.576198250000000,869,0xD1,0x26,Read,ACK
7.576414250000000,869,0xD1,0x26,Read,ACK
7.576630500000000,869,0xD1,0xD8,Read,ACK
7.576846500000000,869,0xD1,0xD8,Read,ACK
7.577062750000000,869,0xD1,0xFF,Read,NAK
7.753993750000000,870,0xD0,0x6D,Write,ACK
7.754210000000000,870,0xD0,0x03,Write,ACK
7.754741500000000,871,0xD0,0x6E,Write,ACK
7.754957750000000,871,0xD0,0x7B,Write,ACK
7.755886750000000,872,0xD0,0x6F,Write,ACK
7.756103000000000,872,0xD0,0x00,Write,ACK
7.756319250000000,872,0xD0,0x6C,Write,ACK
7.756535500000000,872,0xD0,0x02,Write,ACK
7.757092000000000,873,0xD0,0x6D,Write,ACK
7.757308250000000,873,0xD0,0x03,Write,ACK
7.757839750000000,874,0xD0,0x6E,Write,ACK
7.758056000000000,874,0xD0,0x7B,Write,ACK
7.758590500000000,875,0xD0,0x6F,Write,ACK
7.759099000000000,876,0xD1,0x00,Read,ACK
7.759315250000000,876,0xD1,0x6C,Read,ACK
7.759531500000000,876,0xD1,0x02,Read,NAK
7.815563750000000,877,0xD0,0x6D,Write,ACK
7.815780000000000,877,0xD0,0x03,Write,ACK
7.816311500000000,878,0xD0,0x6E,Write,ACK
7.816527750000000,878,0xD0,0xAB,Write,ACK
7.817456750000000,879,0xD0,0x6F,Write,ACK
7.817672750000000,879,0xD0,0x00,Write,ACK
7.817889000000000,879,0xD0,0x6C,Write,ACK
7.818105250000000,879,0xD0,0x02,Write,ACK
7.818661750000000,880,0xD0,0x6D,Write,ACK
7.818878000000000,880,0xD0,0x03,Write,ACK
7.819409500000000,881,0xD0,0x6E,Write,ACK
7.819625750000000,881,0xD0,0xAB,Write,ACK
7.820160250000000,882,0xD0,0x6F,Write,ACK
7.820668750000000,883,0xD1,0x00,Read,ACK
7.820884750000000,883,0xD1,0x6C,Read,ACK
7.821101000000000,883,0xD1,0x02,Read,NAK
7.877106750000000,884,0xD0,0x6D,Write,ACK
7.877323000000000,884,0xD0,0x00,Write,ACK
7.877854500000000,885,0xD0,0x6E,Write,ACK
7.878070750000000,885,0xD0,0x68,Write,ACK
7.879013500000000,886,0xD0,0x6F,Write,ACK
7.879229500000000,886,0xD0,0x00,Write,ACK
7.879445750000000,886,0xD0,0x6C,Write,ACK
7.879662000000000,886,0xD0,0x02,Write,ACK
7.879878250000000,886,0xD0,0x20,Write,ACK
7.880440750000000,887,0xD0,0x6D,Write,ACK
7.880657000000000,887,0xD0,0x00,Write,ACK
7.881188500000000,888,0xD0,0x6E,Write,ACK
7.881404750000000,888,0xD0,0x68,Write,ACK
7.881939250000000,889,0xD0,0x6F,Write,ACK
7.882447750000000,890,0xD1,0x00,Read,ACK
7.882664000000000,890,0xD1,0x6C,Read,ACK
7.882880250000000,890,0xD1,0x02,Read,ACK
7.883096500000000,890,0xD1,0x20,Read,NAK
7.939125750000000,891,0xD0,0x6D,Write,ACK
7.939341750000000,891,0xD0,0x02,Write,ACK
7.939873250000000,892,0xD0,0x6E,Write,ACK
7.940089500000000,892,0xD0,0x18,Write,ACK
7.941032250000000,893,0xD0,0x6F,Write,ACK
7.941248500000000,893,0xD0,0x00,Write,ACK
7.941464500000000,893,0xD0,0x6C,Write,ACK
7.941680750000000,893,0xD0,0x02,Write,ACK
7.941897000000000,893,0xD0,0x20,Write,ACK
7.942459500000000,894,0xD0,0x6D,Write,ACK
7.942675750000000,894,0xD0,0x02,Write,ACK
7.943207250000000,895,0xD0,0x6E,Write,ACK
7.943423250000000,895,0xD0,0x18,Write,ACK
7.943957750000000,896,0xD0,0x6F,Write,ACK
7.944466250000000,897,0xD1,0x00,Read,ACK
7.944682250000000,897,0xD1,0x6C,Read,ACK
7.944898500000000,897,0xD1,0x02,Read,ACK
7.945114750000000,897,0xD1,0x20,Read,NAK
7.999730250000000,898,0xD0,0x6D,Write,ACK
7.999946500000000,898,0xD0,0x01,Write,ACK
8.000477999999999,899,0xD0,0x6E,Write,ACK
8.000694250000000,899,0xD0,0x0C,Write,ACK
8.001637000000001,900,0xD0,0x6F,Write,ACK
8.001853000000001,900,0xD0,0x00,Write,ACK
8.002069250000000,900,0xD0,0x6C,Write,ACK
8.002285499999999,900,0xD0,0x02,Write,ACK
8.002501750000000,900,0xD0,0x20,Write,ACK
8.003064250000000,901,0xD0,0x6D,Write,ACK
8.003280250000000,901,0xD0,0x01,Write,ACK
8.003811750000001,902,0xD0,0x6E,Write,ACK
8.004028000000000,902,0xD0,0x0C,Write,ACK
8.004562500000000,903,0xD0,0x6F,Write,ACK
8.005070999999999,904,0xD1,0x00,Read,ACK
8.005287250000000,904,0xD1,0x6C,Read,ACK
8.005503250000000,904,0xD1,0x02,Read,ACK
8.005719500000000,904,0xD1,0x20,Read,NAK
8.061763500000000,905,0xD0,0x6D,Write,ACK
8.061979750000001,905,0xD0,0x03,Write,ACK
8.062511000000001,906,0xD0,0x6E,Write,ACK
8.062727250000000,906,0xD0,0x7F,Write,ACK
8.063698250000000,907,0xD0,0x6F,Write,ACK
8.063914499999999,907,0xD0,0x00,Write,ACK
8.064130750000000,907,0xD0,0x6C,Write,ACK
8.064347000000000,907,0xD0,0x02,Write,ACK
8.064563250000001,907,0xD0,0x20,Write,ACK
8.064779500000000,907,0xD0,0x00,Write,ACK
8.064995750000000,907,0xD0,0x02,Write,ACK
8.065556250000000,908,0xD0,0x6D,Write,ACK
8.065772500000000,908,0xD0,0x03,Write,ACK
8.066304000000001,909,0xD0,0x6E,Write,ACK
8.066520250000000,909,0xD0,0x7F,Write,ACK
8.067054499999999,910,0xD0,0x6F,Write,ACK
8.067563000000000,911,0xD1,0x00,Read,ACK
8.067779249999999,911,0xD1,0x6C,Read,ACK
8.067995500000000,911,0xD1,0x02,Read,ACK
8.068211500000000,911,0xD1,0x20,Read,ACK
8.068428000000001,911,0xD1,0x00,Read,ACK
8.068644000000001,911,0xD1,0x02,Read,NAK
8.124725249999999,912,0xD0,0x6D,Write,ACK
8.124941500000000,912,0xD0,0x03,Write,ACK
8.125473000000000,913,0xD0,0x6E,Write,ACK
8.125689250000001,913,0xD0,0x89,Write,ACK
8.126618000000001,914,0xD0,0x6F,Write,ACK
8.126834000000001,914,0xD0,0x00,Write,ACK
8.127050250000000,914,0xD0,0x6C,Write,ACK
8.127266499999999,914,0xD0,0x02,Write,ACK
8.127822999999999,915,0xD0,0x6D,Write,ACK
8.128038999999999,915,0xD0,0x03,Write,ACK
8.128570500000000,916,0xD0,0x6E,Write,ACK
8.128786750000000,916,0xD0,0x89,Write,ACK
8.129320999999999,917,0xD0,0x6F,Write,ACK
8.129829500000000,918,0xD1,0x00,Read,ACK
8.130045750000001,918,0xD1,0x6C,Read,ACK
8.130262000000000,918,0xD1,0x02,Read,NAK
8.186272000000001,919,0xD0,0x6D,Write,ACK
8.186488000000001,919,0xD0,0x00,Write,ACK
8.187019250000001,920,0xD0,0x6E,Write,ACK
8.187235500000000,920,0xD0,0x6C,Write,ACK
8.188150000000000,921,0xD0,0x6F,Write,ACK
8.188366250000000,921,0xD0,0x00,Write,ACK
8.188582500000001,921,0xD0,0x6C,Write,ACK
8.189139750000001,922,0xD0,0x6D,Write,ACK
8.189356000000000,922,0xD0,0x00,Write,ACK
8.189887499999999,923,0xD0,0x6E,Write,ACK
8.190103499999999,923,0xD0,0x6C,Write,ACK
8.190638000000000,924,0xD0,0x6F,Write,ACK
8.191146500000000,925,0xD1,0x00,Read,ACK
8.191362500000000,925,0xD1,0x6C,Read,NAK
8.247334250000000,926,0xD0,0x6D,Write,ACK
8.247550250000000,926,0xD0,0x02,Write,ACK
8.248081750000001,927,0xD0,0x6E,Write,ACK
8.248298000000000,927,0xD0,0x40,Write,ACK
8.249240500000001,928,0xD0,0x6F,Write,ACK
8.249456750000000,928,0xD0,0x00,Write,ACK
8.249673000000000,928,0xD0,0x6C,Write,ACK
8.249889000000000,928,0xD0,0x02,Write,ACK
8.250105250000001,928,0xD0,0x20,Write,ACK
8.250667750000000,929,0xD0,0x6D,Write,ACK
8.250883750000000,929,0xD0,0x02,Write,ACK
8.251415250000001,930,0xD0,0x6E,Write,ACK
8.251631500000000,930,0xD0,0x40,Write,ACK
8.252165750000000,931,0xD0,0x6F,Write,ACK
8.252674250000000,932,0xD1,0x00,Read,ACK
8.252890250000000,932,0xD1,0x6C,Read,ACK
8.253106499999999,932,0xD1,0x02,Read,ACK
8.253322499999999,932,0xD1,0x20,Read,NAK
8.309343750000000,933,0xD0,0x6D,Write,ACK
8.309559999999999,933,0xD0,0x02,Write,ACK
8.310091500000000,934,0xD0,0x6E,Write,ACK
8.310307500000000,934,0xD0,0x44,Write,ACK
8.311250250000001,935,0xD0,0x6F,Write,ACK
8.311466500000000,935,0xD0,0x00,Write,ACK
8.311682500000000,935,0xD0,0x6C,Write,ACK
8.311898749999999,935,0xD0,0x02,Write,ACK
8.312115000000000,935,0xD0,0x20,Write,ACK
8.312677250000000,936,0xD0,0x6D,Write,ACK
8.312893499999999,936,0xD0,0x02,Write,ACK
8.313425000000001,937,0xD0,0x6E,Write,ACK
8.313641250000000,937,0xD0,0x44,Write,ACK
8.314175499999999,938,0xD0,0x6F,Write,ACK
8.314684000000000,939,0xD1,0x00,Read,ACK
8.314900250000001,939,0xD1,0x6C,Read,ACK
8.315116500000000,939,0xD1,0x02,Read,ACK
8.315332500000000,939,0xD1,0x20,Read,NAK
8.371359500000001,940,0xD0,0x6D,Write,ACK
8.371575500000001,940,0xD0,0x02,Write,ACK
8.372106750000000,941,0xD0,0x6E,Write,ACK
8.372323000000000,941,0xD0,0x48,Write,ACK
8.373265500000000,942,0xD0,0x6F,Write,ACK
8.373481750000000,942,0xD0,0x00,Write,ACK
8.373697999999999,942,0xD0,0x6C,Write,ACK
8.373913999999999,942,0xD0,0x02,Write,ACK
8.374130250000000,942,0xD0,0x20,Write,ACK
8.374692749999999,943,0xD0,0x6D,Write,ACK
8.374908749999999,943,0xD0,0x02,Write,ACK
8.375440250000000,944,0xD0,0x6E,Write,ACK
8.375656500000000,944,0xD0,0x48,Write,ACK
8.376190749999999,945,0xD0,0x6F,Write,ACK
8.376699250000000,946,0xD1,0x00,Read,ACK
8.376915250000000,946,0xD1,0x6C,Read,ACK
8.377131500000001,946,0xD1,0x02,Read,ACK
8.377347750000000,946,0xD1,0x20,Read,NAK
8.433378500000000,947,0xD0,0x6D,Write,ACK
8.433594500000000,947,0xD0,0x02,Write,ACK
8.434125999999999,948,0xD0,0x6E,Write,ACK
8.434341999999999,948,0xD0,0x4C,Write,ACK
8.435284749999999,949,0xD0,0x6F,Write,ACK
8.435501000000000,949,0xD0,0x00,Write,ACK
8.435717000000000,949,0xD0,0x6C,Write,ACK
8.435933250000000,949,0xD0,0x02,Write,ACK
8.436149500000001,949,0xD0,0x20,Write,ACK
8.436712000000000,950,0xD0,0x6D,Write,ACK
8.436928000000000,950,0xD0,0x02,Write,ACK
8.437459499999999,951,0xD0,0x6E,Write,ACK
8.437675750000000,951,0xD0,0x4C,Write,ACK
8.438210000000000,952,0xD0,0x6F,Write,ACK
8.438718500000000,953,0xD1,0x00,Read,ACK
8.438934500000000,953,0xD1,0x6C,Read,ACK
8.439150750000000,953,0xD1,0x02,Read,ACK
8.439367000000001,953,0xD1,0x20,Read,NAK
8.495398249999999,954,0xD0,0x6D,Write,ACK
8.495614500000000,954,0xD0,0x02,Write,ACK
8.496146000000000,955,0xD0,0x6E,Write,ACK
8.496362250000001,955,0xD0,0x50,Write,ACK
8.497305000000001,956,0xD0,0x6F,Write,ACK
8.497521000000001,956,0xD0,0x00,Write,ACK
8.497737250000000,956,0xD0,0x6C,Write,ACK
8.497953499999999,956,0xD0,0x02,Write,ACK
8.498169750000001,956,0xD0,0x20,Write,ACK
8.498732250000000,957,0xD0,0x6D,Write,ACK
8.498948499999999,957,0xD0,0x02,Write,ACK
8.499479750000001,958,0xD0,0x6E,Write,ACK
8.499696000000000,958,0xD0,0x50,Write,ACK
8.500230250000000,959,0xD0,0x6F,Write,ACK
8.500738750000000,960,0xD1,0x00,Read,ACK
8.500954750000000,960,0xD1,0x6C,Read,ACK
8.501170999999999,960,0xD1,0x02,Read,ACK
8.501386999999999,960,0xD1,0x20,Read,NAK
8.557415000000001,961,0xD0,0x6D,Write,ACK
8.557631250000000,961,0xD0,0x02,Write,ACK
8.558162500000000,962,0xD0,0x6E,Write,ACK
8.558378749999999,962,0xD0,0x54,Write,ACK
8.559321499999999,963,0xD0,0x6F,Write,ACK
8.559537750000000,963,0xD0,0x00,Write,ACK
8.559754000000000,963,0xD0,0x6C,Write,ACK
8.559970249999999,963,0xD0,0x02,Write,ACK
8.560186500000000,963,0xD0,0x20,Write,ACK
8.560748999999999,964,0xD0,0x6D,Write,ACK
8.560964999999999,964,0xD0,0x02,Write,ACK
8.561496500000001,965,0xD0,0x6E,Write,ACK
8.561712500000001,965,0xD0,0x54,Write,ACK
8.562246999999999,966,0xD0,0x6F,Write,ACK
8.562755500000000,967,0xD1,0x00,Read,ACK
8.562971500000000,967,0xD1,0x6C,Read,ACK
8.563187750000001,967,0xD1,0x02,Read,ACK
8.563404000000000,967,0xD1,0x20,Read,NAK
8.619437749999999,968,0xD0,0x6D,Write,ACK
8.619653749999999,968,0xD0,0x02,Write,ACK
8.620185250000000,969,0xD0,0x6E,Write,ACK
8.620401500000000,969,0xD0,0x58,Write,ACK
8.621344250000000,970,0xD0,0x6F,Write,ACK
8.621560499999999,970,0xD0,0x00,Write,ACK
8.621776750000000,970,0xD0,0x6C,Write,ACK
8.621993000000000,970,0xD0,0x02,Write,ACK
8.622209249999999,970,0xD0,0x20,Write,ACK
8.622771750000000,971,0xD0,0x6D,Write,ACK
8.622987750000000,971,0xD0,0x02,Write,ACK
8.623519249999999,972,0xD0,0x6E,Write,ACK
8.623735500000000,972,0xD0,0x58,Write,ACK
8.624269999999999,973,0xD0,0x6F,Write,ACK
8.624778500000000,974,0xD1,0x00,Read,ACK
8.624994500000000,974,0xD1,0x6C,Read,ACK
8.625210750000001,974,0xD1,0x02,Read,ACK
8.625427000000000,974,0xD1,0x20,Read,NAK
8.681467000000000,975,0xD0,0x6D,Write,ACK
8.681683000000000,975,0xD0,0x02,Write,ACK
8.682214500000001,976,0xD0,0x6E,Write,ACK
8.682430750000000,976,0xD0,0x5C,Write,ACK
8.683373250000001,977,0xD0,0x6F,Write,ACK
8.683589500000000,977,0xD0,0x00,Write,ACK
8.683805500000000,977,0xD0,0x6C,Write,ACK
8.684021749999999,977,0xD0,0x02,Write,ACK
8.684238000000001,977,0xD0,0x20,Write,ACK
8.684800500000000,978,0xD0,0x6D,Write,ACK
8.685016750000001,978,0xD0,0x02,Write,ACK
8.685548499999999,979,0xD0,0x6E,Write,ACK
8.685764499999999,979,0xD0,0x5C,Write,ACK
8.686299000000000,980,0xD0,0x6F,Write,ACK
8.686807249999999,981,0xD1,0x00,Read,ACK
8.687023500000000,981,0xD1,0x6C,Read,ACK
8.687239750000000,981,0xD1,0x02,Read,ACK
8.687455750000000,981,0xD1,0x20,Read,NAK
8.743503250000000,982,0xD0,0x6D,Write,ACK
8.743719499999999,982,0xD0,0x02,Write,ACK
8.744251000000000,983,0xD0,0x6E,Write,ACK
8.744467250000000,983,0xD0,0xBC,Write,ACK
8.745410000000000,984,0xD0,0x6F,Write,ACK
8.745626000000000,984,0xD0,0x00,Write,ACK
8.745842250000001,984,0xD0,0x6C,Write,ACK
8.746058500000000,984,0xD0,0x02,Write,ACK
8.746274750000000,984,0xD0,0x20,Write,ACK
8.746836999999999,985,0xD0,0x6D,Write,ACK
8.747053250000000,985,0xD0,0x02,Write,ACK
8.747584750000000,986,0xD0,0x6E,Write,ACK
8.747800750000000,986,0xD0,0xBC,Write,ACK
8.748335250000000,987,0xD0,0x6F,Write,ACK
8.748843500000000,988,0xD1,0x00,Read,ACK
8.749059750000001,988,0xD1,0x6C,Read,ACK
8.749275750000001,988,0xD1,0x02,Read,ACK
8.749492000000000,988,0xD1,0x20,Read,NAK
8.805534249999999,989,0xD0,0x6D,Write,ACK
8.805750500000000,989,0xD0,0x01,Write,ACK
8.806281999999999,990,0xD0,0x6E,Write,ACK
8.806497999999999,990,0xD0,0xEC,Write,ACK
8.807440750000000,991,0xD0,0x6F,Write,ACK
8.807657000000001,991,0xD0,0x00,Write,ACK
8.807873250000000,991,0xD0,0x6C,Write,ACK
8.808089250000000,991,0xD0,0x02,Write,ACK
8.808305499999999,991,0xD0,0x20,Write,ACK
8.808868000000000,992,0xD0,0x6D,Write,ACK
8.809084000000000,992,0xD0,0x01,Write,ACK
8.809615500000000,993,0xD0,0x6E,Write,ACK
8.809831750000001,993,0xD0,0xEC,Write,ACK
8.810366000000000,994,0xD0,0x6F,Write,ACK
8.810874500000001,995,0xD1,0x00,Read,ACK
8.811090500000001,995,0xD1,0x6C,Read,ACK
8.811306750000000,995,0xD1,0x02,Read,ACK
8.811522750000000,995,0xD1,0x20,Read,NAK
8.867564500000000,996,0xD0,0x6D,Write,ACK
8.867780750000000,996,0xD0,0x03,Write,ACK
8.868312000000000,997,0xD0,0x6E,Write,ACK
8.868528250000001,997,0xD0,0x7F,Write,ACK
8.869498999999999,998,0xD0,0x6F,Write,ACK
8.869715250000000,998,0xD0,0x00,Write,ACK
8.869931250000000,998,0xD0,0x6C,Write,ACK
8.870147500000000,998,0xD0,0x02,Write,ACK
8.870363500000000,998,0xD0,0x20,Write,ACK
8.870580000000000,998,0xD0,0x00,Write,ACK
8.870796000000000,998,0xD0,0x02,Write,ACK
8.871356499999999,999,0xD0,0x6D,Write,ACK
8.871572750000000,999,0xD0,0x03,Write,ACK
8.872104500000001,1000,0xD0,0x6E,Write,ACK
8.872320500000001,1000,0xD0,0x7F,Write,ACK
8.872854999999999,1001,0xD0,0x6F,Write,ACK
8.873363250000001,1002,0xD1,0x00,Read,ACK
8.873579500000000,1002,0xD1,0x6C,Read,ACK
8.873795500000000,1002,0xD1,0x02,Read,ACK
8.874011749999999,1002,0xD1,0x20,Read,ACK
8.874228000000000,1002,0xD1,0x00,Read,ACK
8.874444000000000,1002,0xD1,0x02,Read,NAK
8.929106750000001,1003,0xD0,0x6D,Write,ACK
8.929323000000000,1003,0xD0,0x04,Write,ACK
8.929854499999999,1004,0xD0,0x6E,Write,ACK
8.930070750000001,1004,0xD0,0x02,Write,ACK
8.930999500000000,1005,0xD0,0x6F,Write,ACK
8.931215750000000,1005,0xD0,0x00,Write,ACK
8.931431999999999,1005,0xD0,0x6C,Write,ACK
8.931648250000000,1005,0xD0,0x02,Write,ACK
8.932204750000000,1006,0xD0,0x6D,Write,ACK
8.932421000000000,1006,0xD0,0x04,Write,ACK
8.932952250000000,1007,0xD0,0x6E,Write,ACK
8.933168250000000,1007,0xD0,0x02,Write,ACK
8.933702750000000,1008,0xD0,0x6F,Write,ACK
8.934211250000001,1009,0xD1,0x00,Read,ACK
8.934427500000000,1009,0xD1,0x6C,Read,ACK
8.934643500000000,1009,0xD1,0x02,Read,NAK
8.989221250000000,1010,0xD0,0x6D,Write,ACK
8.989437250000000,1010,0xD0,0x04,Write,ACK
8.989968749999999,1011,0xD0,0x6E,Write,ACK
8.990185000000000,1011,0xD0,0x09,Write,ACK
8.991127499999999,1012,0xD0,0x6F,Write,ACK
8.991343750000000,1012,0xD0,0x00,Write,ACK
8.991560000000000,1012,0xD0,0x6C,Write,ACK
8.991776249999999,1012,0xD0,0x02,Write,ACK
8.991992249999999,1012,0xD0,0x20,Write,ACK
8.992554999999999,1013,0xD0,0x6D,Write,ACK
8.992770999999999,1013,0xD0,0x04,Write,ACK
8.993302500000000,1014,0xD0,0x6E,Write,ACK
8.993518750000000,1014,0xD0,0x09,Write,ACK
8.994052999999999,1015,0xD0,0x6F,Write,ACK
8.994561250000000,1016,0xD1,0x00,Read,ACK
8.994777250000000,1016,0xD1,0x6C,Read,ACK
8.994993500000000,1016,0xD1,0x02,Read,ACK
8.995209750000001,1016,0xD1,0x20,Read,NAK
9.051240999999999,1017,0xD0,0x6D,Write,ACK
9.051456999999999,1017,0xD0,0x00,Write,ACK
9.051988500000000,1018,0xD0,0x6E,Write,ACK
9.052204500000000,1018,0xD0,0xA3,Write,ACK
9.053105000000000,1019,0xD0,0x6F,Write,ACK
9.053321250000000,1019,0xD0,0x00,Write,ACK
9.053879500000001,1020,0xD0,0x6D,Write,ACK
9.054095500000001,1020,0xD0,0x00,Write,ACK
9.054627000000000,1021,0xD0,0x6E,Write,ACK
9.054843249999999,1021,0xD0,0xA3,Write,ACK
9.055377500000001,1022,0xD0,0x6F,Write,ACK
9.055891000000001,1023,0xD1,0x00,Read,NAK
9.075669250000001,1024,0xD0,0x38,Write,ACK
9.075885250000001,1024,0xD0,0x32,Write,ACK
9.131712750000000,1025,0xD0,0x6D,Write,ACK
9.131929000000000,1025,0xD0,0x07,Write,ACK
9.132460500000001,1026,0xD0,0x6E,Write,ACK
9.132676750000000,1026,0xD0,0x86,Write,ACK
9.133577499999999,1027,0xD0,0x6F,Write,ACK
9.133793750000001,1027,0xD0,0x00,Write,ACK
9.134352249999999,1028,0xD0,0x6D,Write,ACK
9.134568500000000,1028,0xD0,0x07,Write,ACK
9.135100000000000,1029,0xD0,0x6E,Write,ACK
9.135316250000001,1029,0xD0,0x86,Write,ACK
9.135850749999999,1030,0xD0,0x6F,Write,ACK
9.136364250000000,1031,0xD1,0x00,Read,NAK
9.192322500000000,1032,0xD0,0x6D,Write,ACK
9.192538500000000,1032,0xD0,0x07,Write,ACK
9.193070000000001,1033,0xD0,0x6E,Write,ACK
9.193286250000000,1033,0xD0,0x41,Write,ACK
9.194242750000001,1034,0xD0,0x6F,Write,ACK
9.194459000000000,1034,0xD0,0x00,Write,ACK
9.194675000000000,1034,0xD0,0x6C,Write,ACK
9.194891250000000,1034,0xD0,0x02,Write,ACK
9.195107500000001,1034,0xD0,0x20,Write,ACK
9.195323500000001,1034,0xD0,0x00,Write,ACK
9.195885000000001,1035,0xD0,0x6D,Write,ACK
9.196101250000000,1035,0xD0,0x07,Write,ACK
9.196632500000000,1036,0xD0,0x6E,Write,ACK
9.196848500000000,1036,0xD0,0x41,Write,ACK
9.197383000000000,1037,0xD0,0x6F,Write,ACK
9.197891250000000,1038,0xD1,0x00,Read,ACK
9.198107500000001,1038,0xD1,0x6C,Read,ACK
9.198323500000001,1038,0xD1,0x02,Read,ACK
9.198539750000000,1038,0xD1,0x20,Read,ACK
9.198755750000000,1038,0xD1,0x00,Read,NAK
9.254823999999999,1039,0xD0,0x6D,Write,ACK
9.255039999999999,1039,0xD0,0x07,Write,ACK
9.255571750000000,1040,0xD0,0x6E,Write,ACK
9.255787750000000,1040,0xD0,0x7E,Write,ACK
9.256688499999999,1041,0xD0,0x6F,Write,ACK
9.256904750000000,1041,0xD0,0x00,Write,ACK
9.257463250000001,1042,0xD0,0x6D,Write,ACK
9.257679250000001,1042,0xD0,0x07,Write,ACK
9.258210750000000,1043,0xD0,0x6E,Write,ACK
9.258426750000000,1043,0xD0,0x7E,Write,ACK
9.258961500000000,1044,0xD0,0x6F,Write,ACK
9.259474750000001,1045,0xD1,0x00,Read,NAK
9.315430250000000,1046,0xD0,0x6D,Write,ACK
9.315646500000000,1046,0xD0,0x07,Write,ACK
9.316177750000000,1047,0xD0,0x6E,Write,ACK
9.316394000000001,1047,0xD0,0x46,Write,ACK
9.317294750000000,1048,0xD0,0x6F,Write,ACK
9.317511000000000,1048,0xD0,0x00,Write,ACK
9.318069500000000,1049,0xD0,0x6D,Write,ACK
9.318285500000000,1049,0xD0,0x07,Write,ACK
9.318816999999999,1050,0xD0,0x6E,Write,ACK
9.319033250000000,1050,0xD0,0x46,Write,ACK
9.319567500000000,1051,0xD0,0x6F,Write,ACK
9.320081000000000,1052,0xD1,0x00,Read,NAK
9.376035000000000,1053,0xD0,0x6D,Write,ACK
9.376251249999999,1053,0xD0,0x07,Write,ACK
9.376782499999999,1054,0xD0,0x6E,Write,ACK
9.376998750000000,1054,0xD0,0x47,Write,ACK
9.377941500000000,1055,0xD0,0x6F,Write,ACK
9.378157750000000,1055,0xD0,0x00,Write,ACK
9.378374000000001,1055,0xD0,0x6C,Write,ACK
9.378590250000000,1055,0xD0,0x02,Write,ACK
9.378806500000000,1055,0xD0,0x20,Write,ACK
9.379369000000001,1056,0xD0,0x6D,Write,ACK
9.379585000000001,1056,0xD0,0x07,Write,ACK
9.380116500000000,1057,0xD0,0x6E,Write,ACK
9.380332750000001,1057,0xD0,0x47,Write,ACK
9.380867250000000,1058,0xD0,0x6F,Write,ACK
9.381375500000001,1059,0xD1,0x00,Read,ACK
9.381591750000000,1059,0xD1,0x6C,Read,ACK
9.381807999999999,1059,0xD1,0x02,Read,ACK
9.382023999999999,1059,0xD1,0x20,Read,NAK
9.438062250000000,1060,0xD0,0x6D,Write,ACK
9.438278250000000,1060,0xD0,0x07,Write,ACK
9.438809750000001,1061,0xD0,0x6E,Write,ACK
9.439026000000000,1061,0xD0,0x6C,Write,ACK
9.439968750000000,1062,0xD0,0x6F,Write,ACK
9.440184750000000,1062,0xD0,0x00,Write,ACK
9.440401000000000,1062,0xD0,0x6C,Write,ACK
9.440617250000001,1062,0xD0,0x02,Write,ACK
9.440833250000001,1062,0xD0,0x20,Write,ACK
9.441395750000000,1063,0xD0,0x6D,Write,ACK
9.441611999999999,1063,0xD0,0x07,Write,ACK
9.442143250000001,1064,0xD0,0x6E,Write,ACK
9.442359500000000,1064,0xD0,0x6C,Write,ACK
9.442893750000000,1065,0xD0,0x6F,Write,ACK
9.443402250000000,1066,0xD1,0x00,Read,ACK
9.443618499999999,1066,0xD1,0x6C,Read,ACK
9.443834750000001,1066,0xD1,0x02,Read,ACK
9.444050750000001,1066,0xD1,0x20,Read,NAK
9.500079500000000,1067,0xD0,0x6D,Write,ACK
9.500295749999999,1067,0xD0,0x02,Write,ACK
9.500827250000000,1068,0xD0,0x6E,Write,ACK
9.501043250000000,1068,0xD0,0x16,Write,ACK
9.501958000000000,1069,0xD0,0x6F,Write,ACK
9.502174249999999,1069,0xD0,0x00,Write,ACK
9.502390500000001,1069,0xD0,0x6C,Write,ACK
9.502948000000000,1070,0xD0,0x6D,Write,ACK
9.503164000000000,1070,0xD0,0x02,Write,ACK
9.503695499999999,1071,0xD0,0x6E,Write,ACK
9.503911750000000,1071,0xD0,0x16,Write,ACK
9.504446000000000,1072,0xD0,0x6F,Write,ACK
9.504954500000000,1073,0xD1,0x00,Read,ACK
9.505170500000000,1073,0xD1,0x6C,Read,NAK
9.591460750000000,1074,0xD0,0x6B,Write,ACK
9.591965000000000,1075,0xD1,0x00,Read,NAK
9.592547250000001,1076,0xD0,0x6B,Write,ACK
9.592763500000000,1076,0xD0,0x03,Write,ACK
9.643381750000000,1077,0xD0,0x38,Write,ACK
9.643598000000001,1077,0xD0,0x12,Write,ACK
9.676749500000000,1078,0xD0,0x19,Write,ACK
9.676965750000001,1078,0xD0,0x04,Write,ACK
9.726822750000000,1079,0xD0,0x1A,Write,ACK
9.727327250000000,1080,0xD1,0x00,Read,NAK
9.727951750000001,1081,0xD0,0x1A,Write,ACK
9.728168000000000,1081,0xD0,0x08,Write,ACK
9.762893750000000,1082,0xD0,0x1A,Write,ACK
9.763398250000000,1083,0xD1,0x08,Read,NAK
9.763980750000000,1084,0xD0,0x1A,Write,ACK
9.764196750000000,1084,0xD0,0x0B,Write,ACK
9.813772999999999,1085,0xD0,0x1B,Write,ACK
9.814277250000000,1086,0xD1,0x00,Read,NAK
9.814895000000000,1087,0xD0,0x1B,Write,ACK
9.815111249999999,1087,0xD0,0x18,Write,ACK
9.871032500000000,1088,0xD0,0x70,Write,ACK
9.871248749999999,1088,0xD0,0x03,Write,ACK
9.871779999999999,1089,0xD0,0x71,Write,ACK
9.871996250000000,1089,0xD0,0x00,Write,ACK
9.898219750000001,1090,0xD0,0x00,Write,ACK
9.898724000000000,1091,0xD1,0x81,Read,NAK
9.899267500000001,1092,0xD0,0x00,Write,ACK
9.899483500000001,1092,0xD0,0x80,Write,ACK
9.950120999999999,1093,0xD0,0x00,Write,ACK
9.950625499999999,1094,0xD1,0x80,Read,NAK
9.951243000000000,1095,0xD0,0x00,Write,ACK
9.951459000000000,1095,0xD0,0x80,Write,ACK
9.952021500000001,1096,0xD0,0x01,Write,ACK
9.952525750000000,1097,0xD1,0x79,Read,NAK
9.953143250000000,1098,0xD0,0x01,Write,ACK
9.953359499999999,1098,0xD0,0x79,Write,ACK
9.953921749999999,1099,0xD0,0x02,Write,ACK
9.954426249999999,1100,0xD1,0x81,Read,NAK
9.955043750000000,1101,0xD0,0x02,Write,ACK
9.955260000000001,1101,0xD0,0x81,Write,ACK
9.999530500000001,1102,0xD0,0x13,Write,ACK
10.000062750000000,1103,0xD0,0x00,Write,ACK
10.000279000000001,1103,0xD0,0xFC,Write,ACK
10.000845500000000,1104,0xD0,0x15,Write,ACK
10.001377750000000,1105,0xD0,0x00,Write,ACK
10.001593750000000,1105,0xD0,0x08,Write,ACK
10.002160249999999,1106,0xD0,0x17,Write,ACK
10.002692750000000,1107,0xD0,0x00,Write,ACK
10.002908750000000,1107,0xD0,0x14,Write,ACK
10.077614750000000,1108,0xD0,0x6D,Write,ACK
10.077831000000000,1108,0xD0,0x01,Write,ACK
10.078362250000000,1109,0xD0,0x6E,Write,ACK
10.078578500000001,1109,0xD0,0xB2,Write,ACK
10.079337000000001,1110,0xD0,0x6F,Write,ACK
10.079553250000000,1110,0xD0,0xFF,Write,ACK
10.079769250000000,1110,0xD0,0xFF,Write,ACK
10.080326749999999,1111,0xD0,0x6D,Write,ACK
10.080543000000000,1111,0xD0,0x01,Write,ACK
10.081074250000000,1112,0xD0,0x6E,Write,ACK
10.081290500000000,1112,0xD0,0xB2,Write,ACK
10.081825000000000,1113,0xD0,0x6F,Write,ACK
10.082333250000000,1114,0xD1,0xFF,Read,ACK
10.082549250000000,1114,0xD1,0xFF,Read,NAK
10.157379250000000,1115,0xD0,0x6D,Write,ACK
10.157595499999999,1115,0xD0,0x01,Write,ACK
10.158126749999999,1116,0xD0,0x6E,Write,ACK
10.158343000000000,1116,0xD0,0x90,Write,ACK
10.159129500000001,1117,0xD0,0x6F,Write,ACK
10.159345750000000,1117,0xD0,0x09,Write,ACK
10.159561999999999,1117,0xD0,0x23,Write,ACK
10.159777999999999,1117,0xD0,0xA1,Write,ACK
10.159994250000000,1117,0xD0,0x35,Write,ACK
10.160556750000000,1118,0xD0,0x6D,Write,ACK
10.160772750000000,1118,0xD0,0x01,Write,ACK
10.161304250000001,1119,0xD0,0x6E,Write,ACK
10.161520500000000,1119,0xD0,0x90,Write,ACK
10.162055000000001,1120,0xD0,0x6F,Write,ACK
10.162563250000000,1121,0xD1,0x09,Read,ACK
10.162779499999999,1121,0xD1,0x23,Read,ACK
10.162995750000000,1121,0xD1,0xA1,Read,ACK
10.163212000000000,1121,0xD1,0x35,Read,NAK
10.181147749999999,1122,0xD0,0x6A,Write,ACK
10.181652000000000,1123,0xD1,0x00,Read,NAK
10.182211499999999,1124,0xD0,0x6A,Write,ACK
10.182427750000000,1124,0xD0,0x04,Write,ACK
10.204412250000001,1125,0xD0,0x72,Write,ACK
10.204920749999999,1126,0xD1,0x00,Read,ACK
10.205136749999999,1126,0xD1,0x00,Read,NAK
10.274123500000000,1127,0xD0,0x1F,Write,ACK
10.274339749999999,1127,0xD0,0x02,Write,ACK
10.326268499999999,1128,0xD0,0x21,Write,ACK
10.326484750000001,1128,0xD0,0x9C,Write,ACK
10.371110500000000,1129,0xD0,0x20,Write,ACK
10.371326500000000,1129,0xD0,0x50,Write,ACK
10.420120000000001,1130,0xD0,0x22,Write,ACK
10.420336250000000,1130,0xD0,0x00,Write,ACK
10.438901250000001,1131,0xD0,0x6A,Write,ACK
10.439405499999999,1132,0xD1,0x00,Read,NAK
10.439965000000001,1133,0xD0,0x6A,Write,ACK
10.440181000000001,1133,0xD0,0x04,Write,ACK
10.456866750000000,1134,0xD0,0x6A,Write,ACK
10.457371000000000,1135,0xD1,0x00,Read,NAK
10.457958250000001,1136,0xD0,0x6A,Write,ACK
10.458174500000000,1136,0xD0,0x40,Write,ACK
10.473801750000000,1137,0xD0,0x6A,Write,ACK
10.474306250000000,1138,0xD1,0x40,Read,NAK
10.474900750000000,1139,0xD0,0x6A,Write,ACK
10.475116750000000,1139,0xD0,0xC0,Write,ACK
10.491804500000001,1140,0xD0,0x6A,Write,ACK
10.492309000000001,1141,0xD1,0xC0,Read,NAK
10.492875250000001,1142,0xD0,0x6A,Write,ACK
10.493091500000000,1142,0xD0,0xC8,Write,ACK
10.567789749999999,1143,0xD0,0x6D,Write,ACK
10.568005749999999,1143,0xD0,0x01,Write,ACK
10.568537250000000,1144,0xD0,0x6E,Write,ACK
10.568753500000000,1144,0xD0,0x6A,Write,ACK
10.569512000000000,1145,0xD0,0x6F,Write,ACK
10.569728250000001,1145,0xD0,0x06,Write,ACK
10.569944250000001,1145,0xD0,0x00,Write,ACK
10.570501500000001,1146,0xD0,0x6D,Write,ACK
10.570717750000000,1146,0xD0,0x01,Write,ACK
10.571249000000000,1147,0xD0,0x6E,Write,ACK
10.571465249999999,1147,0xD0,0x6A,Write,ACK
10.571999750000000,1148,0xD0,0x6F,Write,ACK
10.572507999999999,1149,0xD1,0x06,Read,ACK
10.572724250000000,1149,0xD1,0x00,Read,NAK
10.647558750000000,1150,0xD0,0x6D,Write,ACK
10.647774750000000,1150,0xD0,0x01,Write,ACK
10.648306249999999,1151,0xD0,0x6E,Write,ACK
10.648522249999999,1151,0xD0,0x60,Write,ACK
10.649364750000000,1152,0xD0,0x6F,Write,ACK
10.649581000000000,1152,0xD0,0x00,Write,ACK
10.649797000000000,1152,0xD0,0x00,Write,ACK
10.650013000000000,1152,0xD0,0x00,Write,ACK
10.650229250000001,1152,0xD0,0x00,Write,ACK
10.650445500000000,1152,0xD0,0x00,Write,ACK
10.650661500000000,1152,0xD0,0x00,Write,ACK
10.650877749999999,1152,0xD0,0x00,Write,ACK
10.651093749999999,1152,0xD0,0x00,Write,ACK
10.651652250000000,1153,0xD0,0x6D,Write,ACK
10.651868250000000,1153,0xD0,0x01,Write,ACK
10.652399750000001,1154,0xD0,0x6E,Write,ACK
10.652615750000001,1154,0xD0,0x60,Write,ACK
10.653150249999999,1155,0xD0,0x6F,Write,ACK
10.653658750000000,1156,0xD1,0x00,Read,ACK
10.653874750000000,1156,0xD1,0x00,Read,ACK
10.654090999999999,1156,0xD1,0x00,Read,ACK
10.654306999999999,1156,0xD1,0x00,Read,ACK
10.654523250000000,1156,0xD1,0x00,Read,ACK
10.654739500000000,1156,0xD1,0x00,Read,ACK
10.654955500000000,1156,0xD1,0x00,Read,ACK
10.655171500000000,1156,0xD1,0x00,Read,NAK
10.730155999999999,1157,0xD0,0x6D,Write,ACK
10.730371999999999,1157,0xD0,0x00,Write,ACK
10.730903500000000,1158,0xD0,0x6E,Write,ACK
10.731119500000000,1158,0xD0,0x60,Write,ACK
10.731906250000000,1159,0xD0,0x6F,Write,ACK
10.732122250000000,1159,0xD0,0x40,Write,ACK
10.732338499999999,1159,0xD0,0x00,Write,ACK
10.732554750000000,1159,0xD0,0x00,Write,ACK
10.732770750000000,1159,0xD0,0x00,Write,ACK
10.733333249999999,1160,0xD0,0x6D,Write,ACK
10.733549500000001,1160,0xD0,0x00,Write,ACK
10.734081000000000,1161,0xD0,0x6E,Write,ACK
10.734297249999999,1161,0xD0,0x60,Write,ACK
10.734831750000000,1162,0xD0,0x6F,Write,ACK
10.735340000000001,1163,0xD1,0x40,Read,ACK
10.735556250000000,1163,0xD1,0x00,Read,ACK
10.735772250000000,1163,0xD1,0x00,Read,ACK
10.735988499999999,1163,0xD1,0x00,Read,NAK
10.766647499999999,1164,0xD0,0x72,Write,ACK
10.767155750000001,1165,0xD1,0x00,Read,ACK
10.767372000000000,1165,0xD1,0x00,Read,NAK
10.767967499999999,1166,0xD0,0x72,Write,ACK
10.768475750000000,1167,0xD1,0x00,Read,ACK
10.768692000000000,1167,0xD1,0x00,Read,NAK
10.769287750000000,1168,0xD0,0x72,Write,ACK
10.769796250000001,1169,0xD1,0x00,Read,ACK
10.770012250000001,1169,0xD1,0x00,Read,NAK
10.770607750000000,1170,0xD0,0x72,Write,ACK
10.771115999999999,1171,0xD1,0x00,Read,ACK
10.771332250000000,1171,0xD1,0x00,Read,NAK
10.771928000000001,1172,0xD0,0x72,Write,ACK
10.772436250000000,1173,0xD1,0x00,Read,ACK
10.772652500000000,1173,0xD1,0x00,Read,NAK
10.773248000000001,1174,0xD0,0x72,Write,ACK
10.773756250000000,1175,0xD1,0x00,Read,ACK
10.773972250000000,1175,0xD1,0x00,Read,NAK
10.774567749999999,1176,0xD0,0x72,Write,ACK
10.775076000000000,1177,0xD1,0x00,Read,ACK
10.775292250000000,1177,0xD1,0x00,Read,NAK
10.775887500000000,1178,0xD0,0x72,Write,ACK
10.776396000000000,1179,0xD1,0x00,Read,ACK
10.776612000000000,1179,0xD1,0x00,Read,NAK
10.777207499999999,1180,0xD0,0x72,Write,ACK
10.777715750000000,1181,0xD1,0x00,Read,ACK
10.777932000000000,1181,0xD1,0x00,Read,NAK
10.778527250000000,1182,0xD0,0x72,Write,ACK
10.779035750000000,1183,0xD1,0x00,Read,ACK
10.779251750000000,1183,0xD1,0x00,Read,NAK
10.779847250000000,1184,0xD0,0x72,Write,ACK
10.780355500000001,1185,0xD1,0x00,Read,ACK
10.780571500000001,1185,0xD1,0x00,Read,NAK
10.781167000000000,1186,0xD0,0x72,Write,ACK
10.781675249999999,1187,0xD1,0x00,Read,ACK
10.781891500000000,1187,0xD1,0x00,Read,NAK
10.782486750000000,1188,0xD0,0x72,Write,ACK
10.782995250000001,1189,0xD1,0x00,Read,ACK
10.783211250000001,1189,0xD1,0x00,Read,NAK
10.783806750000000,1190,0xD0,0x72,Write,ACK
10.784315250000001,1191,0xD1,0x00,Read,ACK
10.784531250000001,1191,0xD1,0x00,Read,NAK
10.785126750000000,1192,0xD0,0x72,Write,ACK
10.785634999999999,1193,0xD1,0x00,Read,ACK
10.785851250000000,1193,0xD1,0x00,Read,NAK
10.786446500000000,1194,0xD0,0x72,Write,ACK
10.786955000000001,1195,0xD1,0x00,Read,ACK
10.787171250000000,1195,0xD1,0x00,Read,NAK
10.787766500000000,1196,0xD0,0x72,Write,ACK
10.788275000000001,1197,0xD1,0x00,Read,ACK
10.788491250000000,1197,0xD1,0x00,Read,NAK
10.789086500000000,1198,0xD0,0x72,Write,ACK
10.789595000000000,1199,0xD1,0x00,Read,ACK
10.789811250000000,1199,0xD1,0x00,Read,NAK
10.790406750000001,1200,0xD0,0x72,Write,ACK
10.790915000000000,1201,0xD1,0x00,Read,ACK
10.791131249999999,1201,0xD1,0x00,Read,NAK
10.791726750000000,1202,0xD0,0x72,Write,ACK
10.792235000000000,1203,0xD1,0x00,Read,ACK
10.792451249999999,1203,0xD1,0x00,Read,NAK
10.793046750000000,1204,0xD0,0x72,Write,ACK
10.793555000000000,1205,0xD1,0x00,Read,ACK
10.793771250000001,1205,0xD1,0x00,Read,NAK
10.794366500000001,1206,0xD0,0x72,Write,ACK
10.794874999999999,1207,0xD1,0x00,Read,ACK
10.795091250000000,1207,0xD1,0x00,Read,NAK
10.795686500000000,1208,0xD0,0x72,Write,ACK
10.796195000000001,1209,0xD1,0x00,Read,ACK
10.796411000000001,1209,0xD1,0x00,Read,NAK
10.797006500000000,1210,0xD0,0x72,Write,ACK
10.797514749999999,1211,0xD1,0x00,Read,ACK
10.797730749999999,1211,0xD1,0x00,Read,NAK
10.798326250000001,1212,0xD0,0x72,Write,ACK
10.798834500000000,1213,0xD1,0x00,Read,ACK
10.799050749999999,1213,0xD1,0x00,Read,NAK
10.799645999999999,1214,0xD0,0x72,Write,ACK
10.800154500000000,1215,0xD1,0x00,Read,ACK
10.800370500000000,1215,0xD1,0x00,Read,NAK
10.800966000000001,1216,0xD0,0x72,Write,ACK
10.801474250000000,1217,0xD1,0x00,Read,ACK
10.801690499999999,1217,0xD1,0x00,Read,NAK
10.802286000000000,1218,0xD0,0x72,Write,ACK
10.802794250000000,1219,0xD1,0x00,Read,ACK
10.803010250000000,1219,0xD1,0x00,Read,NAK
10.803605749999999,1220,0xD0,0x72,Write,ACK
10.804114000000000,1221,0xD1,0x00,Read,ACK
10.804330250000000,1221,0xD1,0x00,Read,NAK
10.804925750000001,1222,0xD0,0x72,Write,ACK
10.805434000000000,1223,0xD1,0x00,Read,ACK
10.805650000000000,1223,0xD1,0x00,Read,NAK
10.806245499999999,1224,0xD0,0x72,Write,ACK
10.806754000000000,1225,0xD1,0x00,Read,ACK
10.806970000000000,1225,0xD1,0x00,Read,NAK
10.807565500000001,1226,0xD0,0x72,Write,ACK
10.808073750000000,1227,0xD1,0x00,Read,ACK
10.808290000000000,1227,0xD1,0x00,Read,NAK
10.808885249999999,1228,0xD0,0x72,Write,ACK
10.809393750000000,1229,0xD1,0x00,Read,ACK
10.809609750000000,1229,0xD1,0x00,Read,NAK
10.810205249999999,1230,0xD0,0x72,Write,ACK
10.810713750000000,1231,0xD1,0x00,Read,ACK
10.810929750000000,1231,0xD1,0x00,Read,NAK
10.811525500000000,1232,0xD0,0x72,Write,ACK
10.812033749999999,1233,0xD1,0x00,Read,ACK
10.812250000000001,1233,0xD1,0x00,Read,NAK
10.812845250000001,1234,0xD0,0x72,Write,ACK
10.813353749999999,1235,0xD1,0x00,Read,ACK
10.813570000000000,1235,0xD1,0x00,Read,NAK
10.814164999999999,1236,0xD0,0x72,Write,ACK
10.814673250000000,1237,0xD1,0x00,Read,ACK
10.814889250000000,1237,0xD1,0x00,Read,NAK
10.815484750000000,1238,0xD0,0x72,Write,ACK
10.815993000000001,1239,0xD1,0x00,Read,ACK
10.816209000000001,1239,0xD1,0x00,Read,NAK
10.816804250000001,1240,0xD0,0x72,Write,ACK
10.817312500000000,1241,0xD1,0x00,Read,ACK
10.817528749999999,1241,0xD1,0x00,Read,NAK
10.818123999999999,1242,0xD0,0x72,Write,ACK
10.818632500000000,1243,0xD1,0x00,Read,ACK
10.818848500000000,1243,0xD1,0x00,Read,NAK
10.819444000000001,1244,0xD0,0x72,Write,ACK
10.819952250000000,1245,0xD1,0x00,Read,ACK
10.820168499999999,1245,0xD1,0x00,Read,NAK
10.820763749999999,1246,0xD0,0x72,Write,ACK
10.821272000000000,1247,0xD1,0x00,Read,ACK
10.821488250000000,1247,0xD1,0x00,Read,NAK
10.822083749999999,1248,0xD0,0x72,Write,ACK
10.822592000000000,1249,0xD1,0x00,Read,ACK
10.822808250000000,1249,0xD1,0x00,Read,NAK
10.823403750000001,1250,0xD0,0x72,Write,ACK
10.823912000000000,1251,0xD1,0x00,Read,ACK
10.824128249999999,1251,0xD1,0x00,Read,NAK
10.824723750000000,1252,0xD0,0x72,Write,ACK
10.825232000000000,1253,0xD1,0x00,Read,ACK
10.825448250000001,1253,0xD1,0x00,Read,NAK
10.826043500000001,1254,0xD0,0x72,Write,ACK
10.826552000000000,1255,0xD1,0x00,Read,ACK
10.826768250000001,1255,0xD1,0x00,Read,NAK
10.827363500000001,1256,0xD0,0x72,Write,ACK
10.827871999999999,1257,0xD1,0x00,Read,ACK
10.828087999999999,1257,0xD1,0x00,Read,NAK
10.828683500000000,1258,0xD0,0x72,Write,ACK
10.829192000000001,1259,0xD1,0x00,Read,ACK
10.829408000000001,1259,0xD1,0x00,Read,NAK
10.830003500000000,1260,0xD0,0x72,Write,ACK
10.830512000000001,1261,0xD1,0x00,Read,ACK
10.830728000000001,1261,0xD1,0x00,Read,NAK
10.831323500000000,1262,0xD0,0x72,Write,ACK
10.831831749999999,1263,0xD1,0x00,Read,ACK
10.832048000000000,1263,0xD1,0x00,Read,NAK
10.832643250000000,1264,0xD0,0x72,Write,ACK
10.833151750000001,1265,0xD1,0x00,Read,ACK
10.833367750000001,1265,0xD1,0x00,Read,NAK
10.833963250000000,1266,0xD0,0x72,Write,ACK
10.834471499999999,1267,0xD1,0x00,Read,ACK
10.834687750000001,1267,0xD1,0x00,Read,NAK
10.835283250000000,1268,0xD0,0x72,Write,ACK
10.835791499999999,1269,0xD1,0x00,Read,ACK
10.836007750000000,1269,0xD1,0x00,Read,NAK
10.836603000000000,1270,0xD0,0x72,Write,ACK
10.837111250000000,1271,0xD1,0x00,Read,ACK
10.837327500000001,1271,0xD1,0x00,Read,NAK
10.837922750000001,1272,0xD0,0x72,Write,ACK
10.838431249999999,1273,0xD1,0x00,Read,ACK
10.838647500000000,1273,0xD1,0x00,Read,NAK
10.839242750000000,1274,0xD0,0x72,Write,ACK
10.839751000000000,1275,0xD1,0x00,Read,ACK
10.839967250000001,1275,0xD1,0x00,Read,NAK
10.840562750000000,1276,0xD0,0x72,Write,ACK
10.841070999999999,1277,0xD1,0x00,Read,ACK
10.841287250000001,1277,0xD1,0x00,Read,NAK
10.841882500000001,1278,0xD0,0x72,Write,ACK
10.842390999999999,1279,0xD1,0x00,Read,ACK
10.842606999999999,1279,0xD1,0x00,Read,NAK
10.843202500000000,1280,0xD0,0x72,Write,ACK
10.843710750000000,1281,0xD1,0x00,Read,ACK
10.843927000000001,1281,0xD1,0x00,Read,NAK
10.844522250000001,1282,0xD0,0x72,Write,ACK
10.845030500000000,1283,0xD1,0x00,Read,ACK
10.845246749999999,1283,0xD1,0x00,Read,NAK
10.845842250000000,1284,0xD0,0x72,Write,ACK
10.846350500000000,1285,0xD1,0x00,Read,ACK
10.846566500000000,1285,0xD1,0x00,Read,NAK
10.847162000000001,1286,0xD0,0x72,Write,ACK
10.847670500000000,1287,0xD1,0x00,Read,ACK
10.847886500000000,1287,0xD1,0x00,Read,NAK
10.848482000000001,1288,0xD0,0x72,Write,ACK
10.848990499999999,1289,0xD1,0x00,Read,ACK
10.849206499999999,1289,0xD1,0x00,Read,NAK
10.849802000000000,1290,0xD0,0x72,Write,ACK
10.850310500000001,1291,0xD1,0x00,Read,ACK
10.850526750000000,1291,0xD1,0x00,Read,NAK
10.851122000000000,1292,0xD0,0x72,Write,ACK
10.851630500000001,1293,0xD1,0x00,Read,ACK
10.851846750000000,1293,0xD1,0x00,Read,NAK
10.852442249999999,1294,0xD0,0x72,Write,ACK
10.852950500000000,1295,0xD1,0x00,Read,ACK
10.853166750000000,1295,0xD1,0x00,Read,NAK
10.853762250000001,1296,0xD0,0x72,Write,ACK
10.854270500000000,1297,0xD1,0x00,Read,ACK
10.854486750000000,1297,0xD1,0x00,Read,NAK
10.855082250000001,1298,0xD0,0x72,Write,ACK
10.855590749999999,1299,0xD1,0x00,Read,ACK
10.855807000000000,1299,0xD1,0x00,Read,NAK
10.856402500000000,1300,0xD0,0x72,Write,ACK
10.856911000000000,1301,0xD1,0x00,Read,ACK
10.857127000000000,1301,0xD1,0x00,Read,NAK
10.857722499999999,1302,0xD0,0x72,Write,ACK
10.858231000000000,1303,0xD1,0x00,Read,ACK
10.858447000000000,1303,0xD1,0x00,Read,NAK
10.859042750000000,1304,0xD0,0x72,Write,ACK
10.859551250000001,1305,0xD1,0x00,Read,ACK
10.859767250000001,1305,0xD1,0x00,Read,NAK
10.860362750000000,1306,0xD0,0x72,Write,ACK
10.860871250000001,1307,0xD1,0x00,Read,ACK
10.861087250000001,1307,0xD1,0x00,Read,NAK
10.861682750000000,1308,0xD0,0x72,Write,ACK
10.862190999999999,1309,0xD1,0x00,Read,ACK
10.862407250000000,1309,0xD1,0x00,Read,NAK
10.863002750000000,1310,0xD0,0x72,Write,ACK
10.863511000000001,1311,0xD1,0x00,Read,ACK
10.863727250000000,1311,0xD1,0x00,Read,NAK
10.864322500000000,1312,0xD0,0x72,Write,ACK
10.864831000000001,1313,0xD1,0x00,Read,ACK
10.865047000000001,1313,0xD1,0x00,Read,NAK
10.865642500000000,1314,0xD0,0x72,Write,ACK
10.866151000000000,1315,0xD1,0x00,Read,ACK
10.866367000000000,1315,0xD1,0x00,Read,NAK
10.866962500000000,1316,0xD0,0x72,Write,ACK
10.867471000000000,1317,0xD1,0x00,Read,ACK
10.867687249999999,1317,0xD1,0x00,Read,NAK
10.868282499999999,1318,0xD0,0x72,Write,ACK
10.868791000000000,1319,0xD1,0x00,Read,ACK
10.869007249999999,1319,0xD1,0x00,Read,NAK
10.869602750000000,1320,0xD0,0x72,Write,ACK
10.870111000000000,1321,0xD1,0x00,Read,ACK
10.870327250000001,1321,0xD1,0x00,Read,NAK
10.870922750000000,1322,0xD0,0x72,Write,ACK
10.871431250000001,1323,0xD1,0x00,Read,ACK
10.871647250000001,1323,0xD1,0x00,Read,NAK
10.872242750000000,1324,0xD0,0x72,Write,ACK
10.872751250000000,1325,0xD1,0x00,Read,ACK
10.872967500000000,1325,0xD1,0x00,Read,NAK
10.873562750000000,1326,0xD0,0x72,Write,ACK
10.874071250000000,1327,0xD1,0x00,Read,ACK
10.874287499999999,1327,0xD1,0x00,Read,NAK
10.874883000000001,1328,0xD0,0x72,Write,ACK
10.875391499999999,1329,0xD1,0x00,Read,ACK
10.875607750000000,1329,0xD1,0x00,Read,NAK
10.876203250000000,1330,0xD0,0x72,Write,ACK
10.876711750000000,1331,0xD1,0x00,Read,ACK
10.876927750000000,1331,0xD1,0x00,Read,NAK
10.877523500000001,1332,0xD0,0x72,Write,ACK
10.878031750000000,1333,0xD1,0x00,Read,ACK
10.878247999999999,1333,0xD1,0x00,Read,NAK
10.878843500000000,1334,0xD0,0x72,Write,ACK
10.879351750000000,1335,0xD1,0x00,Read,ACK
10.879568000000001,1335,0xD1,0x00,Read,NAK
10.880163500000000,1336,0xD0,0x72,Write,ACK
10.880671749999999,1337,0xD1,0x00,Read,ACK
10.880888250000000,1337,0xD1,0x00,Read,NAK
10.881483749999999,1338,0xD0,0x72,Write,ACK
10.881992000000000,1339,0xD1,0x00,Read,ACK
10.882208250000000,1339,0xD1,0x00,Read,NAK
10.882803750000001,1340,0xD0,0x72,Write,ACK
10.883312249999999,1341,0xD1,0x00,Read,ACK
10.883528500000001,1341,0xD1,0x00,Read,NAK
10.884124000000000,1342,0xD0,0x72,Write,ACK
10.884632249999999,1343,0xD1,0x00,Read,ACK
10.884848500000000,1343,0xD1,0x00,Read,NAK
10.885444000000000,1344,0xD0,0x72,Write,ACK
10.885952500000000,1345,0xD1,0x00,Read,ACK
10.886168750000000,1345,0xD1,0x00,Read,NAK
10.886764250000001,1346,0xD0,0x72,Write,ACK
10.887272749999999,1347,0xD1,0x00,Read,ACK
10.887488749999999,1347,0xD1,0x00,Read,NAK
10.888084250000000,1348,0xD0,0x72,Write,ACK
10.888592750000001,1349,0xD1,0x00,Read,ACK
10.888808750000001,1349,0xD1,0x00,Read,NAK
10.889404250000000,1350,0xD0,0x72,Write,ACK
10.889912750000001,1351,0xD1,0x00,Read,ACK
10.890128750000001,1351,0xD1,0x00,Read,NAK
10.890724499999999,1352,0xD0,0x72,Write,ACK
10.891233000000000,1353,0xD1,0x00,Read,ACK
10.891449000000000,1353,0xD1,0x00,Read,NAK
10.892044500000001,1354,0xD0,0x72,Write,ACK
10.892552999999999,1355,0xD1,0x00,Read,ACK
10.892769250000001,1355,0xD1,0x00,Read,NAK
10.893364750000000,1356,0xD0,0x72,Write,ACK
10.893873250000000,1357,0xD1,0x00,Read,ACK
10.894089250000000,1357,0xD1,0x00,Read,NAK
10.894684750000000,1358,0xD0,0x72,Write,ACK
10.895193250000000,1359,0xD1,0x00,Read,ACK
10.895409500000000,1359,0xD1,0x00,Read,NAK
10.896005000000001,1360,0xD0,0x72,Write,ACK
10.896513499999999,1361,0xD1,0x00,Read,ACK
10.896729750000000,1361,0xD1,0x00,Read,NAK
10.897325000000000,1362,0xD0,0x72,Write,ACK
10.897833500000001,1363,0xD1,0x00,Read,ACK
10.898049750000000,1363,0xD1,0x00,Read,NAK
10.898645000000000,1364,0xD0,0x72,Write,ACK
10.899153500000001,1365,0xD1,0x00,Read,ACK
10.899369750000000,1365,0xD1,0x00,Read,NAK
10.899965249999999,1366,0xD0,0x72,Write,ACK
10.900473750000000,1367,0xD1,0x00,Read,ACK
10.900690000000001,1367,0xD1,0x00,Read,NAK
10.901285500000000,1368,0xD0,0x72,Write,ACK
10.901794000000001,1369,0xD1,0x00,Read,ACK
10.902010250000000,1369,0xD1,0x00,Read,NAK
10.902605500000000,1370,0xD0,0x72,Write,ACK
10.903114000000000,1371,0xD1,0x00,Read,ACK
10.903330000000000,1371,0xD1,0x00,Read,NAK
10.903925750000001,1372,0xD0,0x72,Write,ACK
10.904434000000000,1373,0xD1,0x00,Read,ACK
10.904650250000000,1373,0xD1,0x00,Read,NAK
10.905245750000001,1374,0xD0,0x72,Write,ACK
10.905754249999999,1375,0xD1,0x00,Read,ACK
10.905970249999999,1375,0xD1,0x00,Read,NAK
10.906566000000000,1376,0xD0,0x72,Write,ACK
10.907074500000000,1377,0xD1,0x00,Read,ACK
10.907290500000000,1377,0xD1,0x00,Read,NAK
10.907886250000001,1378,0xD0,0x72,Write,ACK
10.908394500000000,1379,0xD1,0x00,Read,ACK
10.908610749999999,1379,0xD1,0x00,Read,NAK
10.909205999999999,1380,0xD0,0x72,Write,ACK
10.909714500000000,1381,0xD1,0x00,Read,ACK
10.909930749999999,1381,0xD1,0x00,Read,NAK
10.910526000000001,1382,0xD0,0x72,Write,ACK
10.911034250000000,1383,0xD1,0x00,Read,ACK
10.911250500000000,1383,0xD1,0x00,Read,NAK
10.911846000000001,1384,0xD0,0x72,Write,ACK
10.912354499999999,1385,0xD1,0x00,Read,ACK
10.912570499999999,1385,0xD1,0x00,Read,NAK
10.913166000000000,1386,0xD0,0x72,Write,ACK
10.913674500000001,1387,0xD1,0x00,Read,ACK
10.913890500000001,1387,0xD1,0x00,Read,NAK
10.914486000000000,1388,0xD0,0x72,Write,ACK
10.914994249999999,1389,0xD1,0x00,Read,ACK
10.915210500000001,1389,0xD1,0x00,Read,NAK
10.915805750000001,1390,0xD0,0x72,Write,ACK
10.916314249999999,1391,0xD1,0x00,Read,ACK
10.916530500000000,1391,0xD1,0x00,Read,NAK
10.917125750000000,1392,0xD0,0x72,Write,ACK
10.917634000000000,1393,0xD1,0x00,Read,ACK
10.917850250000001,1393,0xD1,0x00,Read,NAK
10.918445500000001,1394,0xD0,0x72,Write,ACK
10.918953999999999,1395,0xD1,0x00,Read,ACK
10.919169999999999,1395,0xD1,0x00,Read,NAK
10.919765249999999,1396,0xD0,0x72,Write,ACK
10.920273500000000,1397,0xD1,0x00,Read,ACK
10.920489500000000,1397,0xD1,0x00,Read,NAK
10.921085000000000,1398,0xD0,0x72,Write,ACK
10.921593250000001,1399,0xD1,0x00,Read,ACK
10.921809500000000,1399,0xD1,0x00,Read,NAK
10.922404750000000,1400,0xD0,0x72,Write,ACK
10.922912999999999,1401,0xD1,0x00,Read,ACK
10.923129250000001,1401,0xD1,0x00,Read,NAK
10.923724500000001,1402,0xD0,0x72,Write,ACK
10.924232750000000,1403,0xD1,0x00,Read,ACK
10.924448750000000,1403,0xD1,0x00,Read,NAK
10.925044249999999,1404,0xD0,0x72,Write,ACK
10.925552500000000,1405,0xD1,0x00,Read,ACK
10.925768500000000,1405,0xD1,0x00,Read,NAK
10.926363750000000,1406,0xD0,0x72,Write,ACK
10.926872250000001,1407,0xD1,0x00,Read,ACK
10.927088250000001,1407,0xD1,0x00,Read,NAK
10.927683500000001,1408,0xD0,0x72,Write,ACK
10.928191999999999,1409,0xD1,0x00,Read,ACK
10.928407999999999,1409,0xD1,0x00,Read,NAK
10.929003500000000,1410,0xD0,0x72,Write,ACK
10.929511750000000,1411,0xD1,0x00,Read,ACK
10.929727750000000,1411,0xD1,0x00,Read,NAK
10.930323250000001,1412,0xD0,0x72,Write,ACK
10.930831749999999,1413,0xD1,0x00,Read,ACK
10.931047749999999,1413,0xD1,0x00,Read,NAK
10.931643250000000,1414,0xD0,0x72,Write,ACK
10.932151500000000,1415,0xD1,0x00,Read,ACK
10.932367500000000,1415,0xD1,0x00,Read,NAK
10.932963000000001,1416,0xD0,0x72,Write,ACK
10.933471250000000,1417,0xD1,0x00,Read,ACK
10.933687500000000,1417,0xD1,0x00,Read,NAK
10.934282749999999,1418,0xD0,0x72,Write,ACK
10.934791000000001,1419,0xD1,0x00,Read,ACK
10.935007250000000,1419,0xD1,0x00,Read,NAK
10.935602749999999,1420,0xD0,0x72,Write,ACK
10.936111000000000,1421,0xD1,0x00,Read,ACK
10.936327000000000,1421,0xD1,0x00,Read,NAK
10.936922500000000,1422,0xD0,0x72,Write,ACK
10.937430750000001,1423,0xD1,0x00,Read,ACK
10.937646750000001,1423,0xD1,0x00,Read,NAK
10.938242250000000,1424,0xD0,0x72,Write,ACK
10.938750499999999,1425,0xD1,0x00,Read,ACK
10.938966750000001,1425,0xD1,0x00,Read,NAK
10.939562250000000,1426,0xD0,0x72,Write,ACK
10.940070499999999,1427,0xD1,0x00,Read,ACK
10.940286750000000,1427,0xD1,0x00,Read,NAK
10.940882000000000,1428,0xD0,0x72,Write,ACK
10.941390250000000,1429,0xD1,0x00,Read,ACK
10.941606500000001,1429,0xD1,0x00,Read,NAK
10.942202000000000,1430,0xD0,0x72,Write,ACK
10.942710249999999,1431,0xD1,0x00,Read,ACK
10.942926249999999,1431,0xD1,0x00,Read,NAK
10.943521750000000,1432,0xD0,0x72,Write,ACK
10.944030000000000,1433,0xD1,0x00,Read,ACK
10.944246000000000,1433,0xD1,0x00,Read,NAK
10.944841250000000,1434,0xD0,0x72,Write,ACK
10.945349500000001,1435,0xD1,0x00,Read,ACK
10.945565750000000,1435,0xD1,0x00,Read,NAK
10.946161000000000,1436,0xD0,0x72,Write,ACK
10.946669249999999,1437,0xD1,0x00,Read,ACK
10.946885500000000,1437,0xD1,0x00,Read,NAK
10.947480750000000,1438,0xD0,0x72,Write,ACK
10.947989249999999,1439,0xD1,0x00,Read,ACK
10.948205250000001,1439,0xD1,0x00,Read,NAK
10.948800750000000,1440,0xD0,0x72,Write,ACK
10.949309000000000,1441,0xD1,0x00,Read,ACK
10.949525250000001,1441,0xD1,0x00,Read,NAK
10.950120750000000,1442,0xD0,0x72,Write,ACK
10.950628999999999,1443,0xD1,0x00,Read,ACK
10.950845250000000,1443,0xD1,0x00,Read,NAK
10.951440249999999,1444,0xD0,0x72,Write,ACK
10.951948500000000,1445,0xD1,0x00,Read,ACK
10.952164750000000,1445,0xD1,0x00,Read,NAK
10.952760000000000,1446,0xD0,0x72,Write,ACK
10.953268500000000,1447,0xD1,0x00,Read,ACK
10.953484500000000,1447,0xD1,0x00,Read,NAK
10.954079999999999,1448,0xD0,0x72,Write,ACK
10.954588250000000,1449,0xD1,0x00,Read,ACK
10.954804500000000,1449,0xD1,0x00,Read,NAK
10.955399750000000,1450,0xD0,0x72,Write,ACK
10.955908250000000,1451,0xD1,0x00,Read,ACK
10.956124250000000,1451,0xD1,0x00,Read,NAK
10.956719500000000,1452,0xD0,0x72,Write,ACK
10.957227749999999,1453,0xD1,0x00,Read,ACK
10.957444000000001,1453,0xD1,0x00,Read,NAK
10.958039250000001,1454,0xD0,0x72,Write,ACK
10.958547500000000,1455,0xD1,0x00,Read,ACK
10.958763500000000,1455,0xD1,0x00,Read,NAK
10.959358750000000,1456,0xD0,0x72,Write,ACK
10.959866999999999,1457,0xD1,0x00,Read,ACK
10.960083250000000,1457,0xD1,0x00,Read,NAK
10.960678500000000,1458,0xD0,0x72,Write,ACK
10.961186750000000,1459,0xD1,0x00,Read,ACK
10.961402750000000,1459,0xD1,0x00,Read,NAK
10.961998250000001,1460,0xD0,0x72,Write,ACK
10.962506500000000,1461,0xD1,0x00,Read,ACK
10.962722500000000,1461,0xD1,0x00,Read,NAK
10.963317750000000,1462,0xD0,0x72,Write,ACK
10.963826250000000,1463,0xD1,0x00,Read,ACK
10.964042250000000,1463,0xD1,0x00,Read,NAK
10.964637750000000,1464,0xD0,0x72,Write,ACK
10.965145750000000,1465,0xD1,0x00,Read,ACK
10.965362000000001,1465,0xD1,0x00,Read,NAK
10.965957250000001,1466,0xD0,0x72,Write,ACK
10.966465749999999,1467,0xD1,0x00,Read,ACK
10.966681749999999,1467,0xD1,0x00,Read,NAK
10.967277250000000,1468,0xD0,0x72,Write,ACK
10.967785500000000,1469,0xD1,0x00,Read,ACK
10.968001500000000,1469,0xD1,0x00,Read,NAK
10.968597000000001,1470,0xD0,0x72,Write,ACK
10.969105250000000,1471,0xD1,0x00,Read,ACK
10.969321250000000,1471,0xD1,0x00,Read,NAK
10.969916749999999,1472,0xD0,0x72,Write,ACK
10.970425000000001,1473,0xD1,0x00,Read,ACK
10.970641250000000,1473,0xD1,0x00,Read,NAK
10.971236749999999,1474,0xD0,0x72,Write,ACK
10.971745000000000,1475,0xD1,0x00,Read,ACK
10.971961250000000,1475,0xD1,0x00,Read,NAK
10.972556500000000,1476,0xD0,0x72,Write,ACK
10.973065000000000,1477,0xD1,0x00,Read,ACK
10.973281249999999,1477,0xD1,0x00,Read,NAK
10.973876750000001,1478,0xD0,0x72,Write,ACK
10.974385000000000,1479,0xD1,0x00,Read,ACK
10.974601000000000,1479,0xD1,0x00,Read,NAK
10.975196499999999,1480,0xD0,0x72,Write,ACK
10.975704750000000,1481,0xD1,0x00,Read,ACK
10.975921000000000,1481,0xD1,0x00,Read,NAK
10.976516250000000,1482,0xD0,0x72,Write,ACK
10.977024750000000,1483,0xD1,0x00,Read,ACK
10.977240999999999,1483,0xD1,0x00,Read,NAK
10.977836249999999,1484,0xD0,0x72,Write,ACK
10.978344500000000,1485,0xD1,0x00,Read,ACK
10.978560750000000,1485,0xD1,0x00,Read,NAK
10.979156250000001,1486,0xD0,0x72,Write,ACK
10.979664500000000,1487,0xD1,0x00,Read,ACK
10.979880750000000,1487,0xD1,0x00,Read,NAK
10.980476250000001,1488,0xD0,0x72,Write,ACK
10.980984500000000,1489,0xD1,0x00,Read,ACK
10.981200500000000,1489,0xD1,0x00,Read,NAK
10.981795750000000,1490,0xD0,0x72,Write,ACK
10.982303750000000,1491,0xD1,0x00,Read,ACK
10.982519999999999,1491,0xD1,0x00,Read,NAK
10.983115250000001,1492,0xD0,0x72,Write,ACK
10.983623250000001,1493,0xD1,0x00,Read,ACK
10.983839250000001,1493,0xD1,0x00,Read,NAK
10.984434750000000,1494,0xD0,0x72,Write,ACK
10.984942999999999,1495,0xD1,0x00,Read,ACK
10.985158999999999,1495,0xD1,0x00,Read,NAK
10.985754500000001,1496,0xD0,0x72,Write,ACK
10.986262750000000,1497,0xD1,0x00,Read,ACK
10.986478750000000,1497,0xD1,0x00,Read,NAK
10.987074249999999,1498,0xD0,0x72,Write,ACK
10.987582750000000,1499,0xD1,0x00,Read,ACK
10.987799000000001,1499,0xD1,0x00,Read,NAK
10.988394250000001,1500,0xD0,0x72,Write,ACK
10.988902500000000,1501,0xD1,0x00,Read,ACK
10.989118749999999,1501,0xD1,0x00,Read,NAK
10.989713999999999,1502,0xD0,0x72,Write,ACK
10.990222250000000,1503,0xD1,0x00,Read,ACK
10.990438250000000,1503,0xD1,0x00,Read,NAK
10.991033750000000,1504,0xD0,0x72,Write,ACK
10.991542250000000,1505,0xD1,0x00,Read,ACK
10.991758500000000,1505,0xD1,0x00,Read,NAK
10.992353749999999,1506,0xD0,0x72,Write,ACK
10.992862250000000,1507,0xD1,0x00,Read,ACK
10.993078250000000,1507,0xD1,0x00,Read,NAK
10.993673749999999,1508,0xD0,0x72,Write,ACK
10.994182000000000,1509,0xD1,0x00,Read,ACK
10.994398250000000,1509,0xD1,0x00,Read,NAK
10.994993500000000,1510,0xD0,0x72,Write,ACK
10.995502000000000,1511,0xD1,0x00,Read,ACK
10.995718000000000,1511,0xD1,0x00,Read,NAK
10.996313499999999,1512,0xD0,0x72,Write,ACK
10.996822000000000,1513,0xD1,0x00,Read,ACK
10.997038000000000,1513,0xD1,0x00,Read,NAK
10.997633750000000,1514,0xD0,0x72,Write,ACK
10.998142000000000,1515,0xD1,0x00,Read,ACK
10.998358000000000,1515,0xD1,0x00,Read,NAK
10.998953500000001,1516,0xD0,0x72,Write,ACK
10.999461999999999,1517,0xD1,0x00,Read,ACK
10.999678250000001,1517,0xD1,0x00,Read,NAK
11.000273500000000,1518,0xD0,0x72,Write,ACK
11.000781750000000,1519,0xD1,0x00,Read,ACK
11.000997999999999,1519,0xD1,0x00,Read,NAK
11.001593750000000,1520,0xD0,0x72,Write,ACK
11.002102000000001,1521,0xD1,0x00,Read,ACK
11.002318000000001,1521,0xD1,0x00,Read,NAK
11.002913749999999,1522,0xD0,0x72,Write,ACK
11.003422000000000,1523,0xD1,0x00,Read,ACK
11.003638250000000,1523,0xD1,0x00,Read,NAK
11.004233749999999,1524,0xD0,0x72,Write,ACK
11.004742250000000,1525,0xD1,0x00,Read,ACK
11.004958250000000,1525,0xD1,0x00,Read,NAK
11.005553500000000,1526,0xD0,0x72,Write,ACK
11.006062000000000,1527,0xD1,0x00,Read,ACK
11.006278249999999,1527,0xD1,0x00,Read,NAK
11.006873750000000,1528,0xD0,0x72,Write,ACK
11.007382000000000,1529,0xD1,0x00,Read,ACK
11.007598000000000,1529,0xD1,0x00,Read,NAK
11.008193500000001,1530,0xD0,0x72,Write,ACK
11.008701750000000,1531,0xD1,0x00,Read,ACK
11.008917750000000,1531,0xD1,0x00,Read,NAK
11.009513249999999,1532,0xD0,0x72,Write,ACK
11.010021750000000,1533,0xD1,0x00,Read,ACK
11.010237999999999,1533,0xD1,0x00,Read,NAK
11.010833500000000,1534,0xD0,0x72,Write,ACK
11.011341750000000,1535,0xD1,0x00,Read,ACK
11.011558000000001,1535,0xD1,0x00,Read,NAK
11.012153250000001,1536,0xD0,0x72,Write,ACK
11.012661749999999,1537,0xD1,0x00,Read,ACK
11.012878000000001,1537,0xD1,0x00,Read,NAK
11.013473250000001,1538,0xD0,0x72,Write,ACK
11.013981500000000,1539,0xD1,0x00,Read,ACK
11.014197749999999,1539,0xD1,0x00,Read,NAK
11.014792999999999,1540,0xD0,0x72,Write,ACK
11.015301500000000,1541,0xD1,0x00,Read,ACK
11.015517500000000,1541,0xD1,0x00,Read,NAK
11.016113000000001,1542,0xD0,0x72,Write,ACK
11.016621250000000,1543,0xD1,0x00,Read,ACK
11.016837499999999,1543,0xD1,0x00,Read,NAK
11.017432749999999,1544,0xD0,0x72,Write,ACK
11.017941250000000,1545,0xD1,0x00,Read,ACK
11.018157499999999,1545,0xD1,0x00,Read,NAK
11.018753000000000,1546,0xD0,0x72,Write,ACK
11.019261500000001,1547,0xD1,0x00,Read,ACK
11.019477750000000,1547,0xD1,0x00,Read,NAK
11.020073000000000,1548,0xD0,0x72,Write,ACK
11.020581500000000,1549,0xD1,0x00,Read,ACK
11.020797750000000,1549,0xD1,0x00,Read,NAK
11.021393249999999,1550,0xD0,0x72,Write,ACK
11.021901500000000,1551,0xD1,0x00,Read,ACK
11.022117500000000,1551,0xD1,0x00,Read,NAK
11.022713250000001,1552,0xD0,0x72,Write,ACK
11.023221500000000,1553,0xD1,0x00,Read,ACK
11.023437749999999,1553,0xD1,0x00,Read,NAK
11.024032999999999,1554,0xD0,0x72,Write,ACK
11.024541500000000,1555,0xD1,0x00,Read,ACK
11.024757500000000,1555,0xD1,0x00,Read,NAK
11.025353000000001,1556,0xD0,0x72,Write,ACK
11.025861250000000,1557,0xD1,0x00,Read,ACK
11.026077250000000,1557,0xD1,0x15,Read,NAK
11.073567250000000,1558,0xD0,0x74,Write,ACK
11.074075750000000,1559,0xD1,0xBD,Read,ACK
11.074291750000000,1559,0xD1,0xF0,Read,ACK
11.074508000000000,1559,0xD1,0x3B,Read,ACK
11.074724249999999,1559,0xD1,0x2C,Read,ACK
11.074940500000000,1559,0xD1,0x00,Read,ACK
11.075156500000000,1559,0xD1,0x00,Read,ACK
11.075372750000000,1559,0xD1,0xBD,Read,ACK
11.075588750000000,1559,0xD1,0xF0,Read,ACK
11.075805250000000,1559,0xD1,0xBD,Read,ACK
11.076021250000000,1559,0xD1,0xF0,Read,ACK
11.076237500000000,1559,0xD1,0xBD,Read,ACK
11.076453750000001,1559,0xD1,0xF0,Read,ACK
11.076670000000000,1559,0xD1,0xBD,Read,ACK
11.076886000000000,1559,0xD1,0xF0,Read,ACK
11.077102249999999,1559,0xD1,0x3B,Read,ACK
11.077318500000001,1559,0xD1,0x2C,Read,ACK
11.077534750000000,1559,0xD1,0x00,Read,ACK
11.077750750000000,1559,0xD1,0x00,Read,ACK
11.077966999999999,1559,0xD1,0xBD,Read,ACK
11.078183250000000,1559,0xD1,0xF0,Read,ACK
11.078399500000000,1559,0xD1,0x29,Read,NAK
11.106996000000001,1560,0xD0,0x3A,Write,ACK
11.107500249999999,1561,0xD1,0x05,Read,NAK
11.194750750000001,1562,0xD0,0x6D,Write,ACK
11.194967000000000,1562,0xD0,0x41,Write,ACK
11.195498250000000,1563,0xD0,0x6E,Write,ACK
11.195714499999999,1563,0xD0,0x62,Write,ACK
11.196273000000000,1564,0xD0,0x6F,Write,ACK
11.196781500000000,1565,0xD1,0x00,Read,ACK
11.196997750000000,1565,0xD1,0x00,Read,NAK
11.227522250000000,1566,0xD0,0x72,Write,ACK
11.228030750000000,1567,0xD1,0x00,Read,ACK
11.228246750000000,1567,0xD1,0x09,Read,NAK
11.274314000000000,1568,0xD0,0x74,Write,ACK
11.274822250000000,1569,0xD1,0x23,Read,ACK
11.275038500000001,1569,0xD1,0x61,Read,ACK
11.275254750000000,1569,0xD1,0x92,Read,ACK
11.275470750000000,1569,0xD1,0x04,Read,ACK
11.275687000000000,1569,0xD1,0x91,Read,ACK
11.275903000000000,1569,0xD1,0x09,Read,ACK
11.276119250000001,1569,0xD1,0x23,Read,ACK
11.276335500000000,1569,0xD1,0x00,Read,ACK
11.276551749999999,1569,0xD1,0x00,Read,NAK
11.305003500000000,1570,0xD0,0x3A,Write,ACK
11.305508000000000,1571,0xD1,0x01,Read,NAK
11.411401000000000,1572,0xD0,0x6D,Write,ACK
11.411617000000000,1572,0xD0,0x00,Write,ACK
11.412148500000001,1573,0xD0,0x6E,Write,ACK
11.412364500000001,1573,0xD0,0x60,Write,ACK
11.413151250000000,1574,0xD0,0x6F,Write,ACK
11.413367250000000,1574,0xD0,0x00,Write,ACK
11.413583500000000,1574,0xD0,0x40,Write,ACK
11.413799750000001,1574,0xD0,0x00,Write,ACK
11.414016000000000,1574,0xD0,0x00,Write,ACK
11.414578499999999,1575,0xD0,0x6D,Write,ACK
11.414794750000000,1575,0xD0,0x00,Write,ACK
11.415326000000000,1576,0xD0,0x6E,Write,ACK
11.415542250000000,1576,0xD0,0x60,Write,ACK
11.416076750000000,1577,0xD0,0x6F,Write,ACK
11.416585250000001,1578,0xD1,0x00,Read,ACK
11.416801250000001,1578,0xD1,0x40,Read,ACK
11.417017500000000,1578,0xD1,0x00,Read,ACK
11.417233749999999,1578,0xD1,0x00,Read,NAK
11.487492749999999,1579,0xD0,0x6A,Write,ACK
11.487997000000000,1580,0xD1,0xC0,Read,NAK
11.488589500000000,1581,0xD0,0x6A,Write,ACK
11.488805749999999,1581,0xD0,0x40,Write,ACK
11.608443749999999,1582,0xD0,0x6A,Write,ACK
11.608948000000000,1583,0xD1,0x40,Read,NAK
11.609507499999999,1584,0xD0,0x6A,Write,ACK
11.609723750000001,1584,0xD0,0x44,Write,ACK
11.610258999999999,1585,0xD0,0x3A,Write,ACK
11.610763499999999,1586,0xD1,0x01,Read,NAK
14.391201000000001,1587,0xD0,0x6A,Write,ACK
14.391705500000000,1588,0xD1,0x40,Read,NAK
14.392300000000001,1589,0xD0,0x6A,Write,ACK
14.392516000000001,1589,0xD0,0xC0,Write,ACK
